! Anritsu VNA Master:                        Model: MS2026C/19
! SN:                                  1815009
! /card0/usr/20180902_28.s2p
! Existing Calibration Information:
! TYPE:                         Current Settings,       Active Cal Settings
! TIME:             	   09/02/2018 06:16:32 PM,    09/02/2018 11:58:48 AM
! INTERNAL TEMP:    	                   49.5 C,                    48.8 C
! # POINTS:         	                     4001,                      4001
! START FREQ:       	              100.000 kHz,               100.000 kHz
! STOP FREQ:        	               10.000 MHz,                10.000 MHz
! SOURCE POWER:     	                      Low,                       Low
! IFBW:             	                   500 Hz,                    500 Hz
! AVG FACTOR:       	                       5 ,                        1 
! REF PLANE 1:      	                     0 mm,                      0 mm
! REF PLANE 2:      	                     0 mm,                      0 mm
! CAL TYPE:         	             1P2P S11,S21,              1P2P S11,S21
! CAL METHOD:       	                     SOLT,                      SOLT
! CAL LINE TYPE:    	                     Coax,                      Coax
! DUT PORT 1:       	                N-Conn(M),                 N-Conn(M)
! DUT PORT 2:       	                N-Conn(M),                 N-Conn(M)
! CAL STATUS:       	        OK: Accuracy High,                        --
# GHZ S RI R 50.0
! FREQ.GHZ      S11RE         S11IM         S21RE         S21IM         S12RE         S12IM         S22RE         S22IM
  0.000100000  8.105420E-03 -6.115880E-02  8.771200E-03  3.136090E-02  1.000000E+00  0.000000E+00  1.000000E+00  0.000000E+00
  0.000102475  9.588520E-03 -5.882770E-02  1.002830E-02  3.093150E-02  1.000000E+00  0.000000E+00  1.000000E+00  0.000000E+00
  0.000104950  1.048290E-02 -5.584430E-02  1.064430E-02  3.078290E-02  1.000000E+00  0.000000E+00  1.000000E+00  0.000000E+00
  0.000107425  1.258400E-02 -5.514840E-02  1.230720E-02  3.069490E-02  1.000000E+00  0.000000E+00  1.000000E+00  0.000000E+00
  0.000109900  1.317040E-02 -5.239070E-02  1.316000E-02  3.039570E-02  1.000000E+00  0.000000E+00  1.000000E+00  0.000000E+00
  0.000112375  1.433330E-02 -5.108350E-02  1.392280E-02  2.968590E-02  1.000000E+00  0.000000E+00  1.000000E+00  0.000000E+00
  0.000114850  1.538470E-02 -4.935580E-02  1.486600E-02  2.967670E-02  1.000000E+00  0.000000E+00  1.000000E+00  0.000000E+00
  0.000117325  1.759120E-02 -4.822880E-02  1.605440E-02  2.931300E-02  1.000000E+00  0.000000E+00  1.000000E+00  0.000000E+00
  0.000119800  1.735020E-02 -4.587550E-02  1.664380E-02  2.877670E-02  1.000000E+00  0.000000E+00  1.000000E+00  0.000000E+00
  0.000122275  1.808600E-02 -4.372040E-02  1.745810E-02  2.842250E-02  1.000000E+00  0.000000E+00  1.000000E+00  0.000000E+00
  0.000124750  1.878940E-02 -4.341790E-02  1.832310E-02  2.830110E-02  1.000000E+00  0.000000E+00  1.000000E+00  0.000000E+00
  0.000127225  1.954030E-02 -4.210420E-02  1.919650E-02  2.774680E-02  1.000000E+00  0.000000E+00  1.000000E+00  0.000000E+00
  0.000129700  2.056660E-02 -3.937330E-02  1.980140E-02  2.691760E-02  1.000000E+00  0.000000E+00  1.000000E+00  0.000000E+00
  0.000132175  2.137930E-02 -3.962950E-02  2.037670E-02  2.706580E-02  1.000000E+00  0.000000E+00  1.000000E+00  0.000000E+00
  0.000134650  2.230490E-02 -3.968850E-02  2.086950E-02  2.661990E-02  1.000000E+00  0.000000E+00  1.000000E+00  0.000000E+00
  0.000137125  2.244410E-02 -3.778940E-02  2.150910E-02  2.558860E-02  1.000000E+00  0.000000E+00  1.000000E+00  0.000000E+00
  0.000139600  2.361320E-02 -3.697030E-02  2.231170E-02  2.547740E-02  1.000000E+00  0.000000E+00  1.000000E+00  0.000000E+00
  0.000142075  2.472500E-02 -3.542920E-02  2.254480E-02  2.555570E-02  1.000000E+00  0.000000E+00  1.000000E+00  0.000000E+00
  0.000144550  2.451560E-02 -3.476850E-02  2.305540E-02  2.371920E-02  1.000000E+00  0.000000E+00  1.000000E+00  0.000000E+00
  0.000147025  2.579160E-02 -3.332830E-02  2.356020E-02  2.412750E-02  1.000000E+00  0.000000E+00  1.000000E+00  0.000000E+00
  0.000149500  2.637280E-02 -3.341870E-02  2.409170E-02  2.366250E-02  1.000000E+00  0.000000E+00  1.000000E+00  0.000000E+00
  0.000151975  2.616560E-02 -3.264520E-02  2.469220E-02  2.318480E-02  1.000000E+00  0.000000E+00  1.000000E+00  0.000000E+00
  0.000154450  2.688140E-02 -3.009710E-02  2.561660E-02  2.255860E-02  1.000000E+00  0.000000E+00  1.000000E+00  0.000000E+00
  0.000156925  2.753110E-02 -3.056930E-02  2.548250E-02  2.242300E-02  1.000000E+00  0.000000E+00  1.000000E+00  0.000000E+00
  0.000159400  2.691940E-02 -2.990450E-02  2.641380E-02  2.203640E-02  1.000000E+00  0.000000E+00  1.000000E+00  0.000000E+00
  0.000161875  2.776170E-02 -3.038560E-02  2.616180E-02  2.177110E-02  1.000000E+00  0.000000E+00  1.000000E+00  0.000000E+00
  0.000164350  2.898360E-02 -2.921040E-02  2.690490E-02  2.093230E-02  1.000000E+00  0.000000E+00  1.000000E+00  0.000000E+00
  0.000166825  2.890420E-02 -2.849840E-02  2.730500E-02  2.081960E-02  1.000000E+00  0.000000E+00  1.000000E+00  0.000000E+00
  0.000169300  2.975330E-02 -2.794160E-02  2.747810E-02  2.015200E-02  1.000000E+00  0.000000E+00  1.000000E+00  0.000000E+00
  0.000171775  2.990750E-02 -2.637620E-02  2.786060E-02  1.976380E-02  1.000000E+00  0.000000E+00  1.000000E+00  0.000000E+00
  0.000174250  2.976420E-02 -2.607890E-02  2.790210E-02  1.956350E-02  1.000000E+00  0.000000E+00  1.000000E+00  0.000000E+00
  0.000176725  3.051700E-02 -2.588160E-02  2.850210E-02  1.899290E-02  1.000000E+00  0.000000E+00  1.000000E+00  0.000000E+00
  0.000179200  3.037610E-02 -2.588550E-02  2.844740E-02  1.881230E-02  1.000000E+00  0.000000E+00  1.000000E+00  0.000000E+00
  0.000181675  3.054260E-02 -2.566030E-02  2.860640E-02  1.859750E-02  1.000000E+00  0.000000E+00  1.000000E+00  0.000000E+00
  0.000184150  3.222600E-02 -2.368880E-02  2.904900E-02  1.815250E-02  1.000000E+00  0.000000E+00  1.000000E+00  0.000000E+00
  0.000186625  3.240380E-02 -2.407040E-02  2.890450E-02  1.779120E-02  1.000000E+00  0.000000E+00  1.000000E+00  0.000000E+00
  0.000189100  3.172840E-02 -2.339450E-02  2.998930E-02  1.694150E-02  1.000000E+00  0.000000E+00  1.000000E+00  0.000000E+00
  0.000191575  3.092800E-02 -2.389640E-02  2.979720E-02  1.726100E-02  1.000000E+00  0.000000E+00  1.000000E+00  0.000000E+00
  0.000194050  3.252240E-02 -2.347490E-02  3.000880E-02  1.623780E-02  1.000000E+00  0.000000E+00  1.000000E+00  0.000000E+00
  0.000196525  3.306570E-02 -2.199380E-02  2.978340E-02  1.598150E-02  1.000000E+00  0.000000E+00  1.000000E+00  0.000000E+00
  0.000199000  3.365730E-02 -2.254830E-02  3.005770E-02  1.599680E-02  1.000000E+00  0.000000E+00  1.000000E+00  0.000000E+00
  0.000201475  3.359350E-02 -2.141820E-02  3.026080E-02  1.541920E-02  1.000000E+00  0.000000E+00  1.000000E+00  0.000000E+00
  0.000203950  3.310240E-02 -2.123030E-02  3.071130E-02  1.471660E-02  1.000000E+00  0.000000E+00  1.000000E+00  0.000000E+00
  0.000206425  3.417960E-02 -2.047650E-02  3.091650E-02  1.477170E-02  1.000000E+00  0.000000E+00  1.000000E+00  0.000000E+00
  0.000208900  3.406990E-02 -2.100820E-02  3.092440E-02  1.398370E-02  1.000000E+00  0.000000E+00  1.000000E+00  0.000000E+00
  0.000211375  3.476270E-02 -2.029060E-02  3.108530E-02  1.420890E-02  1.000000E+00  0.000000E+00  1.000000E+00  0.000000E+00
  0.000213850  3.427830E-02 -1.965580E-02  3.128950E-02  1.405650E-02  1.000000E+00  0.000000E+00  1.000000E+00  0.000000E+00
  0.000216325  3.492490E-02 -2.001160E-02  3.147480E-02  1.327100E-02  1.000000E+00  0.000000E+00  1.000000E+00  0.000000E+00
  0.000218800  3.434820E-02 -1.950650E-02  3.109080E-02  1.308830E-02  1.000000E+00  0.000000E+00  1.000000E+00  0.000000E+00
  0.000221275  3.574240E-02 -1.853180E-02  3.142400E-02  1.252450E-02  1.000000E+00  0.000000E+00  1.000000E+00  0.000000E+00
  0.000223750  3.550140E-02 -1.861330E-02  3.125590E-02  1.261900E-02  1.000000E+00  0.000000E+00  1.000000E+00  0.000000E+00
  0.000226225  3.625210E-02 -1.835330E-02  3.178660E-02  1.179170E-02  1.000000E+00  0.000000E+00  1.000000E+00  0.000000E+00
  0.000228700  3.528630E-02 -1.934980E-02  3.177170E-02  1.186030E-02  1.000000E+00  0.000000E+00  1.000000E+00  0.000000E+00
  0.000231175  3.543450E-02 -1.844730E-02  3.211120E-02  1.172930E-02  1.000000E+00  0.000000E+00  1.000000E+00  0.000000E+00
  0.000233650  3.576010E-02 -1.762610E-02  3.208570E-02  1.157300E-02  1.000000E+00  0.000000E+00  1.000000E+00  0.000000E+00
  0.000236125  3.566100E-02 -1.699470E-02  3.217700E-02  1.087210E-02  1.000000E+00  0.000000E+00  1.000000E+00  0.000000E+00
  0.000238600  3.625850E-02 -1.781420E-02  3.247200E-02  1.053660E-02  1.000000E+00  0.000000E+00  1.000000E+00  0.000000E+00
  0.000241075  3.576400E-02 -1.708430E-02  3.248280E-02  1.028320E-02  1.000000E+00  0.000000E+00  1.000000E+00  0.000000E+00
  0.000243550  3.612260E-02 -1.686730E-02  3.239150E-02  9.995330E-03  1.000000E+00  0.000000E+00  1.000000E+00  0.000000E+00
  0.000246025  3.735950E-02 -1.650380E-02  3.256650E-02  1.003320E-02  1.000000E+00  0.000000E+00  1.000000E+00  0.000000E+00
  0.000248500  3.676470E-02 -1.665430E-02  3.244260E-02  9.467040E-03  1.000000E+00  0.000000E+00  1.000000E+00  0.000000E+00
  0.000250975  3.754720E-02 -1.627430E-02  3.270910E-02  8.931830E-03  1.000000E+00  0.000000E+00  1.000000E+00  0.000000E+00
  0.000253450  3.709480E-02 -1.506550E-02  3.258190E-02  9.311350E-03  1.000000E+00  0.000000E+00  1.000000E+00  0.000000E+00
  0.000255925  3.651850E-02 -1.508720E-02  3.276870E-02  8.588430E-03  1.000000E+00  0.000000E+00  1.000000E+00  0.000000E+00
  0.000258400  3.736930E-02 -1.544960E-02  3.269320E-02  8.258230E-03  1.000000E+00  0.000000E+00  1.000000E+00  0.000000E+00
  0.000260875  3.807580E-02 -1.515280E-02  3.328210E-02  8.329570E-03  1.000000E+00  0.000000E+00  1.000000E+00  0.000000E+00
  0.000263350  3.732480E-02 -1.428550E-02  3.279840E-02  8.768040E-03  1.000000E+00  0.000000E+00  1.000000E+00  0.000000E+00
  0.000265825  3.738680E-02 -1.517990E-02  3.287140E-02  7.592900E-03  1.000000E+00  0.000000E+00  1.000000E+00  0.000000E+00
  0.000268300  3.844780E-02 -1.480240E-02  3.270300E-02  7.732620E-03  1.000000E+00  0.000000E+00  1.000000E+00  0.000000E+00
  0.000270775  3.814210E-02 -1.404020E-02  3.313080E-02  6.574790E-03  1.000000E+00  0.000000E+00  1.000000E+00  0.000000E+00
  0.000273250  3.818890E-02 -1.430940E-02  3.264950E-02  6.540810E-03  1.000000E+00  0.000000E+00  1.000000E+00  0.000000E+00
  0.000275725  3.832780E-02 -1.426400E-02  3.318140E-02  6.717240E-03  1.000000E+00  0.000000E+00  1.000000E+00  0.000000E+00
  0.000278200  3.852940E-02 -1.409270E-02  3.339640E-02  6.453070E-03  1.000000E+00  0.000000E+00  1.000000E+00  0.000000E+00
  0.000280675  3.927640E-02 -1.420590E-02  3.334100E-02  6.177160E-03  1.000000E+00  0.000000E+00  1.000000E+00  0.000000E+00
  0.000283150  3.836260E-02 -1.391810E-02  3.367250E-02  5.712560E-03  1.000000E+00  0.000000E+00  1.000000E+00  0.000000E+00
  0.000285625  3.841260E-02 -1.414980E-02  3.312620E-02  5.555810E-03  1.000000E+00  0.000000E+00  1.000000E+00  0.000000E+00
  0.000288100  3.846740E-02 -1.345220E-02  3.300370E-02  5.392750E-03  1.000000E+00  0.000000E+00  1.000000E+00  0.000000E+00
  0.000290575  3.929600E-02 -1.249870E-02  3.325510E-02  5.272420E-03  1.000000E+00  0.000000E+00  1.000000E+00  0.000000E+00
  0.000293050  3.929650E-02 -1.272710E-02  3.282270E-02  4.007570E-03  1.000000E+00  0.000000E+00  1.000000E+00  0.000000E+00
  0.000295525  3.969330E-02 -1.179380E-02  3.348100E-02  4.457470E-03  1.000000E+00  0.000000E+00  1.000000E+00  0.000000E+00
  0.000298000  3.902760E-02 -1.294970E-02  3.350760E-02  4.593890E-03  1.000000E+00  0.000000E+00  1.000000E+00  0.000000E+00
  0.000300475  3.970960E-02 -1.300810E-02  3.361510E-02  4.192700E-03  1.000000E+00  0.000000E+00  1.000000E+00  0.000000E+00
  0.000302950  3.912440E-02 -1.207340E-02  3.293480E-02  2.586490E-03  1.000000E+00  0.000000E+00  1.000000E+00  0.000000E+00
  0.000305425  3.971530E-02 -1.183230E-02  3.366070E-02  3.398640E-03  1.000000E+00  0.000000E+00  1.000000E+00  0.000000E+00
  0.000307900  4.060630E-02 -1.218780E-02  3.328550E-02  3.351900E-03  1.000000E+00  0.000000E+00  1.000000E+00  0.000000E+00
  0.000310375  4.053020E-02 -1.333690E-02  3.329850E-02  2.973920E-03  1.000000E+00  0.000000E+00  1.000000E+00  0.000000E+00
  0.000312850  4.058140E-02 -1.229030E-02  3.280050E-02  1.953700E-03  1.000000E+00  0.000000E+00  1.000000E+00  0.000000E+00
  0.000315325  3.968790E-02 -1.280790E-02  3.267490E-02  1.719670E-03  1.000000E+00  0.000000E+00  1.000000E+00  0.000000E+00
  0.000317800  4.009720E-02 -1.099700E-02  3.357280E-02  2.754220E-03  1.000000E+00  0.000000E+00  1.000000E+00  0.000000E+00
  0.000320275  3.956210E-02 -1.060680E-02  3.302300E-02  2.305960E-03  1.000000E+00  0.000000E+00  1.000000E+00  0.000000E+00
  0.000322750  3.981290E-02 -1.114950E-02  3.284040E-02  1.454590E-03  1.000000E+00  0.000000E+00  1.000000E+00  0.000000E+00
  0.000325225  3.989680E-02 -1.117730E-02  3.184400E-02  6.834350E-04  1.000000E+00  0.000000E+00  1.000000E+00  0.000000E+00
  0.000327700  4.007060E-02 -1.075320E-02  3.349860E-02  1.210720E-03  1.000000E+00  0.000000E+00  1.000000E+00  0.000000E+00
  0.000330175  4.006650E-02 -1.062000E-02  3.281210E-02  1.468050E-03  1.000000E+00  0.000000E+00  1.000000E+00  0.000000E+00
  0.000332650  3.946970E-02 -1.100260E-02  3.241350E-02  5.104890E-04  1.000000E+00  0.000000E+00  1.000000E+00  0.000000E+00
  0.000335125  4.019780E-02 -1.111500E-02  3.015120E-02 -9.407410E-05  1.000000E+00  0.000000E+00  1.000000E+00  0.000000E+00
  0.000337600  4.056450E-02 -1.066970E-02  3.260790E-02  7.881690E-04  1.000000E+00  0.000000E+00  1.000000E+00  0.000000E+00
  0.000340075  4.115670E-02 -1.123490E-02  3.311400E-02  2.776170E-04  1.000000E+00  0.000000E+00  1.000000E+00  0.000000E+00
  0.000342550  4.069420E-02 -1.038170E-02  3.195110E-02  7.994770E-04  1.000000E+00  0.000000E+00  1.000000E+00  0.000000E+00
  0.000345025  4.068390E-02 -1.188380E-02  3.036020E-02  2.157150E-04  1.000000E+00  0.000000E+00  1.000000E+00  0.000000E+00
  0.000347500  4.082910E-02 -1.120350E-02  3.140660E-02  8.176830E-04  1.000000E+00  0.000000E+00  1.000000E+00  0.000000E+00
  0.000349975  4.093700E-02 -9.388570E-03  3.270970E-02 -3.682980E-04  1.000000E+00  0.000000E+00  1.000000E+00  0.000000E+00
  0.000352450  4.190070E-02 -1.047900E-02  3.211810E-02  5.968090E-06  1.000000E+00  0.000000E+00  1.000000E+00  0.000000E+00
  0.000354925  4.093370E-02 -9.539950E-03  3.027540E-02  2.025280E-04  1.000000E+00  0.000000E+00  1.000000E+00  0.000000E+00
  0.000357400  4.060590E-02 -1.058660E-02  3.038480E-02  1.025170E-03  1.000000E+00  0.000000E+00  1.000000E+00  0.000000E+00
  0.000359875  4.071890E-02 -1.035640E-02  3.206360E-02 -1.096500E-03  1.000000E+00  0.000000E+00  1.000000E+00  0.000000E+00
  0.000362350  4.138250E-02 -1.013010E-02  3.122420E-02 -8.791410E-04  1.000000E+00  0.000000E+00  1.000000E+00  0.000000E+00
  0.000364825  4.206490E-02 -8.772850E-03  3.042920E-02 -6.018090E-05  1.000000E+00  0.000000E+00  1.000000E+00  0.000000E+00
  0.000367300  4.194590E-02 -1.013730E-02  3.137890E-02  1.367000E-03  1.000000E+00  0.000000E+00  1.000000E+00  0.000000E+00
  0.000369775  4.099040E-02 -8.629930E-03  3.080480E-02 -1.611460E-03  1.000000E+00  0.000000E+00  1.000000E+00  0.000000E+00
  0.000372250  4.177540E-02 -9.556400E-03  3.041930E-02 -1.782250E-03  1.000000E+00  0.000000E+00  1.000000E+00  0.000000E+00
  0.000374725  4.101570E-02 -9.467200E-03  3.019460E-02 -2.324340E-04  1.000000E+00  0.000000E+00  1.000000E+00  0.000000E+00
  0.000377200  4.124930E-02 -9.708830E-03  3.098340E-02  4.326620E-04  1.000000E+00  0.000000E+00  1.000000E+00  0.000000E+00
  0.000379675  4.197190E-02 -1.031930E-02  3.072710E-02 -1.611920E-04  1.000000E+00  0.000000E+00  1.000000E+00  0.000000E+00
  0.000382150  4.179380E-02 -1.054450E-02  3.036120E-02 -8.321840E-04  1.000000E+00  0.000000E+00  1.000000E+00  0.000000E+00
  0.000384625  4.252620E-02 -9.669280E-03  3.033720E-02  5.591520E-05  1.000000E+00  0.000000E+00  1.000000E+00  0.000000E+00
  0.000387100  4.108130E-02 -9.895600E-03  3.142570E-02  4.966230E-04  1.000000E+00  0.000000E+00  1.000000E+00  0.000000E+00
  0.000389575  4.164760E-02 -9.400280E-03  3.130530E-02  1.585320E-04  1.000000E+00  0.000000E+00  1.000000E+00  0.000000E+00
  0.000392050  4.187830E-02 -8.681270E-03  3.019390E-02  2.729510E-05  1.000000E+00  0.000000E+00  1.000000E+00  0.000000E+00
  0.000394525  4.171880E-02 -9.089390E-03  3.120870E-02  4.108250E-04  1.000000E+00  0.000000E+00  1.000000E+00  0.000000E+00
  0.000397000  4.043150E-02 -9.075360E-03  3.120640E-02  2.113240E-04  1.000000E+00  0.000000E+00  1.000000E+00  0.000000E+00
  0.000399475  4.193610E-02 -9.367620E-03  3.198050E-02 -7.817440E-04  1.000000E+00  0.000000E+00  1.000000E+00  0.000000E+00
  0.000401950  4.126120E-02 -9.215860E-03  3.134160E-02 -3.850380E-04  1.000000E+00  0.000000E+00  1.000000E+00  0.000000E+00
  0.000404425  4.271020E-02 -7.831660E-03  3.166710E-02 -5.851820E-04  1.000000E+00  0.000000E+00  1.000000E+00  0.000000E+00
  0.000406900  4.147660E-02 -1.005820E-02  3.227540E-02 -4.965570E-04  1.000000E+00  0.000000E+00  1.000000E+00  0.000000E+00
  0.000409375  4.136370E-02 -9.410940E-03  3.178000E-02 -9.725680E-04  1.000000E+00  0.000000E+00  1.000000E+00  0.000000E+00
  0.000411850  4.157210E-02 -1.012210E-02  3.209450E-02 -1.078380E-03  1.000000E+00  0.000000E+00  1.000000E+00  0.000000E+00
  0.000414325  4.197810E-02 -8.358780E-03  3.260010E-02 -1.623410E-03  1.000000E+00  0.000000E+00  1.000000E+00  0.000000E+00
  0.000416800  4.188820E-02 -8.630500E-03  3.255130E-02 -1.326710E-03  1.000000E+00  0.000000E+00  1.000000E+00  0.000000E+00
  0.000419275  4.275480E-02 -8.826590E-03  3.151150E-02 -2.146120E-03  1.000000E+00  0.000000E+00  1.000000E+00  0.000000E+00
  0.000421750  4.220570E-02 -8.704990E-03  3.238910E-02 -2.225230E-03  1.000000E+00  0.000000E+00  1.000000E+00  0.000000E+00
  0.000424225  4.279420E-02 -8.188170E-03  3.217970E-02 -1.900130E-03  1.000000E+00  0.000000E+00  1.000000E+00  0.000000E+00
  0.000426700  4.219600E-02 -9.117740E-03  3.300120E-02 -2.707150E-03  1.000000E+00  0.000000E+00  1.000000E+00  0.000000E+00
  0.000429175  4.178400E-02 -9.159340E-03  3.267930E-02 -2.366390E-03  1.000000E+00  0.000000E+00  1.000000E+00  0.000000E+00
  0.000431650  4.255770E-02 -8.355940E-03  3.237820E-02 -2.285780E-03  1.000000E+00  0.000000E+00  1.000000E+00  0.000000E+00
  0.000434125  4.262570E-02 -8.927900E-03  3.250340E-02 -2.763750E-03  1.000000E+00  0.000000E+00  1.000000E+00  0.000000E+00
  0.000436600  4.123360E-02 -8.319320E-03  3.281220E-02 -2.886720E-03  1.000000E+00  0.000000E+00  1.000000E+00  0.000000E+00
  0.000439075  4.318230E-02 -8.444190E-03  3.284100E-02 -3.194190E-03  1.000000E+00  0.000000E+00  1.000000E+00  0.000000E+00
  0.000441550  4.195230E-02 -8.130680E-03  3.208140E-02 -2.834660E-03  1.000000E+00  0.000000E+00  1.000000E+00  0.000000E+00
  0.000444025  4.212750E-02 -8.076500E-03  3.292250E-02 -3.626740E-03  1.000000E+00  0.000000E+00  1.000000E+00  0.000000E+00
  0.000446500  4.279630E-02 -8.041150E-03  3.287900E-02 -3.212540E-03  1.000000E+00  0.000000E+00  1.000000E+00  0.000000E+00
  0.000448975  4.215890E-02 -7.232530E-03  3.273490E-02 -3.643220E-03  1.000000E+00  0.000000E+00  1.000000E+00  0.000000E+00
  0.000451450  4.262800E-02 -7.842530E-03  3.244090E-02 -3.719720E-03  1.000000E+00  0.000000E+00  1.000000E+00  0.000000E+00
  0.000453925  4.175680E-02 -8.087380E-03  3.242100E-02 -3.997340E-03  1.000000E+00  0.000000E+00  1.000000E+00  0.000000E+00
