! Anritsu VNA Master:                        Model: MS2026C/19
! SN:                                  1815009
! /card0/usr/20180902_29.s2p
! Existing Calibration Information:
! TYPE:                         Current Settings,       Active Cal Settings
! TIME:             	   09/02/2018 06:18:52 PM,    09/02/2018 11:58:48 AM
! INTERNAL TEMP:    	                   50.0 C,                    48.8 C
! # POINTS:         	                     4001,                      4001
! START FREQ:       	              100.000 kHz,               100.000 kHz
! STOP FREQ:        	               10.000 MHz,                10.000 MHz
! SOURCE POWER:     	                      Low,                       Low
! IFBW:             	                   500 Hz,                    500 Hz
! AVG FACTOR:       	                       1 ,                        1 
! REF PLANE 1:      	                     0 mm,                      0 mm
! REF PLANE 2:      	                     0 mm,                      0 mm
! CAL TYPE:         	             1P2P S11,S21,              1P2P S11,S21
! CAL METHOD:       	                     SOLT,                      SOLT
! CAL LINE TYPE:    	                     Coax,                      Coax
! DUT PORT 1:       	                N-Conn(M),                 N-Conn(M)
! DUT PORT 2:       	                N-Conn(M),                 N-Conn(M)
! CAL STATUS:       	        OK: Accuracy High,                        --
# GHZ S RI R 50.0
! FREQ.GHZ      S11RE         S11IM         S21RE         S21IM         S12RE         S12IM         S22RE         S22IM
  0.000100000  8.192880E-03 -6.252830E-02  3.418890E-04 -4.219220E-04  1.000000E+00  0.000000E+00  1.000000E+00  0.000000E+00
  0.000102475  9.428160E-03 -5.884100E-02  5.096800E-04 -1.180230E-03  1.000000E+00  0.000000E+00  1.000000E+00  0.000000E+00
  0.000104950  1.052920E-02 -5.635120E-02  1.261670E-03  1.000820E-04  1.000000E+00  0.000000E+00  1.000000E+00  0.000000E+00
  0.000107425  1.172760E-02 -5.434500E-02  1.118070E-03 -1.310140E-03  1.000000E+00  0.000000E+00  1.000000E+00  0.000000E+00
  0.000109900  1.346700E-02 -5.250160E-02  8.302160E-04  6.232620E-04  1.000000E+00  0.000000E+00  1.000000E+00  0.000000E+00
  0.000112375  1.412270E-02 -5.150310E-02  7.478360E-04 -1.661190E-03  1.000000E+00  0.000000E+00  1.000000E+00  0.000000E+00
  0.000114850  1.418650E-02 -4.929150E-02  1.981510E-04 -5.193030E-04  1.000000E+00  0.000000E+00  1.000000E+00  0.000000E+00
  0.000117325  1.636400E-02 -4.730820E-02  4.123210E-04 -2.440400E-05  1.000000E+00  0.000000E+00  1.000000E+00  0.000000E+00
  0.000119800  1.717480E-02 -4.637620E-02 -1.359550E-04 -9.746810E-04  1.000000E+00  0.000000E+00  1.000000E+00  0.000000E+00
  0.000122275  1.799640E-02 -4.523400E-02  6.418440E-04 -6.860310E-04  1.000000E+00  0.000000E+00  1.000000E+00  0.000000E+00
  0.000124750  1.843650E-02 -4.403290E-02  9.605400E-04 -4.237460E-04  1.000000E+00  0.000000E+00  1.000000E+00  0.000000E+00
  0.000127225  1.890330E-02 -4.246000E-02  4.878740E-05 -1.210680E-03  1.000000E+00  0.000000E+00  1.000000E+00  0.000000E+00
  0.000129700  2.164400E-02 -3.883430E-02  6.829740E-04 -1.014970E-03  1.000000E+00  0.000000E+00  1.000000E+00  0.000000E+00
  0.000132175  2.141720E-02 -3.981970E-02  3.807840E-04 -1.489970E-03  1.000000E+00  0.000000E+00  1.000000E+00  0.000000E+00
  0.000134650  2.173130E-02 -3.975400E-02  7.412770E-04 -1.726600E-03  1.000000E+00  0.000000E+00  1.000000E+00  0.000000E+00
  0.000137125  2.205210E-02 -3.793980E-02  1.055670E-03 -1.556370E-03  1.000000E+00  0.000000E+00  1.000000E+00  0.000000E+00
  0.000139600  2.323920E-02 -3.713960E-02  5.534480E-04  1.592260E-04  1.000000E+00  0.000000E+00  1.000000E+00  0.000000E+00
  0.000142075  2.307680E-02 -3.513960E-02  4.657930E-04 -9.026810E-04  1.000000E+00  0.000000E+00  1.000000E+00  0.000000E+00
  0.000144550  2.452800E-02 -3.539530E-02  1.390000E-03 -6.300160E-04  1.000000E+00  0.000000E+00  1.000000E+00  0.000000E+00
  0.000147025  2.510980E-02 -3.478180E-02  3.910510E-04 -6.577480E-04  1.000000E+00  0.000000E+00  1.000000E+00  0.000000E+00
  0.000149500  2.588710E-02 -3.312500E-02 -2.144290E-04 -6.565660E-04  1.000000E+00  0.000000E+00  1.000000E+00  0.000000E+00
  0.000151975  2.599910E-02 -3.278540E-02  1.230860E-03 -6.277610E-04  1.000000E+00  0.000000E+00  1.000000E+00  0.000000E+00
  0.000154450  2.675310E-02 -3.121190E-02  2.632460E-04 -2.353910E-03  1.000000E+00  0.000000E+00  1.000000E+00  0.000000E+00
  0.000156925  2.796700E-02 -3.086610E-02  7.475230E-04 -6.017290E-04  1.000000E+00  0.000000E+00  1.000000E+00  0.000000E+00
  0.000159400  2.750350E-02 -3.081070E-02  2.235560E-04 -1.984470E-03  1.000000E+00  0.000000E+00  1.000000E+00  0.000000E+00
  0.000161875  2.760920E-02 -3.012650E-02  9.945800E-04 -8.428060E-04  1.000000E+00  0.000000E+00  1.000000E+00  0.000000E+00
  0.000164350  2.863120E-02 -3.016640E-02  1.201200E-05 -7.693100E-04  1.000000E+00  0.000000E+00  1.000000E+00  0.000000E+00
  0.000166825  2.841660E-02 -2.772610E-02  7.701930E-04 -6.204570E-04  1.000000E+00  0.000000E+00  1.000000E+00  0.000000E+00
  0.000169300  3.005730E-02 -2.874580E-02 -7.587270E-04 -6.687510E-04  1.000000E+00  0.000000E+00  1.000000E+00  0.000000E+00
  0.000171775  2.990430E-02 -2.750510E-02  1.355200E-05 -1.313900E-03  1.000000E+00  0.000000E+00  1.000000E+00  0.000000E+00
  0.000174250  3.009960E-02 -2.777730E-02  1.925910E-03 -1.864430E-03  1.000000E+00  0.000000E+00  1.000000E+00  0.000000E+00
  0.000176725  3.100280E-02 -2.643940E-02 -2.295100E-04 -1.557840E-04  1.000000E+00  0.000000E+00  1.000000E+00  0.000000E+00
  0.000179200  3.009210E-02 -2.517970E-02  7.423220E-04 -1.123220E-03  1.000000E+00  0.000000E+00  1.000000E+00  0.000000E+00
  0.000181675  2.975750E-02 -2.582620E-02  2.707720E-04 -8.828730E-04  1.000000E+00  0.000000E+00  1.000000E+00  0.000000E+00
  0.000184150  3.156100E-02 -2.415000E-02  6.119220E-04 -2.069860E-03  1.000000E+00  0.000000E+00  1.000000E+00  0.000000E+00
  0.000186625  3.113910E-02 -2.558630E-02 -1.140700E-03 -9.145600E-04  1.000000E+00  0.000000E+00  1.000000E+00  0.000000E+00
  0.000189100  3.086710E-02 -2.437170E-02  1.350000E-03 -6.899510E-04  1.000000E+00  0.000000E+00  1.000000E+00  0.000000E+00
  0.000191575  3.078960E-02 -2.490870E-02  2.833910E-05 -5.420430E-04  1.000000E+00  0.000000E+00  1.000000E+00  0.000000E+00
  0.000194050  3.099890E-02 -2.352180E-02  7.039470E-04 -1.642210E-03  1.000000E+00  0.000000E+00  1.000000E+00  0.000000E+00
  0.000196525  3.173380E-02 -2.348830E-02 -2.730120E-04 -2.509820E-03  1.000000E+00  0.000000E+00  1.000000E+00  0.000000E+00
  0.000199000  3.252700E-02 -2.245000E-02 -2.055460E-04 -2.313890E-03  1.000000E+00  0.000000E+00  1.000000E+00  0.000000E+00
  0.000201475  3.128390E-02 -2.193010E-02  1.231480E-03 -1.781560E-03  1.000000E+00  0.000000E+00  1.000000E+00  0.000000E+00
  0.000203950  3.197650E-02 -2.219470E-02  1.169360E-03 -1.640910E-03  1.000000E+00  0.000000E+00  1.000000E+00  0.000000E+00
  0.000206425  3.250920E-02 -2.081510E-02  7.607080E-04 -2.867480E-03  1.000000E+00  0.000000E+00  1.000000E+00  0.000000E+00
  0.000208900  3.151800E-02 -2.078700E-02  1.205060E-04 -1.224900E-03  1.000000E+00  0.000000E+00  1.000000E+00  0.000000E+00
  0.000211375  3.437770E-02 -2.138450E-02  8.400290E-04 -1.748120E-03  1.000000E+00  0.000000E+00  1.000000E+00  0.000000E+00
  0.000213850  3.401060E-02 -1.905540E-02  3.203040E-04 -1.876230E-03  1.000000E+00  0.000000E+00  1.000000E+00  0.000000E+00
  0.000216325  3.316530E-02 -1.935770E-02  1.501580E-03 -2.015160E-03  1.000000E+00  0.000000E+00  1.000000E+00  0.000000E+00
  0.000218800  3.382130E-02 -2.081610E-02  1.914240E-04 -2.189960E-03  1.000000E+00  0.000000E+00  1.000000E+00  0.000000E+00
  0.000221275  3.556760E-02 -1.946330E-02  1.178810E-03 -2.300070E-03  1.000000E+00  0.000000E+00  1.000000E+00  0.000000E+00
  0.000223750  3.456500E-02 -1.904720E-02 -5.455350E-06 -1.887840E-03  1.000000E+00  0.000000E+00  1.000000E+00  0.000000E+00
  0.000226225  3.369690E-02 -1.880320E-02  1.255570E-03 -2.339320E-03  1.000000E+00  0.000000E+00  1.000000E+00  0.000000E+00
  0.000228700  3.470150E-02 -2.032350E-02 -4.898970E-04 -1.759700E-03  1.000000E+00  0.000000E+00  1.000000E+00  0.000000E+00
  0.000231175  3.500610E-02 -1.965550E-02 -7.605370E-04 -2.028750E-03  1.000000E+00  0.000000E+00  1.000000E+00  0.000000E+00
  0.000233650  3.608160E-02 -1.829850E-02  2.829590E-04 -2.522250E-03  1.000000E+00  0.000000E+00  1.000000E+00  0.000000E+00
  0.000236125  3.473860E-02 -1.849610E-02  1.471430E-04 -1.799370E-03  1.000000E+00  0.000000E+00  1.000000E+00  0.000000E+00
  0.000238600  3.512350E-02 -1.782620E-02  2.732480E-04 -2.243750E-03  1.000000E+00  0.000000E+00  1.000000E+00  0.000000E+00
  0.000241075  3.478360E-02 -1.848190E-02  1.007240E-03 -2.268060E-03  1.000000E+00  0.000000E+00  1.000000E+00  0.000000E+00
  0.000243550  3.529210E-02 -1.746250E-02  2.431750E-04 -8.839600E-04  1.000000E+00  0.000000E+00  1.000000E+00  0.000000E+00
  0.000246025  3.695770E-02 -1.569370E-02  2.596840E-05 -1.373390E-03  1.000000E+00  0.000000E+00  1.000000E+00  0.000000E+00
  0.000248500  3.588100E-02 -1.738710E-02  1.137400E-03 -3.427510E-03  1.000000E+00  0.000000E+00  1.000000E+00  0.000000E+00
  0.000250975  3.706230E-02 -1.747490E-02  3.732580E-05 -3.012220E-03  1.000000E+00  0.000000E+00  1.000000E+00  0.000000E+00
  0.000253450  3.686400E-02 -1.539910E-02 -2.333840E-04 -3.326650E-03  1.000000E+00  0.000000E+00  1.000000E+00  0.000000E+00
  0.000255925  3.585810E-02 -1.313890E-02  8.765130E-05 -3.251380E-03  1.000000E+00  0.000000E+00  1.000000E+00  0.000000E+00
  0.000258400  3.721080E-02 -1.633300E-02  5.653360E-04 -4.013030E-03  1.000000E+00  0.000000E+00  1.000000E+00  0.000000E+00
  0.000260875  3.616040E-02 -1.697410E-02 -2.891690E-04 -2.984870E-03  1.000000E+00  0.000000E+00  1.000000E+00  0.000000E+00
  0.000263350  3.740190E-02 -1.510620E-02  1.340660E-04 -1.241580E-03  1.000000E+00  0.000000E+00  1.000000E+00  0.000000E+00
  0.000265825  3.626770E-02 -1.483560E-02  8.694110E-04 -2.724910E-03  1.000000E+00  0.000000E+00  1.000000E+00  0.000000E+00
  0.000268300  3.772560E-02 -1.518650E-02 -3.291810E-04 -3.504670E-03  1.000000E+00  0.000000E+00  1.000000E+00  0.000000E+00
  0.000270775  3.754360E-02 -1.359390E-02 -3.771720E-04 -4.018850E-03  1.000000E+00  0.000000E+00  1.000000E+00  0.000000E+00
  0.000273250  3.534860E-02 -1.415360E-02 -4.930990E-04 -3.418770E-03  1.000000E+00  0.000000E+00  1.000000E+00  0.000000E+00
  0.000275725  3.659990E-02 -1.316520E-02 -6.460860E-04 -2.141620E-03  1.000000E+00  0.000000E+00  1.000000E+00  0.000000E+00
  0.000278200  3.657810E-02 -1.379190E-02 -9.212550E-04 -3.551130E-03  1.000000E+00  0.000000E+00  1.000000E+00  0.000000E+00
  0.000280675  3.813650E-02 -1.439690E-02 -9.602460E-04 -4.469660E-03  1.000000E+00  0.000000E+00  1.000000E+00  0.000000E+00
  0.000283150  3.728570E-02 -1.372260E-02 -7.328090E-04 -2.238570E-03  1.000000E+00  0.000000E+00  1.000000E+00  0.000000E+00
  0.000285625  3.690180E-02 -1.270680E-02  5.672590E-04 -3.433280E-03  1.000000E+00  0.000000E+00  1.000000E+00  0.000000E+00
  0.000288100  3.628860E-02 -1.408510E-02 -1.306900E-04 -3.584260E-03  1.000000E+00  0.000000E+00  1.000000E+00  0.000000E+00
  0.000290575  3.691690E-02 -1.253980E-02 -8.862320E-04 -5.892550E-03  1.000000E+00  0.000000E+00  1.000000E+00  0.000000E+00
  0.000293050  4.006230E-02 -1.321340E-02 -6.698590E-04 -5.230100E-03  1.000000E+00  0.000000E+00  1.000000E+00  0.000000E+00
  0.000295525  3.807300E-02 -1.180340E-02 -3.444440E-04 -2.922580E-03  1.000000E+00  0.000000E+00  1.000000E+00  0.000000E+00
  0.000298000  3.651250E-02 -1.332350E-02 -3.640350E-05 -2.616310E-03  1.000000E+00  0.000000E+00  1.000000E+00  0.000000E+00
  0.000300475  3.986200E-02 -1.393110E-02 -6.760390E-04 -5.817050E-03  1.000000E+00  0.000000E+00  1.000000E+00  0.000000E+00
  0.000302950  3.687320E-02 -1.267170E-02 -2.114690E-03 -5.518220E-03  1.000000E+00  0.000000E+00  1.000000E+00  0.000000E+00
  0.000305425  3.850620E-02 -1.105310E-02 -6.910260E-05 -3.001900E-03  1.000000E+00  0.000000E+00  1.000000E+00  0.000000E+00
  0.000307900  3.884570E-02 -1.343320E-02 -1.001470E-03 -4.206290E-03  1.000000E+00  0.000000E+00  1.000000E+00  0.000000E+00
  0.000310375  3.954980E-02 -1.310920E-02 -2.124350E-03 -4.567700E-03  1.000000E+00  0.000000E+00  1.000000E+00  0.000000E+00
  0.000312850  3.988340E-02 -1.182940E-02 -3.780360E-03 -7.363810E-03  1.000000E+00  0.000000E+00  1.000000E+00  0.000000E+00
  0.000315325  3.700080E-02 -1.148320E-02 -5.120340E-04 -4.167470E-03  1.000000E+00  0.000000E+00  1.000000E+00  0.000000E+00
  0.000317800  3.895030E-02 -1.100420E-02 -2.304400E-03 -3.925310E-03  1.000000E+00  0.000000E+00  1.000000E+00  0.000000E+00
  0.000320275  3.920240E-02 -9.842170E-03 -2.355080E-03 -4.705110E-03  1.000000E+00  0.000000E+00  1.000000E+00  0.000000E+00
  0.000322750  3.799390E-02 -1.034850E-02 -4.732150E-03 -8.519890E-03  1.000000E+00  0.000000E+00  1.000000E+00  0.000000E+00
  0.000325225  3.838190E-02 -1.029060E-02 -2.048160E-03 -4.547330E-03  1.000000E+00  0.000000E+00  1.000000E+00  0.000000E+00
  0.000327700  3.779740E-02 -9.567700E-03 -9.022500E-04 -4.319560E-03  1.000000E+00  0.000000E+00  1.000000E+00  0.000000E+00
  0.000330175  3.825690E-02 -1.104880E-02 -3.010510E-03 -4.670730E-03  1.000000E+00  0.000000E+00  1.000000E+00  0.000000E+00
  0.000332650  3.892170E-02 -9.513700E-03 -7.337550E-03 -6.812630E-03  1.000000E+00  0.000000E+00  1.000000E+00  0.000000E+00
  0.000335125  3.869390E-02 -1.109280E-02 -6.112720E-03 -5.595620E-03  1.000000E+00  0.000000E+00  1.000000E+00  0.000000E+00
  0.000337600  3.941410E-02 -9.608430E-03 -1.310820E-03 -5.652810E-03  1.000000E+00  0.000000E+00  1.000000E+00  0.000000E+00
  0.000340075  3.904010E-02 -1.095330E-02 -3.682430E-03 -5.721950E-03  1.000000E+00  0.000000E+00  1.000000E+00  0.000000E+00
  0.000342550  3.877640E-02 -9.491600E-03 -9.479470E-03 -5.441860E-03  1.000000E+00  0.000000E+00  1.000000E+00  0.000000E+00
  0.000345025  3.911140E-02 -9.723020E-03 -1.137790E-02 -4.614780E-03  1.000000E+00  0.000000E+00  1.000000E+00  0.000000E+00
  0.000347500  3.950850E-02 -9.668660E-03 -3.854070E-03 -5.689530E-03  1.000000E+00  0.000000E+00  1.000000E+00  0.000000E+00
  0.000349975  3.879390E-02 -9.115920E-03 -4.184900E-03 -5.857350E-03  1.000000E+00  0.000000E+00  1.000000E+00  0.000000E+00
  0.000352450  4.046650E-02 -1.117130E-02 -7.148730E-03 -3.785620E-03  1.000000E+00  0.000000E+00  1.000000E+00  0.000000E+00
  0.000354925  4.070820E-02 -1.090740E-02 -1.261310E-02  3.570850E-03  1.000000E+00  0.000000E+00  1.000000E+00  0.000000E+00
  0.000357400  3.860850E-02 -9.921430E-03 -5.303690E-03 -6.308590E-03  1.000000E+00  0.000000E+00  1.000000E+00  0.000000E+00
  0.000359875  4.022800E-02 -9.041610E-03 -7.802860E-03 -5.290880E-03  1.000000E+00  0.000000E+00  1.000000E+00  0.000000E+00
  0.000362350  4.046490E-02 -1.101030E-02 -8.284470E-03 -2.509710E-03  1.000000E+00  0.000000E+00  1.000000E+00  0.000000E+00
  0.000364825  3.976990E-02 -8.457250E-03 -7.930680E-03  5.518890E-03  1.000000E+00  0.000000E+00  1.000000E+00  0.000000E+00
  0.000367300  4.143070E-02 -8.926700E-03 -9.184070E-03 -2.440320E-03  1.000000E+00  0.000000E+00  1.000000E+00  0.000000E+00
  0.000369775  3.986280E-02 -6.575630E-03 -8.643970E-03 -3.543740E-03  1.000000E+00  0.000000E+00  1.000000E+00  0.000000E+00
  0.000372250  3.998220E-02 -8.658180E-03 -9.841760E-03 -2.629640E-03  1.000000E+00  0.000000E+00  1.000000E+00  0.000000E+00
  0.000374725  4.070010E-02 -8.720850E-03 -6.743530E-03  5.900750E-03  1.000000E+00  0.000000E+00  1.000000E+00  0.000000E+00
  0.000377200  3.982620E-02 -8.898610E-03 -6.863820E-03  5.470460E-03  1.000000E+00  0.000000E+00  1.000000E+00  0.000000E+00
  0.000379675  4.134540E-02 -9.856000E-03 -1.092440E-02 -4.577140E-04  1.000000E+00  0.000000E+00  1.000000E+00  0.000000E+00
  0.000382150  4.082890E-02 -8.687560E-03 -1.026370E-02  3.572350E-03  1.000000E+00  0.000000E+00  1.000000E+00  0.000000E+00
  0.000384625  4.082290E-02 -8.537750E-03 -5.090840E-03  5.532830E-03  1.000000E+00  0.000000E+00  1.000000E+00  0.000000E+00
  0.000387100  4.080780E-02 -8.789380E-03 -1.783510E-03  5.020970E-03  1.000000E+00  0.000000E+00  1.000000E+00  0.000000E+00
  0.000389575  4.055140E-02 -8.170220E-03 -7.383030E-03  4.922690E-03  1.000000E+00  0.000000E+00  1.000000E+00  0.000000E+00
  0.000392050  4.091590E-02 -7.132050E-03 -5.730620E-03  6.003360E-03  1.000000E+00  0.000000E+00  1.000000E+00  0.000000E+00
  0.000394525  4.086260E-02 -8.931090E-03 -1.221540E-03  6.773590E-03  1.000000E+00  0.000000E+00  1.000000E+00  0.000000E+00
  0.000397000  4.013250E-02 -7.982720E-03 -9.342020E-04  3.322030E-03  1.000000E+00  0.000000E+00  1.000000E+00  0.000000E+00
  0.000399475  4.091070E-02 -8.180030E-03 -2.199220E-03  6.133250E-03  1.000000E+00  0.000000E+00  1.000000E+00  0.000000E+00
  0.000401950  3.991640E-02 -9.963140E-03 -1.763970E-03  6.246080E-03  1.000000E+00  0.000000E+00  1.000000E+00  0.000000E+00
  0.000404425  4.166070E-02 -8.640340E-03 -2.870180E-04  5.993490E-03  1.000000E+00  0.000000E+00  1.000000E+00  0.000000E+00
  0.000406900  4.071580E-02 -8.456120E-03 -7.364220E-05  2.464060E-03  1.000000E+00  0.000000E+00  1.000000E+00  0.000000E+00
  0.000409375  4.076080E-02 -8.450680E-03 -3.904860E-05  4.112100E-03  1.000000E+00  0.000000E+00  1.000000E+00  0.000000E+00
  0.000411850  4.073290E-02 -9.746540E-03  6.498420E-04  5.862510E-03  1.000000E+00  0.000000E+00  1.000000E+00  0.000000E+00
  0.000414325  4.232770E-02 -7.398520E-03  1.196440E-03  3.660610E-03  1.000000E+00  0.000000E+00  1.000000E+00  0.000000E+00
  0.000416800  4.131360E-02 -7.014900E-03  1.541350E-03  1.779540E-03  1.000000E+00  0.000000E+00  1.000000E+00  0.000000E+00
  0.000419275  4.114270E-02 -7.884560E-03 -9.986260E-05  1.537220E-03  1.000000E+00  0.000000E+00  1.000000E+00  0.000000E+00
  0.000421750  4.269670E-02 -6.955520E-03  1.842610E-03  3.097430E-03  1.000000E+00  0.000000E+00  1.000000E+00  0.000000E+00
  0.000424225  4.156390E-02 -6.817200E-03  2.546170E-03  1.622710E-03  1.000000E+00  0.000000E+00  1.000000E+00  0.000000E+00
  0.000426700  4.269280E-02 -8.266860E-03  3.246600E-03  8.983360E-04  1.000000E+00  0.000000E+00  1.000000E+00  0.000000E+00
  0.000429175  4.194480E-02 -8.038720E-03  1.344660E-03  1.015290E-03  1.000000E+00  0.000000E+00  1.000000E+00  0.000000E+00
  0.000431650  4.225900E-02 -8.707550E-03  1.627670E-03  6.226030E-04  1.000000E+00  0.000000E+00  1.000000E+00  0.000000E+00
  0.000434125  4.330900E-02 -7.919130E-03  2.399510E-03  3.694440E-06  1.000000E+00  0.000000E+00  1.000000E+00  0.000000E+00
  0.000436600  4.188100E-02 -6.741440E-03  1.180010E-03 -9.955399E-04  1.000000E+00  0.000000E+00  1.000000E+00  0.000000E+00
  0.000439075  4.161910E-02 -7.615270E-03  1.017150E-03  1.196890E-03  1.000000E+00  0.000000E+00  1.000000E+00  0.000000E+00
  0.000441550  4.270140E-02 -7.258960E-03  1.194420E-03 -7.042010E-04  1.000000E+00  0.000000E+00  1.000000E+00  0.000000E+00
  0.000444025  4.083220E-02 -6.740540E-03  1.123400E-03 -1.900260E-03  1.000000E+00  0.000000E+00  1.000000E+00  0.000000E+00
  0.000446500  4.176110E-02 -5.775850E-03  1.568540E-03 -1.058740E-03  1.000000E+00  0.000000E+00  1.000000E+00  0.000000E+00
  0.000448975  4.145540E-02 -5.480640E-03  2.021890E-04 -2.463160E-04  1.000000E+00  0.000000E+00  1.000000E+00  0.000000E+00
  0.000451450  4.184220E-02 -6.946150E-03 -5.532670E-04  2.143500E-04  1.000000E+00  0.000000E+00  1.000000E+00  0.000000E+00
  0.000453925  4.183560E-02 -7.715810E-03  3.488970E-04 -1.871500E-03  1.000000E+00  0.000000E+00  1.000000E+00  0.000000E+00
