! Anritsu VNA Master:                        Model: MS2026C/19
! SN:                                  1815009
! /card0/usr/20180902_42.s2p
! Existing Calibration Information:
! TYPE:                         Current Settings,       Active Cal Settings
! TIME:             	   09/03/2018 12:02:18 AM,    09/02/2018 11:58:48 AM
! INTERNAL TEMP:    	                   46.8 C,                    48.8 C
! # POINTS:         	                     4001,                      4001
! START FREQ:       	              100.000 kHz,               100.000 kHz
! STOP FREQ:        	               10.000 MHz,                10.000 MHz
! SOURCE POWER:     	                      Low,                       Low
! IFBW:             	                   500 Hz,                    500 Hz
! AVG FACTOR:       	                       5 ,                        1 
! REF PLANE 1:      	                     0 mm,                      0 mm
! REF PLANE 2:      	                     0 mm,                      0 mm
! CAL TYPE:         	             1P2P S11,S21,              1P2P S11,S21
! CAL METHOD:       	                     SOLT,                      SOLT
! CAL LINE TYPE:    	                     Coax,                      Coax
! DUT PORT 1:       	                N-Conn(M),                 N-Conn(M)
! DUT PORT 2:       	                N-Conn(M),                 N-Conn(M)
! CAL STATUS:       	        OK: Accuracy High,                        --
# GHZ S RI R 50.0
! FREQ.GHZ      S11RE         S11IM         S21RE         S21IM         S12RE         S12IM         S22RE         S22IM
  0.000100000  7.046620E-03 -6.176670E-02 -4.446200E-02 -3.244660E-02  1.000000E+00  0.000000E+00  1.000000E+00  0.000000E+00
  0.000102475  8.727020E-03 -5.886020E-02 -4.598910E-02 -3.219330E-02  1.000000E+00  0.000000E+00  1.000000E+00  0.000000E+00
  0.000104950  9.180630E-03 -5.696230E-02 -4.666210E-02 -3.060550E-02  1.000000E+00  0.000000E+00  1.000000E+00  0.000000E+00
  0.000107425  1.120620E-02 -5.520860E-02 -4.750240E-02 -2.932470E-02  1.000000E+00  0.000000E+00  1.000000E+00  0.000000E+00
  0.000109900  1.203280E-02 -5.310900E-02 -4.864250E-02 -2.870830E-02  1.000000E+00  0.000000E+00  1.000000E+00  0.000000E+00
  0.000112375  1.319190E-02 -5.112230E-02 -4.849560E-02 -2.720880E-02  1.000000E+00  0.000000E+00  1.000000E+00  0.000000E+00
  0.000114850  1.352290E-02 -5.056030E-02 -4.914260E-02 -2.662830E-02  1.000000E+00  0.000000E+00  1.000000E+00  0.000000E+00
  0.000117325  1.527090E-02 -4.836640E-02 -4.995420E-02 -2.552110E-02  1.000000E+00  0.000000E+00  1.000000E+00  0.000000E+00
  0.000119800  1.569460E-02 -4.692870E-02 -5.063200E-02 -2.431920E-02  1.000000E+00  0.000000E+00  1.000000E+00  0.000000E+00
  0.000122275  1.656120E-02 -4.438010E-02 -5.113870E-02 -2.363230E-02  1.000000E+00  0.000000E+00  1.000000E+00  0.000000E+00
  0.000124750  1.772230E-02 -4.451420E-02 -5.159080E-02 -2.282670E-02  1.000000E+00  0.000000E+00  1.000000E+00  0.000000E+00
  0.000127225  1.741950E-02 -4.304240E-02 -5.193410E-02 -2.198650E-02  1.000000E+00  0.000000E+00  1.000000E+00  0.000000E+00
  0.000129700  1.899560E-02 -4.013080E-02 -5.236370E-02 -2.066970E-02  1.000000E+00  0.000000E+00  1.000000E+00  0.000000E+00
  0.000132175  1.985730E-02 -4.041400E-02 -5.282960E-02 -1.969980E-02  1.000000E+00  0.000000E+00  1.000000E+00  0.000000E+00
  0.000134650  1.941390E-02 -4.002040E-02 -5.291610E-02 -1.863610E-02  1.000000E+00  0.000000E+00  1.000000E+00  0.000000E+00
  0.000137125  2.103280E-02 -3.840130E-02 -5.373150E-02 -1.806000E-02  1.000000E+00  0.000000E+00  1.000000E+00  0.000000E+00
  0.000139600  2.180970E-02 -3.732290E-02 -5.424850E-02 -1.759770E-02  1.000000E+00  0.000000E+00  1.000000E+00  0.000000E+00
  0.000142075  2.244870E-02 -3.671800E-02 -5.413440E-02 -1.632390E-02  1.000000E+00  0.000000E+00  1.000000E+00  0.000000E+00
  0.000144550  2.259960E-02 -3.549030E-02 -5.458890E-02 -1.580560E-02  1.000000E+00  0.000000E+00  1.000000E+00  0.000000E+00
  0.000147025  2.365740E-02 -3.377400E-02 -5.467880E-02 -1.485600E-02  1.000000E+00  0.000000E+00  1.000000E+00  0.000000E+00
  0.000149500  2.416140E-02 -3.383260E-02 -5.576860E-02 -1.408370E-02  1.000000E+00  0.000000E+00  1.000000E+00  0.000000E+00
  0.000151975  2.398420E-02 -3.308720E-02 -5.532480E-02 -1.376690E-02  1.000000E+00  0.000000E+00  1.000000E+00  0.000000E+00
  0.000154450  2.415790E-02 -3.108830E-02 -5.563810E-02 -1.273980E-02  1.000000E+00  0.000000E+00  1.000000E+00  0.000000E+00
  0.000156925  2.584410E-02 -3.143480E-02 -5.598190E-02 -1.166530E-02  1.000000E+00  0.000000E+00  1.000000E+00  0.000000E+00
  0.000159400  2.491870E-02 -2.998730E-02 -5.605390E-02 -1.101910E-02  1.000000E+00  0.000000E+00  1.000000E+00  0.000000E+00
  0.000161875  2.620390E-02 -3.101080E-02 -5.653370E-02 -1.019630E-02  1.000000E+00  0.000000E+00  1.000000E+00  0.000000E+00
  0.000164350  2.656460E-02 -2.902990E-02 -5.669410E-02 -1.024640E-02  1.000000E+00  0.000000E+00  1.000000E+00  0.000000E+00
  0.000166825  2.634170E-02 -2.880570E-02 -5.684200E-02 -8.708660E-03  1.000000E+00  0.000000E+00  1.000000E+00  0.000000E+00
  0.000169300  2.754980E-02 -2.885470E-02 -5.679950E-02 -8.388400E-03  1.000000E+00  0.000000E+00  1.000000E+00  0.000000E+00
  0.000171775  2.757180E-02 -2.638480E-02 -5.680740E-02 -6.924930E-03  1.000000E+00  0.000000E+00  1.000000E+00  0.000000E+00
  0.000174250  2.722680E-02 -2.613870E-02 -5.686870E-02 -6.975460E-03  1.000000E+00  0.000000E+00  1.000000E+00  0.000000E+00
  0.000176725  2.793690E-02 -2.601320E-02 -5.712110E-02 -5.854230E-03  1.000000E+00  0.000000E+00  1.000000E+00  0.000000E+00
  0.000179200  2.787540E-02 -2.558950E-02 -5.724550E-02 -5.414000E-03  1.000000E+00  0.000000E+00  1.000000E+00  0.000000E+00
  0.000181675  2.820370E-02 -2.545020E-02 -5.736880E-02 -4.805320E-03  1.000000E+00  0.000000E+00  1.000000E+00  0.000000E+00
  0.000184150  2.921230E-02 -2.397910E-02 -5.759700E-02 -3.745290E-03  1.000000E+00  0.000000E+00  1.000000E+00  0.000000E+00
  0.000186625  2.905690E-02 -2.350920E-02 -5.763440E-02 -3.493280E-03  1.000000E+00  0.000000E+00  1.000000E+00  0.000000E+00
  0.000189100  2.879160E-02 -2.297470E-02 -5.753020E-02 -2.945720E-03  1.000000E+00  0.000000E+00  1.000000E+00  0.000000E+00
  0.000191575  2.874120E-02 -2.387290E-02 -5.802060E-02 -1.811300E-03  1.000000E+00  0.000000E+00  1.000000E+00  0.000000E+00
  0.000194050  2.909400E-02 -2.230240E-02 -5.761600E-02 -1.178600E-03  1.000000E+00  0.000000E+00  1.000000E+00  0.000000E+00
  0.000196525  3.021510E-02 -2.216230E-02 -5.762000E-02 -8.962460E-04  1.000000E+00  0.000000E+00  1.000000E+00  0.000000E+00
  0.000199000  3.105560E-02 -2.148590E-02 -5.742570E-02 -2.749620E-04  1.000000E+00  0.000000E+00  1.000000E+00  0.000000E+00
  0.000201475  3.061800E-02 -2.053750E-02 -5.800440E-02  8.391550E-04  1.000000E+00  0.000000E+00  1.000000E+00  0.000000E+00
  0.000203950  3.005110E-02 -2.035000E-02 -5.749040E-02  1.048350E-03  1.000000E+00  0.000000E+00  1.000000E+00  0.000000E+00
  0.000206425  3.171450E-02 -1.998330E-02 -5.777690E-02  1.113930E-03  1.000000E+00  0.000000E+00  1.000000E+00  0.000000E+00
  0.000208900  3.165930E-02 -2.002900E-02 -5.782940E-02  1.937020E-03  1.000000E+00  0.000000E+00  1.000000E+00  0.000000E+00
  0.000211375  3.225220E-02 -1.981210E-02 -5.749640E-02  2.646640E-03  1.000000E+00  0.000000E+00  1.000000E+00  0.000000E+00
  0.000213850  3.201890E-02 -1.926440E-02 -5.747080E-02  2.925840E-03  1.000000E+00  0.000000E+00  1.000000E+00  0.000000E+00
  0.000216325  3.254840E-02 -1.960000E-02 -5.777010E-02  4.496410E-03  1.000000E+00  0.000000E+00  1.000000E+00  0.000000E+00
  0.000218800  3.217800E-02 -1.920830E-02 -5.745880E-02  5.347730E-03  1.000000E+00  0.000000E+00  1.000000E+00  0.000000E+00
  0.000221275  3.352350E-02 -1.790430E-02 -5.778350E-02  5.679960E-03  1.000000E+00  0.000000E+00  1.000000E+00  0.000000E+00
  0.000223750  3.270010E-02 -1.815290E-02 -5.734930E-02  6.252410E-03  1.000000E+00  0.000000E+00  1.000000E+00  0.000000E+00
  0.000226225  3.388840E-02 -1.701900E-02 -5.795190E-02  6.531680E-03  1.000000E+00  0.000000E+00  1.000000E+00  0.000000E+00
  0.000228700  3.248570E-02 -1.781180E-02 -5.739160E-02  7.084900E-03  1.000000E+00  0.000000E+00  1.000000E+00  0.000000E+00
  0.000231175  3.312740E-02 -1.731410E-02 -5.779610E-02  7.868760E-03  1.000000E+00  0.000000E+00  1.000000E+00  0.000000E+00
  0.000233650  3.318580E-02 -1.666370E-02 -5.742980E-02  8.307820E-03  1.000000E+00  0.000000E+00  1.000000E+00  0.000000E+00
  0.000236125  3.413630E-02 -1.604860E-02 -5.719880E-02  8.878290E-03  1.000000E+00  0.000000E+00  1.000000E+00  0.000000E+00
  0.000238600  3.413550E-02 -1.623060E-02 -5.764510E-02  9.098130E-03  1.000000E+00  0.000000E+00  1.000000E+00  0.000000E+00
  0.000241075  3.384110E-02 -1.617110E-02 -5.740180E-02  1.008490E-02  1.000000E+00  0.000000E+00  1.000000E+00  0.000000E+00
  0.000243550  3.414550E-02 -1.564260E-02 -5.708730E-02  1.041870E-02  1.000000E+00  0.000000E+00  1.000000E+00  0.000000E+00
  0.000246025  3.442010E-02 -1.597950E-02 -5.673080E-02  1.127660E-02  1.000000E+00  0.000000E+00  1.000000E+00  0.000000E+00
  0.000248500  3.446350E-02 -1.517110E-02 -5.658920E-02  1.162300E-02  1.000000E+00  0.000000E+00  1.000000E+00  0.000000E+00
  0.000250975  3.536190E-02 -1.574060E-02 -5.671280E-02  1.206270E-02  1.000000E+00  0.000000E+00  1.000000E+00  0.000000E+00
  0.000253450  3.490950E-02 -1.490610E-02 -5.666620E-02  1.306480E-02  1.000000E+00  0.000000E+00  1.000000E+00  0.000000E+00
  0.000255925  3.443780E-02 -1.386660E-02 -5.607140E-02  1.323390E-02  1.000000E+00  0.000000E+00  1.000000E+00  0.000000E+00
  0.000258400  3.630210E-02 -1.424450E-02 -5.603220E-02  1.428770E-02  1.000000E+00  0.000000E+00  1.000000E+00  0.000000E+00
  0.000260875  3.520640E-02 -1.356870E-02 -5.558590E-02  1.486580E-02  1.000000E+00  0.000000E+00  1.000000E+00  0.000000E+00
  0.000263350  3.549370E-02 -1.261780E-02 -5.571660E-02  1.489430E-02  1.000000E+00  0.000000E+00  1.000000E+00  0.000000E+00
  0.000265825  3.535820E-02 -1.373720E-02 -5.584880E-02  1.536670E-02  1.000000E+00  0.000000E+00  1.000000E+00  0.000000E+00
  0.000268300  3.574560E-02 -1.350810E-02 -5.563090E-02  1.612010E-02  1.000000E+00  0.000000E+00  1.000000E+00  0.000000E+00
  0.000270775  3.602170E-02 -1.245020E-02 -5.563130E-02  1.603020E-02  1.000000E+00  0.000000E+00  1.000000E+00  0.000000E+00
  0.000273250  3.560240E-02 -1.233970E-02 -5.552230E-02  1.707850E-02  1.000000E+00  0.000000E+00  1.000000E+00  0.000000E+00
  0.000275725  3.662330E-02 -1.252740E-02 -5.511240E-02  1.758160E-02  1.000000E+00  0.000000E+00  1.000000E+00  0.000000E+00
  0.000278200  3.679060E-02 -1.231760E-02 -5.473670E-02  1.772260E-02  1.000000E+00  0.000000E+00  1.000000E+00  0.000000E+00
  0.000280675  3.662070E-02 -1.212340E-02 -5.434370E-02  1.836200E-02  1.000000E+00  0.000000E+00  1.000000E+00  0.000000E+00
  0.000283150  3.692910E-02 -1.278890E-02 -5.442240E-02  1.884410E-02  1.000000E+00  0.000000E+00  1.000000E+00  0.000000E+00
  0.000285625  3.669780E-02 -1.261960E-02 -5.417380E-02  1.954190E-02  1.000000E+00  0.000000E+00  1.000000E+00  0.000000E+00
  0.000288100  3.702440E-02 -1.161940E-02 -5.410420E-02  2.025790E-02  1.000000E+00  0.000000E+00  1.000000E+00  0.000000E+00
  0.000290575  3.659780E-02 -1.074670E-02 -5.353350E-02  2.034110E-02  1.000000E+00  0.000000E+00  1.000000E+00  0.000000E+00
  0.000293050  3.778400E-02 -1.155920E-02 -5.358200E-02  2.019460E-02  1.000000E+00  0.000000E+00  1.000000E+00  0.000000E+00
  0.000295525  3.754030E-02 -1.029980E-02 -5.316470E-02  2.100410E-02  1.000000E+00  0.000000E+00  1.000000E+00  0.000000E+00
  0.000298000  3.717280E-02 -1.139890E-02 -5.312550E-02  2.203810E-02  1.000000E+00  0.000000E+00  1.000000E+00  0.000000E+00
  0.000300475  3.729090E-02 -1.145130E-02 -5.297280E-02  2.252110E-02  1.000000E+00  0.000000E+00  1.000000E+00  0.000000E+00
  0.000302950  3.720900E-02 -1.054920E-02 -5.235450E-02  2.251450E-02  1.000000E+00  0.000000E+00  1.000000E+00  0.000000E+00
  0.000305425  3.800200E-02 -9.619520E-03 -5.235940E-02  2.315920E-02  1.000000E+00  0.000000E+00  1.000000E+00  0.000000E+00
  0.000307900  3.839530E-02 -1.094670E-02 -5.230180E-02  2.353470E-02  1.000000E+00  0.000000E+00  1.000000E+00  0.000000E+00
  0.000310375  3.917230E-02 -1.078880E-02 -5.155200E-02  2.379570E-02  1.000000E+00  0.000000E+00  1.000000E+00  0.000000E+00
  0.000312850  3.868690E-02 -1.000150E-02 -5.177150E-02  2.474490E-02  1.000000E+00  0.000000E+00  1.000000E+00  0.000000E+00
  0.000315325  3.824830E-02 -1.076380E-02 -5.134400E-02  2.540280E-02  1.000000E+00  0.000000E+00  1.000000E+00  0.000000E+00
  0.000317800  3.827550E-02 -8.838490E-03 -5.123880E-02  2.534880E-02  1.000000E+00  0.000000E+00  1.000000E+00  0.000000E+00
  0.000320275  3.828900E-02 -8.736080E-03 -5.058760E-02  2.600960E-02  1.000000E+00  0.000000E+00  1.000000E+00  0.000000E+00
  0.000322750  3.870970E-02 -9.320670E-03 -4.998890E-02  2.629990E-02  1.000000E+00  0.000000E+00  1.000000E+00  0.000000E+00
  0.000325225  3.861970E-02 -1.010990E-02 -5.069060E-02  2.642710E-02  1.000000E+00  0.000000E+00  1.000000E+00  0.000000E+00
  0.000327700  3.864830E-02 -9.184400E-03 -5.037100E-02  2.707040E-02  1.000000E+00  0.000000E+00  1.000000E+00  0.000000E+00
  0.000330175  3.926920E-02 -9.472270E-03 -4.981220E-02  2.737640E-02  1.000000E+00  0.000000E+00  1.000000E+00  0.000000E+00
  0.000332650  3.892650E-02 -8.546440E-03 -4.888140E-02  2.713180E-02  1.000000E+00  0.000000E+00  1.000000E+00  0.000000E+00
  0.000335125  3.913300E-02 -9.200970E-03 -4.922080E-02  2.785520E-02  1.000000E+00  0.000000E+00  1.000000E+00  0.000000E+00
  0.000337600  3.938540E-02 -9.208820E-03 -4.866990E-02  2.834760E-02  1.000000E+00  0.000000E+00  1.000000E+00  0.000000E+00
  0.000340075  4.003570E-02 -9.962600E-03 -4.820890E-02  2.908250E-02  1.000000E+00  0.000000E+00  1.000000E+00  0.000000E+00
  0.000342550  3.990160E-02 -8.532200E-03 -4.818960E-02  2.912400E-02  1.000000E+00  0.000000E+00  1.000000E+00  0.000000E+00
  0.000345025  3.953310E-02 -1.006640E-02 -4.775450E-02  2.945700E-02  1.000000E+00  0.000000E+00  1.000000E+00  0.000000E+00
  0.000347500  3.987340E-02 -9.558090E-03 -4.715820E-02  3.007010E-02  1.000000E+00  0.000000E+00  1.000000E+00  0.000000E+00
  0.000349975  3.943600E-02 -7.430950E-03 -4.744140E-02  3.060630E-02  1.000000E+00  0.000000E+00  1.000000E+00  0.000000E+00
  0.000352450  4.066710E-02 -8.462500E-03 -4.723900E-02  3.050570E-02  1.000000E+00  0.000000E+00  1.000000E+00  0.000000E+00
  0.000354925  3.997780E-02 -7.917540E-03 -4.664010E-02  3.126930E-02  1.000000E+00  0.000000E+00  1.000000E+00  0.000000E+00
  0.000357400  3.945840E-02 -8.783800E-03 -4.638110E-02  3.115860E-02  1.000000E+00  0.000000E+00  1.000000E+00  0.000000E+00
  0.000359875  4.006050E-02 -8.562950E-03 -4.609880E-02  3.137150E-02  1.000000E+00  0.000000E+00  1.000000E+00  0.000000E+00
  0.000362350  3.985280E-02 -8.614480E-03 -4.522990E-02  3.203530E-02  1.000000E+00  0.000000E+00  1.000000E+00  0.000000E+00
  0.000364825  4.058550E-02 -7.832150E-03 -4.508390E-02  3.199800E-02  1.000000E+00  0.000000E+00  1.000000E+00  0.000000E+00
  0.000367300  4.086790E-02 -8.539360E-03 -4.491080E-02  3.246970E-02  1.000000E+00  0.000000E+00  1.000000E+00  0.000000E+00
  0.000369775  3.973400E-02 -6.808350E-03 -4.424720E-02  3.329830E-02  1.000000E+00  0.000000E+00  1.000000E+00  0.000000E+00
  0.000372250  4.059300E-02 -8.386640E-03 -4.395970E-02  3.323610E-02  1.000000E+00  0.000000E+00  1.000000E+00  0.000000E+00
  0.000374725  4.033440E-02 -7.877100E-03 -4.378720E-02  3.369810E-02  1.000000E+00  0.000000E+00  1.000000E+00  0.000000E+00
  0.000377200  4.002820E-02 -7.624140E-03 -4.335420E-02  3.388960E-02  1.000000E+00  0.000000E+00  1.000000E+00  0.000000E+00
  0.000379675  4.065070E-02 -8.251490E-03 -4.281150E-02  3.420340E-02  1.000000E+00  0.000000E+00  1.000000E+00  0.000000E+00
  0.000382150  4.067340E-02 -8.331340E-03 -4.235130E-02  3.457960E-02  1.000000E+00  0.000000E+00  1.000000E+00  0.000000E+00
  0.000384625  4.213470E-02 -7.676220E-03 -4.223050E-02  3.466440E-02  1.000000E+00  0.000000E+00  1.000000E+00  0.000000E+00
  0.000387100  4.030000E-02 -8.204500E-03 -4.188590E-02  3.475310E-02  1.000000E+00  0.000000E+00  1.000000E+00  0.000000E+00
  0.000389575  4.059730E-02 -8.020290E-03 -4.114400E-02  3.502000E-02  1.000000E+00  0.000000E+00  1.000000E+00  0.000000E+00
  0.000392050  4.100050E-02 -6.111290E-03 -4.113070E-02  3.557920E-02  1.000000E+00  0.000000E+00  1.000000E+00  0.000000E+00
  0.000394525  4.092140E-02 -7.337020E-03 -4.100770E-02  3.563120E-02  1.000000E+00  0.000000E+00  1.000000E+00  0.000000E+00
  0.000397000  4.064380E-02 -7.043310E-03 -4.057710E-02  3.630670E-02  1.000000E+00  0.000000E+00  1.000000E+00  0.000000E+00
  0.000399475  4.199310E-02 -7.238080E-03 -4.048030E-02  3.619830E-02  1.000000E+00  0.000000E+00  1.000000E+00  0.000000E+00
  0.000401950  4.074110E-02 -7.610590E-03 -3.968570E-02  3.633560E-02  1.000000E+00  0.000000E+00  1.000000E+00  0.000000E+00
  0.000404425  4.128710E-02 -6.925750E-03 -3.935390E-02  3.668420E-02  1.000000E+00  0.000000E+00  1.000000E+00  0.000000E+00
  0.000406900  4.136170E-02 -7.780920E-03 -3.886990E-02  3.694420E-02  1.000000E+00  0.000000E+00  1.000000E+00  0.000000E+00
  0.000409375  4.079880E-02 -7.956900E-03 -3.842660E-02  3.704560E-02  1.000000E+00  0.000000E+00  1.000000E+00  0.000000E+00
  0.000411850  4.101070E-02 -8.097600E-03 -3.776830E-02  3.768620E-02  1.000000E+00  0.000000E+00  1.000000E+00  0.000000E+00
  0.000414325  4.113810E-02 -6.909020E-03 -3.808170E-02  3.752430E-02  1.000000E+00  0.000000E+00  1.000000E+00  0.000000E+00
  0.000416800  4.132030E-02 -7.028740E-03 -3.757130E-02  3.780930E-02  1.000000E+00  0.000000E+00  1.000000E+00  0.000000E+00
  0.000419275  4.186720E-02 -7.316870E-03 -3.757410E-02  3.795110E-02  1.000000E+00  0.000000E+00  1.000000E+00  0.000000E+00
  0.000421750  4.255490E-02 -7.260100E-03 -3.635180E-02  3.777880E-02  1.000000E+00  0.000000E+00  1.000000E+00  0.000000E+00
  0.000424225  4.240150E-02 -6.566910E-03 -3.613680E-02  3.802790E-02  1.000000E+00  0.000000E+00  1.000000E+00  0.000000E+00
  0.000426700  4.164270E-02 -7.194740E-03 -3.597940E-02  3.830480E-02  1.000000E+00  0.000000E+00  1.000000E+00  0.000000E+00
  0.000429175  4.172460E-02 -8.075210E-03 -3.606190E-02  3.810580E-02  1.000000E+00  0.000000E+00  1.000000E+00  0.000000E+00
  0.000431650  4.168050E-02 -7.313280E-03 -3.512370E-02  3.875850E-02  1.000000E+00  0.000000E+00  1.000000E+00  0.000000E+00
  0.000434125  4.253360E-02 -7.454470E-03 -3.461810E-02  3.899700E-02  1.000000E+00  0.000000E+00  1.000000E+00  0.000000E+00
  0.000436600  4.108320E-02 -6.736140E-03 -3.469100E-02  3.903780E-02  1.000000E+00  0.000000E+00  1.000000E+00  0.000000E+00
  0.000439075  4.180740E-02 -6.770680E-03 -3.395230E-02  3.909440E-02  1.000000E+00  0.000000E+00  1.000000E+00  0.000000E+00
  0.000441550  4.202740E-02 -6.846300E-03 -3.431800E-02  3.900000E-02  1.000000E+00  0.000000E+00  1.000000E+00  0.000000E+00
  0.000444025  4.100460E-02 -6.956600E-03 -3.299390E-02  3.990920E-02  1.000000E+00  0.000000E+00  1.000000E+00  0.000000E+00
  0.000446500  4.197310E-02 -6.490340E-03 -3.308480E-02  3.976290E-02  1.000000E+00  0.000000E+00  1.000000E+00  0.000000E+00
  0.000448975  4.164000E-02 -6.145300E-03 -3.277800E-02  3.973230E-02  1.000000E+00  0.000000E+00  1.000000E+00  0.000000E+00
  0.000451450  4.227200E-02 -7.214800E-03 -3.278720E-02  3.993720E-02  1.000000E+00  0.000000E+00  1.000000E+00  0.000000E+00
  0.000453925  4.182320E-02 -6.742720E-03 -3.191690E-02  3.985410E-02  1.000000E+00  0.000000E+00  1.000000E+00  0.000000E+00
