! Anritsu VNA Master:                        Model: MS2026C/19
! SN:                                  1815009
! /card0/usr/20180902_19.s2p
! Existing Calibration Information:
! TYPE:                         Current Settings,       Active Cal Settings
! TIME:             	   09/02/2018 12:55:30 PM,    09/02/2018 11:58:48 AM
! INTERNAL TEMP:    	                   54.0 C,                    48.8 C
! # POINTS:         	                     4001,                      4001
! START FREQ:       	              100.000 kHz,               100.000 kHz
! STOP FREQ:        	               10.000 MHz,                10.000 MHz
! SOURCE POWER:     	                      Low,                       Low
! IFBW:             	                   500 Hz,                    500 Hz
! AVG FACTOR:       	                       1 ,                        1 
! REF PLANE 1:      	                     0 mm,                      0 mm
! REF PLANE 2:      	                     0 mm,                      0 mm
! CAL TYPE:         	             1P2P S11,S21,              1P2P S11,S21
! CAL METHOD:       	                     SOLT,                      SOLT
! CAL LINE TYPE:    	                     Coax,                      Coax
! DUT PORT 1:       	                N-Conn(M),                 N-Conn(M)
! DUT PORT 2:       	                N-Conn(M),                 N-Conn(M)
! CAL STATUS:       	?T: Accuracy moderate (|Temp diff| > 5.0 C),                        --
# GHZ S RI R 50.0
! FREQ.GHZ      S11RE         S11IM         S21RE         S21IM         S12RE         S12IM         S22RE         S22IM
  0.000100000  1.771060E-03 -6.054090E-02  1.373990E-04  7.756370E-05  1.000000E+00  0.000000E+00  1.000000E+00  0.000000E+00
  0.000102475  3.577100E-03 -5.857950E-02 -3.016330E-04 -4.255100E-05  1.000000E+00  0.000000E+00  1.000000E+00  0.000000E+00
  0.000104950  3.395670E-03 -5.597200E-02 -4.260710E-04 -2.208150E-04  1.000000E+00  0.000000E+00  1.000000E+00  0.000000E+00
  0.000107425  5.490170E-03 -5.347220E-02 -1.125730E-03 -1.427040E-04  1.000000E+00  0.000000E+00  1.000000E+00  0.000000E+00
  0.000109900  7.804360E-03 -5.115840E-02 -8.563830E-05 -5.476470E-04  1.000000E+00  0.000000E+00  1.000000E+00  0.000000E+00
  0.000112375  6.658160E-03 -4.963260E-02  6.611930E-05 -1.315100E-03  1.000000E+00  0.000000E+00  1.000000E+00  0.000000E+00
  0.000114850  9.375040E-03 -4.781250E-02  5.806520E-04 -5.951970E-04  1.000000E+00  0.000000E+00  1.000000E+00  0.000000E+00
  0.000117325  1.139060E-02 -4.569350E-02  4.912240E-04  1.931320E-04  1.000000E+00  0.000000E+00  1.000000E+00  0.000000E+00
  0.000119800  1.087610E-02 -4.313330E-02 -2.654370E-04 -5.858160E-04  1.000000E+00  0.000000E+00  1.000000E+00  0.000000E+00
  0.000122275  1.139080E-02 -4.182770E-02 -7.782480E-05 -1.330910E-03  1.000000E+00  0.000000E+00  1.000000E+00  0.000000E+00
  0.000124750  1.423700E-02 -4.163820E-02 -4.842380E-04 -5.684750E-04  1.000000E+00  0.000000E+00  1.000000E+00  0.000000E+00
  0.000127225  1.176940E-02 -4.024740E-02 -6.761730E-04 -2.002350E-04  1.000000E+00  0.000000E+00  1.000000E+00  0.000000E+00
  0.000129700  1.418580E-02 -3.695720E-02 -3.007940E-04 -9.371450E-05  1.000000E+00  0.000000E+00  1.000000E+00  0.000000E+00
  0.000132175  1.523780E-02 -3.772300E-02 -6.083250E-04 -1.335790E-04  1.000000E+00  0.000000E+00  1.000000E+00  0.000000E+00
  0.000134650  1.552140E-02 -3.644790E-02 -3.723090E-04 -4.343190E-04  1.000000E+00  0.000000E+00  1.000000E+00  0.000000E+00
  0.000137125  1.687790E-02 -3.506600E-02 -7.474790E-04 -8.661560E-04  1.000000E+00  0.000000E+00  1.000000E+00  0.000000E+00
  0.000139600  1.774900E-02 -3.363520E-02 -4.027050E-04 -5.302500E-04  1.000000E+00  0.000000E+00  1.000000E+00  0.000000E+00
  0.000142075  1.911030E-02 -3.303860E-02 -4.841510E-04 -5.436130E-04  1.000000E+00  0.000000E+00  1.000000E+00  0.000000E+00
  0.000144550  1.992400E-02 -3.268410E-02  2.458590E-04 -6.119520E-04  1.000000E+00  0.000000E+00  1.000000E+00  0.000000E+00
  0.000147025  1.989970E-02 -3.165300E-02 -5.316780E-04 -7.825890E-04  1.000000E+00  0.000000E+00  1.000000E+00  0.000000E+00
  0.000149500  2.079260E-02 -3.145890E-02 -2.426310E-04 -4.449070E-06  1.000000E+00  0.000000E+00  1.000000E+00  0.000000E+00
  0.000151975  2.097800E-02 -2.964230E-02 -1.281720E-03  4.384800E-04  1.000000E+00  0.000000E+00  1.000000E+00  0.000000E+00
  0.000154450  2.220700E-02 -2.722920E-02  4.028410E-04 -7.279140E-04  1.000000E+00  0.000000E+00  1.000000E+00  0.000000E+00
  0.000156925  2.399050E-02 -2.631280E-02 -6.672320E-04 -1.105020E-03  1.000000E+00  0.000000E+00  1.000000E+00  0.000000E+00
  0.000159400  2.301560E-02 -2.510560E-02 -4.708040E-04 -6.148770E-04  1.000000E+00  0.000000E+00  1.000000E+00  0.000000E+00
  0.000161875  2.426510E-02 -2.615190E-02 -4.727550E-04 -6.491570E-05  1.000000E+00  0.000000E+00  1.000000E+00  0.000000E+00
  0.000164350  2.438280E-02 -2.649870E-02 -4.526010E-04 -8.707120E-04  1.000000E+00  0.000000E+00  1.000000E+00  0.000000E+00
  0.000166825  2.583510E-02 -2.484420E-02  2.274700E-04 -1.506920E-03  1.000000E+00  0.000000E+00  1.000000E+00  0.000000E+00
  0.000169300  2.592520E-02 -2.548100E-02  6.330380E-04 -5.364580E-04  1.000000E+00  0.000000E+00  1.000000E+00  0.000000E+00
  0.000171775  2.608950E-02 -2.344150E-02 -9.004320E-04 -5.489500E-04  1.000000E+00  0.000000E+00  1.000000E+00  0.000000E+00
  0.000174250  2.619140E-02 -2.405850E-02 -7.378590E-04 -8.596310E-04  1.000000E+00  0.000000E+00  1.000000E+00  0.000000E+00
  0.000176725  2.723880E-02 -2.371670E-02  3.136770E-04  2.550830E-04  1.000000E+00  0.000000E+00  1.000000E+00  0.000000E+00
  0.000179200  2.564780E-02 -2.285770E-02  4.051390E-04 -1.484480E-03  1.000000E+00  0.000000E+00  1.000000E+00  0.000000E+00
  0.000181675  2.676810E-02 -2.207620E-02  1.372070E-04 -3.824460E-04  1.000000E+00  0.000000E+00  1.000000E+00  0.000000E+00
  0.000184150  2.656510E-02 -2.053100E-02 -1.935020E-03  4.784080E-04  1.000000E+00  0.000000E+00  1.000000E+00  0.000000E+00
  0.000186625  2.820430E-02 -2.093690E-02 -2.252250E-04 -3.089130E-04  1.000000E+00  0.000000E+00  1.000000E+00  0.000000E+00
  0.000189100  2.820260E-02 -2.095780E-02 -7.740220E-04 -1.881300E-03  1.000000E+00  0.000000E+00  1.000000E+00  0.000000E+00
  0.000191575  2.835070E-02 -2.113550E-02 -1.072550E-03 -5.054850E-04  1.000000E+00  0.000000E+00  1.000000E+00  0.000000E+00
  0.000194050  2.937130E-02 -2.239970E-02 -7.590400E-04 -1.115020E-03  1.000000E+00  0.000000E+00  1.000000E+00  0.000000E+00
  0.000196525  2.886140E-02 -1.898010E-02 -1.236950E-03  3.292200E-04  1.000000E+00  0.000000E+00  1.000000E+00  0.000000E+00
  0.000199000  2.925150E-02 -1.967310E-02  3.913990E-05 -2.712860E-04  1.000000E+00  0.000000E+00  1.000000E+00  0.000000E+00
  0.000201475  2.859930E-02 -1.828610E-02 -9.384020E-04 -6.569540E-04  1.000000E+00  0.000000E+00  1.000000E+00  0.000000E+00
  0.000203950  2.922150E-02 -1.776440E-02 -2.500000E-04  2.045850E-05  1.000000E+00  0.000000E+00  1.000000E+00  0.000000E+00
  0.000206425  3.080470E-02 -1.941240E-02 -9.619480E-04  1.145960E-04  1.000000E+00  0.000000E+00  1.000000E+00  0.000000E+00
  0.000208900  2.974690E-02 -1.806910E-02 -3.851800E-04 -6.637300E-04  1.000000E+00  0.000000E+00  1.000000E+00  0.000000E+00
  0.000211375  3.319140E-02 -1.791170E-02 -9.210070E-04 -1.374080E-03  1.000000E+00  0.000000E+00  1.000000E+00  0.000000E+00
  0.000213850  2.965610E-02 -1.682480E-02 -1.125410E-04 -1.029930E-03  1.000000E+00  0.000000E+00  1.000000E+00  0.000000E+00
  0.000216325  3.060240E-02 -1.718570E-02 -8.689850E-04 -5.799810E-04  1.000000E+00  0.000000E+00  1.000000E+00  0.000000E+00
  0.000218800  3.205520E-02 -1.664140E-02 -3.036940E-04 -6.789460E-04  1.000000E+00  0.000000E+00  1.000000E+00  0.000000E+00
  0.000221275  3.160830E-02 -1.566220E-02 -1.542100E-03 -9.763430E-04  1.000000E+00  0.000000E+00  1.000000E+00  0.000000E+00
  0.000223750  3.080950E-02 -1.765350E-02 -3.438190E-04 -6.278180E-04  1.000000E+00  0.000000E+00  1.000000E+00  0.000000E+00
  0.000226225  3.234600E-02 -1.594440E-02  3.720870E-05 -1.571250E-04  1.000000E+00  0.000000E+00  1.000000E+00  0.000000E+00
  0.000228700  3.048920E-02 -1.483870E-02 -1.778220E-03 -8.170930E-04  1.000000E+00  0.000000E+00  1.000000E+00  0.000000E+00
  0.000231175  3.158470E-02 -1.513570E-02 -2.174070E-03 -1.064040E-03  1.000000E+00  0.000000E+00  1.000000E+00  0.000000E+00
  0.000233650  3.182910E-02 -1.550750E-02 -7.684450E-04  3.109200E-04  1.000000E+00  0.000000E+00  1.000000E+00  0.000000E+00
  0.000236125  3.114230E-02 -1.306300E-02 -1.840630E-03 -1.279540E-03  1.000000E+00  0.000000E+00  1.000000E+00  0.000000E+00
  0.000238600  3.127420E-02 -1.457990E-02 -1.716200E-03 -1.030040E-03  1.000000E+00  0.000000E+00  1.000000E+00  0.000000E+00
  0.000241075  3.362360E-02 -1.450160E-02 -1.303860E-04 -1.261500E-03  1.000000E+00  0.000000E+00  1.000000E+00  0.000000E+00
  0.000243550  3.209130E-02 -1.253100E-02 -1.123900E-03 -4.526520E-04  1.000000E+00  0.000000E+00  1.000000E+00  0.000000E+00
  0.000246025  3.218060E-02 -1.308540E-02 -3.302400E-04 -5.969140E-04  1.000000E+00  0.000000E+00  1.000000E+00  0.000000E+00
  0.000248500  3.236490E-02 -1.392310E-02 -1.765170E-03 -1.386220E-04  1.000000E+00  0.000000E+00  1.000000E+00  0.000000E+00
  0.000250975  3.434580E-02 -1.429590E-02 -1.071130E-03  1.314430E-04  1.000000E+00  0.000000E+00  1.000000E+00  0.000000E+00
  0.000253450  3.305320E-02 -1.236650E-02 -1.505340E-03 -7.860440E-04  1.000000E+00  0.000000E+00  1.000000E+00  0.000000E+00
  0.000255925  3.187070E-02 -1.131280E-02 -1.308280E-03  1.340000E-04  1.000000E+00  0.000000E+00  1.000000E+00  0.000000E+00
  0.000258400  3.277580E-02 -1.113460E-02 -7.915880E-04 -2.639280E-04  1.000000E+00  0.000000E+00  1.000000E+00  0.000000E+00
  0.000260875  3.244920E-02 -1.138840E-02 -1.693380E-03 -7.789830E-04  1.000000E+00  0.000000E+00  1.000000E+00  0.000000E+00
  0.000263350  3.231350E-02 -1.080280E-02 -1.062770E-03 -9.206730E-04  1.000000E+00  0.000000E+00  1.000000E+00  0.000000E+00
  0.000265825  3.267020E-02 -1.248220E-02 -1.661400E-03 -1.089190E-03  1.000000E+00  0.000000E+00  1.000000E+00  0.000000E+00
  0.000268300  3.342180E-02 -1.055640E-02 -6.920650E-04 -3.846800E-04  1.000000E+00  0.000000E+00  1.000000E+00  0.000000E+00
  0.000270775  3.328230E-02 -1.090750E-02 -5.903230E-04 -5.850180E-04  1.000000E+00  0.000000E+00  1.000000E+00  0.000000E+00
  0.000273250  3.290640E-02 -7.983910E-03 -3.165400E-03 -5.135080E-04  1.000000E+00  0.000000E+00  1.000000E+00  0.000000E+00
  0.000275725  3.498790E-02 -9.393890E-03 -1.746540E-03 -1.209150E-03  1.000000E+00  0.000000E+00  1.000000E+00  0.000000E+00
  0.000278200  3.449460E-02 -9.457570E-03 -2.307610E-03 -1.242300E-03  1.000000E+00  0.000000E+00  1.000000E+00  0.000000E+00
  0.000280675  3.364850E-02 -9.089970E-03 -1.775000E-03  3.625770E-04  1.000000E+00  0.000000E+00  1.000000E+00  0.000000E+00
  0.000283150  3.610680E-02 -9.683680E-03 -1.996090E-03 -1.599140E-03  1.000000E+00  0.000000E+00  1.000000E+00  0.000000E+00
  0.000285625  3.430780E-02 -7.907370E-03 -2.175330E-03 -1.753160E-03  1.000000E+00  0.000000E+00  1.000000E+00  0.000000E+00
  0.000288100  3.451070E-02 -7.645660E-03 -2.686030E-03  2.090490E-04  1.000000E+00  0.000000E+00  1.000000E+00  0.000000E+00
  0.000290575  3.493340E-02 -7.612530E-03 -1.571460E-03  2.594230E-04  1.000000E+00  0.000000E+00  1.000000E+00  0.000000E+00
  0.000293050  3.509820E-02 -7.131870E-03 -2.410810E-03 -1.479820E-04  1.000000E+00  0.000000E+00  1.000000E+00  0.000000E+00
  0.000295525  3.477270E-02 -6.358930E-03 -4.230980E-03 -9.075180E-04  1.000000E+00  0.000000E+00  1.000000E+00  0.000000E+00
  0.000298000  3.415660E-02 -7.188560E-03 -2.181030E-03 -8.376320E-04  1.000000E+00  0.000000E+00  1.000000E+00  0.000000E+00
  0.000300475  3.577850E-02 -6.873630E-03 -3.249190E-03 -9.490540E-04  1.000000E+00  0.000000E+00  1.000000E+00  0.000000E+00
  0.000302950  3.534260E-02 -5.505650E-03 -1.992150E-03 -4.917750E-04  1.000000E+00  0.000000E+00  1.000000E+00  0.000000E+00
  0.000305425  3.615970E-02 -5.674010E-03 -4.970590E-03 -2.662090E-04  1.000000E+00  0.000000E+00  1.000000E+00  0.000000E+00
  0.000307900  3.527790E-02 -5.116640E-03 -2.835120E-03  8.001450E-05  1.000000E+00  0.000000E+00  1.000000E+00  0.000000E+00
  0.000310375  3.745040E-02 -6.111640E-03 -2.654550E-03 -2.205760E-04  1.000000E+00  0.000000E+00  1.000000E+00  0.000000E+00
  0.000312850  3.644050E-02 -5.668200E-03 -2.791750E-03 -5.440050E-04  1.000000E+00  0.000000E+00  1.000000E+00  0.000000E+00
  0.000315325  3.700140E-02 -6.653700E-03 -4.742870E-03  9.147010E-04  1.000000E+00  0.000000E+00  1.000000E+00  0.000000E+00
  0.000317800  3.630990E-02 -3.982830E-03 -6.337600E-03  5.451770E-04  1.000000E+00  0.000000E+00  1.000000E+00  0.000000E+00
  0.000320275  3.659100E-02 -2.087730E-03 -2.075370E-03  1.661110E-04  1.000000E+00  0.000000E+00  1.000000E+00  0.000000E+00
  0.000322750  3.847050E-02 -4.755850E-03 -2.950630E-03  1.781270E-03  1.000000E+00  0.000000E+00  1.000000E+00  0.000000E+00
  0.000325225  3.890880E-02 -4.090050E-03 -4.182440E-03  2.282420E-03  1.000000E+00  0.000000E+00  1.000000E+00  0.000000E+00
  0.000327700  3.894880E-02 -2.415780E-03 -7.965150E-03  6.957850E-03  1.000000E+00  0.000000E+00  1.000000E+00  0.000000E+00
  0.000330175  3.766930E-02 -1.714400E-03 -3.448750E-03  7.696180E-04  1.000000E+00  0.000000E+00  1.000000E+00  0.000000E+00
  0.000332650  3.618380E-02 -3.140850E-03 -4.008040E-03  1.818060E-03  1.000000E+00  0.000000E+00  1.000000E+00  0.000000E+00
  0.000335125  3.843270E-02 -2.970800E-03 -4.985520E-03  3.288860E-03  1.000000E+00  0.000000E+00  1.000000E+00  0.000000E+00
  0.000337600  3.976860E-02 -2.935860E-03 -1.232730E-03  1.095110E-02  1.000000E+00  0.000000E+00  1.000000E+00  0.000000E+00
  0.000340075  3.849460E-02 -2.676710E-03 -3.865440E-03  1.971820E-03  1.000000E+00  0.000000E+00  1.000000E+00  0.000000E+00
  0.000342550  3.954270E-02 -2.798980E-03 -4.577970E-03  2.370510E-03  1.000000E+00  0.000000E+00  1.000000E+00  0.000000E+00
  0.000345025  4.084860E-02 -2.319560E-03 -5.360530E-03  3.305090E-03  1.000000E+00  0.000000E+00  1.000000E+00  0.000000E+00
  0.000347500  3.978380E-02 -1.435590E-03  5.862510E-04  7.747210E-03  1.000000E+00  0.000000E+00  1.000000E+00  0.000000E+00
  0.000349975  4.135690E-02 -2.582080E-03 -8.323600E-04  5.415310E-03  1.000000E+00  0.000000E+00  1.000000E+00  0.000000E+00
  0.000352450  4.069870E-02 -1.900770E-03 -4.167780E-03  3.335250E-03  1.000000E+00  0.000000E+00  1.000000E+00  0.000000E+00
  0.000354925  4.140560E-02 -1.183380E-03 -4.272710E-03  6.225960E-03  1.000000E+00  0.000000E+00  1.000000E+00  0.000000E+00
  0.000357400  3.973980E-02 -3.590340E-03 -1.412300E-03  7.706330E-03  1.000000E+00  0.000000E+00  1.000000E+00  0.000000E+00
  0.000359875  4.146710E-02 -3.127170E-03  3.889460E-03  6.257760E-03  1.000000E+00  0.000000E+00  1.000000E+00  0.000000E+00
  0.000362350  4.160280E-02 -2.583190E-03 -4.905330E-03  5.681510E-03  1.000000E+00  0.000000E+00  1.000000E+00  0.000000E+00
  0.000364825  4.310290E-02 -6.708920E-04 -4.724840E-03  7.196100E-03  1.000000E+00  0.000000E+00  1.000000E+00  0.000000E+00
  0.000367300  4.192610E-02 -1.978100E-03 -1.217970E-03  8.928220E-03  1.000000E+00  0.000000E+00  1.000000E+00  0.000000E+00
  0.000369775  4.131490E-02 -7.310780E-04  2.701690E-03  4.985560E-03  1.000000E+00  0.000000E+00  1.000000E+00  0.000000E+00
  0.000372250  4.171610E-02 -2.342680E-03 -1.534660E-03  7.478900E-03  1.000000E+00  0.000000E+00  1.000000E+00  0.000000E+00
  0.000374725  4.153890E-02 -1.201380E-03 -1.175000E-03  1.047700E-02  1.000000E+00  0.000000E+00  1.000000E+00  0.000000E+00
  0.000377200  4.226670E-02 -1.211880E-03  1.186060E-03  1.087930E-02  1.000000E+00  0.000000E+00  1.000000E+00  0.000000E+00
  0.000379675  4.212910E-02 -2.196630E-03  3.600940E-03  3.827030E-03  1.000000E+00  0.000000E+00  1.000000E+00  0.000000E+00
  0.000382150  4.333490E-02 -2.160690E-03  1.728360E-03  7.423770E-03  1.000000E+00  0.000000E+00  1.000000E+00  0.000000E+00
  0.000384625  4.318340E-02 -3.371000E-03  7.983140E-04  9.865620E-03  1.000000E+00  0.000000E+00  1.000000E+00  0.000000E+00
  0.000387100  4.277980E-02 -1.498160E-03  5.235700E-03  1.081380E-02  1.000000E+00  0.000000E+00  1.000000E+00  0.000000E+00
  0.000389575  4.240520E-02 -1.505470E-03  5.931370E-03  4.162800E-03  1.000000E+00  0.000000E+00  1.000000E+00  0.000000E+00
  0.000392050  4.386530E-02 -1.975090E-03  4.849510E-03  3.024410E-03  1.000000E+00  0.000000E+00  1.000000E+00  0.000000E+00
  0.000394525  4.469160E-02 -3.055540E-03  4.648510E-03  8.647160E-03  1.000000E+00  0.000000E+00  1.000000E+00  0.000000E+00
  0.000397000  4.492360E-02 -2.078000E-03  7.610330E-03  6.985370E-03  1.000000E+00  0.000000E+00  1.000000E+00  0.000000E+00
  0.000399475  4.554180E-02 -3.973890E-03  7.867860E-03  4.498530E-03  1.000000E+00  0.000000E+00  1.000000E+00  0.000000E+00
  0.000401950  4.356090E-02 -4.591420E-03  3.346270E-03  1.534170E-03  1.000000E+00  0.000000E+00  1.000000E+00  0.000000E+00
  0.000404425  4.515880E-02 -9.178080E-04  6.386870E-03  6.240900E-03  1.000000E+00  0.000000E+00  1.000000E+00  0.000000E+00
  0.000406900  4.427220E-02 -3.217090E-03  1.012090E-02  3.950130E-03  1.000000E+00  0.000000E+00  1.000000E+00  0.000000E+00
  0.000409375  4.539290E-02 -2.814300E-03  9.008630E-03  4.077170E-03  1.000000E+00  0.000000E+00  1.000000E+00  0.000000E+00
  0.000411850  4.413950E-02 -4.485890E-03  3.974530E-03  8.552040E-04  1.000000E+00  0.000000E+00  1.000000E+00  0.000000E+00
  0.000414325  4.585210E-02 -2.426650E-03  6.080950E-03  2.790350E-03  1.000000E+00  0.000000E+00  1.000000E+00  0.000000E+00
  0.000416800  4.510300E-02 -3.915300E-03  7.935990E-03  7.994890E-04  1.000000E+00  0.000000E+00  1.000000E+00  0.000000E+00
  0.000419275  4.589880E-02 -2.093740E-03  8.604210E-03  2.769650E-04  1.000000E+00  0.000000E+00  1.000000E+00  0.000000E+00
  0.000421750  4.685220E-02 -3.303030E-03  3.565950E-03 -8.829990E-05  1.000000E+00  0.000000E+00  1.000000E+00  0.000000E+00
  0.000424225  4.634390E-02 -2.475400E-03  5.654610E-03 -1.118750E-03  1.000000E+00  0.000000E+00  1.000000E+00  0.000000E+00
  0.000426700  4.490750E-02 -3.130340E-03  8.295360E-03 -2.290550E-03  1.000000E+00  0.000000E+00  1.000000E+00  0.000000E+00
  0.000429175  4.522220E-02 -3.152180E-03  8.805180E-03 -7.962580E-04  1.000000E+00  0.000000E+00  1.000000E+00  0.000000E+00
  0.000431650  4.596150E-02 -3.285960E-03  6.449300E-03 -2.271160E-03  1.000000E+00  0.000000E+00  1.000000E+00  0.000000E+00
  0.000434125  4.660480E-02 -3.636760E-03  4.244120E-03 -2.459000E-03  1.000000E+00  0.000000E+00  1.000000E+00  0.000000E+00
  0.000436600  4.517720E-02 -2.069800E-03  7.101730E-03 -3.478110E-03  1.000000E+00  0.000000E+00  1.000000E+00  0.000000E+00
  0.000439075  4.726830E-02 -4.191540E-03  7.027800E-03 -5.859470E-03  1.000000E+00  0.000000E+00  1.000000E+00  0.000000E+00
  0.000441550  4.683930E-02 -4.513730E-03  4.453090E-03 -5.124440E-03  1.000000E+00  0.000000E+00  1.000000E+00  0.000000E+00
  0.000444025  4.527910E-02 -3.556910E-03  3.379490E-03 -1.752380E-03  1.000000E+00  0.000000E+00  1.000000E+00  0.000000E+00
  0.000446500  4.647760E-02 -4.606960E-03  3.645820E-03 -4.389990E-03  1.000000E+00  0.000000E+00  1.000000E+00  0.000000E+00
  0.000448975  4.728870E-02 -2.192990E-03  4.977180E-03 -6.512750E-03  1.000000E+00  0.000000E+00  1.000000E+00  0.000000E+00
  0.000451450  4.564710E-02 -3.313040E-03  3.153200E-03 -4.972040E-03  1.000000E+00  0.000000E+00  1.000000E+00  0.000000E+00
  0.000453925  4.618720E-02 -4.676530E-03  2.934900E-03 -2.025060E-03  1.000000E+00  0.000000E+00  1.000000E+00  0.000000E+00
