! Anritsu VNA Master:                        Model: MS2026C/19
! SN:                                  1815009
! /card0/usr/20180902_8.s2p
! Existing Calibration Information:
! TYPE:                         Current Settings,       Active Cal Settings
! TIME:             	   09/02/2018 12:39:47 PM,    09/02/2018 11:58:48 AM
! INTERNAL TEMP:    	                   53.0 C,                    48.8 C
! # POINTS:         	                     4001,                      4001
! START FREQ:       	              100.000 kHz,               100.000 kHz
! STOP FREQ:        	               10.000 MHz,                10.000 MHz
! SOURCE POWER:     	                      Low,                       Low
! IFBW:             	                   500 Hz,                    500 Hz
! AVG FACTOR:       	                       5 ,                        1 
! REF PLANE 1:      	                     0 mm,                      0 mm
! REF PLANE 2:      	                     0 mm,                      0 mm
! CAL TYPE:         	             1P2P S11,S21,              1P2P S11,S21
! CAL METHOD:       	                     SOLT,                      SOLT
! CAL LINE TYPE:    	                     Coax,                      Coax
! DUT PORT 1:       	                N-Conn(M),                 N-Conn(M)
! DUT PORT 2:       	                N-Conn(M),                 N-Conn(M)
! CAL STATUS:       	        OK: Accuracy High,                        --
# GHZ S RI R 50.0
! FREQ.GHZ      S11RE         S11IM         S21RE         S21IM         S12RE         S12IM         S22RE         S22IM
  0.000100000  4.131660E-03 -5.963030E-02  1.052510E-01  2.694250E-01  1.000000E+00  0.000000E+00  1.000000E+00  0.000000E+00
  0.000102475  6.186210E-03 -5.644720E-02  1.140700E-01  2.666710E-01  1.000000E+00  0.000000E+00  1.000000E+00  0.000000E+00
  0.000104950  6.571220E-03 -5.448890E-02  1.232130E-01  2.634840E-01  1.000000E+00  0.000000E+00  1.000000E+00  0.000000E+00
  0.000107425  8.755280E-03 -5.251680E-02  1.322090E-01  2.605870E-01  1.000000E+00  0.000000E+00  1.000000E+00  0.000000E+00
  0.000109900  9.973250E-03 -5.025410E-02  1.403010E-01  2.575080E-01  1.000000E+00  0.000000E+00  1.000000E+00  0.000000E+00
  0.000112375  1.092710E-02 -4.868320E-02  1.475790E-01  2.527530E-01  1.000000E+00  0.000000E+00  1.000000E+00  0.000000E+00
  0.000114850  1.152180E-02 -4.687940E-02  1.548790E-01  2.490680E-01  1.000000E+00  0.000000E+00  1.000000E+00  0.000000E+00
  0.000117325  1.332470E-02 -4.536900E-02  1.621790E-01  2.447550E-01  1.000000E+00  0.000000E+00  1.000000E+00  0.000000E+00
  0.000119800  1.481640E-02 -4.299120E-02  1.682630E-01  2.402240E-01  1.000000E+00  0.000000E+00  1.000000E+00  0.000000E+00
  0.000122275  1.476410E-02 -4.106570E-02  1.748420E-01  2.367060E-01  1.000000E+00  0.000000E+00  1.000000E+00  0.000000E+00
  0.000124750  1.624710E-02 -4.059110E-02  1.811520E-01  2.330770E-01  1.000000E+00  0.000000E+00  1.000000E+00  0.000000E+00
  0.000127225  1.672000E-02 -3.902440E-02  1.864550E-01  2.288900E-01  1.000000E+00  0.000000E+00  1.000000E+00  0.000000E+00
  0.000129700  1.810010E-02 -3.627860E-02  1.930050E-01  2.239940E-01  1.000000E+00  0.000000E+00  1.000000E+00  0.000000E+00
  0.000132175  1.884520E-02 -3.699540E-02  1.984950E-01  2.207710E-01  1.000000E+00  0.000000E+00  1.000000E+00  0.000000E+00
  0.000134650  1.872320E-02 -3.657380E-02  2.029100E-01  2.162310E-01  1.000000E+00  0.000000E+00  1.000000E+00  0.000000E+00
  0.000137125  1.976960E-02 -3.501210E-02  2.078120E-01  2.120720E-01  1.000000E+00  0.000000E+00  1.000000E+00  0.000000E+00
  0.000139600  2.155000E-02 -3.393070E-02  2.129470E-01  2.077680E-01  1.000000E+00  0.000000E+00  1.000000E+00  0.000000E+00
  0.000142075  2.200910E-02 -3.221920E-02  2.175060E-01  2.037620E-01  1.000000E+00  0.000000E+00  1.000000E+00  0.000000E+00
  0.000144550  2.260580E-02 -3.149460E-02  2.200960E-01  1.993800E-01  1.000000E+00  0.000000E+00  1.000000E+00  0.000000E+00
  0.000147025  2.301880E-02 -3.011230E-02  2.237160E-01  1.950630E-01  1.000000E+00  0.000000E+00  1.000000E+00  0.000000E+00
  0.000149500  2.454180E-02 -2.998160E-02  2.272940E-01  1.920740E-01  1.000000E+00  0.000000E+00  1.000000E+00  0.000000E+00
  0.000151975  2.424960E-02 -2.953590E-02  2.312810E-01  1.874100E-01  1.000000E+00  0.000000E+00  1.000000E+00  0.000000E+00
  0.000154450  2.517300E-02 -2.741720E-02  2.340800E-01  1.828540E-01  1.000000E+00  0.000000E+00  1.000000E+00  0.000000E+00
  0.000156925  2.584540E-02 -2.665450E-02  2.365880E-01  1.797730E-01  1.000000E+00  0.000000E+00  1.000000E+00  0.000000E+00
  0.000159400  2.553930E-02 -2.661050E-02  2.404870E-01  1.760630E-01  1.000000E+00  0.000000E+00  1.000000E+00  0.000000E+00
  0.000161875  2.696090E-02 -2.631180E-02  2.434900E-01  1.724050E-01  1.000000E+00  0.000000E+00  1.000000E+00  0.000000E+00
  0.000164350  2.779730E-02 -2.625480E-02  2.457340E-01  1.682980E-01  1.000000E+00  0.000000E+00  1.000000E+00  0.000000E+00
  0.000166825  2.748810E-02 -2.498910E-02  2.476090E-01  1.647420E-01  1.000000E+00  0.000000E+00  1.000000E+00  0.000000E+00
  0.000169300  2.887690E-02 -2.505980E-02  2.513000E-01  1.607580E-01  1.000000E+00  0.000000E+00  1.000000E+00  0.000000E+00
  0.000171775  2.846880E-02 -2.363380E-02  2.530020E-01  1.576010E-01  1.000000E+00  0.000000E+00  1.000000E+00  0.000000E+00
  0.000174250  2.904590E-02 -2.265550E-02  2.550470E-01  1.539190E-01  1.000000E+00  0.000000E+00  1.000000E+00  0.000000E+00
  0.000176725  2.962290E-02 -2.319650E-02  2.572720E-01  1.501520E-01  1.000000E+00  0.000000E+00  1.000000E+00  0.000000E+00
  0.000179200  2.965950E-02 -2.210080E-02  2.591870E-01  1.462260E-01  1.000000E+00  0.000000E+00  1.000000E+00  0.000000E+00
  0.000181675  2.985860E-02 -2.264030E-02  2.610560E-01  1.430540E-01  1.000000E+00  0.000000E+00  1.000000E+00  0.000000E+00
  0.000184150  3.133030E-02 -2.105610E-02  2.634740E-01  1.395170E-01  1.000000E+00  0.000000E+00  1.000000E+00  0.000000E+00
  0.000186625  3.144110E-02 -2.061750E-02  2.646000E-01  1.362080E-01  1.000000E+00  0.000000E+00  1.000000E+00  0.000000E+00
  0.000189100  3.060690E-02 -2.035290E-02  2.661910E-01  1.327410E-01  1.000000E+00  0.000000E+00  1.000000E+00  0.000000E+00
  0.000191575  3.087450E-02 -2.131310E-02  2.681600E-01  1.299570E-01  1.000000E+00  0.000000E+00  1.000000E+00  0.000000E+00
  0.000194050  3.150290E-02 -1.986040E-02  2.694860E-01  1.267780E-01  1.000000E+00  0.000000E+00  1.000000E+00  0.000000E+00
  0.000196525  3.269950E-02 -1.906560E-02  2.710570E-01  1.229210E-01  1.000000E+00  0.000000E+00  1.000000E+00  0.000000E+00
  0.000199000  3.246230E-02 -1.892590E-02  2.719480E-01  1.205450E-01  1.000000E+00  0.000000E+00  1.000000E+00  0.000000E+00
  0.000201475  3.269360E-02 -1.814110E-02  2.731430E-01  1.178010E-01  1.000000E+00  0.000000E+00  1.000000E+00  0.000000E+00
  0.000203950  3.295690E-02 -1.840180E-02  2.751520E-01  1.144810E-01  1.000000E+00  0.000000E+00  1.000000E+00  0.000000E+00
  0.000206425  3.408750E-02 -1.834270E-02  2.761580E-01  1.118400E-01  1.000000E+00  0.000000E+00  1.000000E+00  0.000000E+00
  0.000208900  3.299480E-02 -1.819760E-02  2.767210E-01  1.078340E-01  1.000000E+00  0.000000E+00  1.000000E+00  0.000000E+00
  0.000211375  3.450030E-02 -1.768890E-02  2.779910E-01  1.055800E-01  1.000000E+00  0.000000E+00  1.000000E+00  0.000000E+00
  0.000213850  3.349590E-02 -1.609270E-02  2.796390E-01  1.028400E-01  1.000000E+00  0.000000E+00  1.000000E+00  0.000000E+00
  0.000216325  3.396170E-02 -1.743360E-02  2.811700E-01  9.900370E-02  1.000000E+00  0.000000E+00  1.000000E+00  0.000000E+00
  0.000218800  3.438840E-02 -1.625060E-02  2.804230E-01  9.769340E-02  1.000000E+00  0.000000E+00  1.000000E+00  0.000000E+00
  0.000221275  3.525490E-02 -1.556040E-02  2.815910E-01  9.433560E-02  1.000000E+00  0.000000E+00  1.000000E+00  0.000000E+00
  0.000223750  3.466990E-02 -1.593750E-02  2.830670E-01  9.207470E-02  1.000000E+00  0.000000E+00  1.000000E+00  0.000000E+00
  0.000226225  3.615990E-02 -1.445780E-02  2.832800E-01  8.933720E-02  1.000000E+00  0.000000E+00  1.000000E+00  0.000000E+00
  0.000228700  3.483500E-02 -1.594900E-02  2.839090E-01  8.601780E-02  1.000000E+00  0.000000E+00  1.000000E+00  0.000000E+00
  0.000231175  3.534010E-02 -1.511000E-02  2.836490E-01  8.346920E-02  1.000000E+00  0.000000E+00  1.000000E+00  0.000000E+00
  0.000233650  3.507380E-02 -1.491910E-02  2.854950E-01  8.143890E-02  1.000000E+00  0.000000E+00  1.000000E+00  0.000000E+00
  0.000236125  3.507420E-02 -1.368650E-02  2.857950E-01  7.855110E-02  1.000000E+00  0.000000E+00  1.000000E+00  0.000000E+00
  0.000238600  3.648700E-02 -1.372670E-02  2.867070E-01  7.711740E-02  1.000000E+00  0.000000E+00  1.000000E+00  0.000000E+00
  0.000241075  3.552720E-02 -1.423210E-02  2.871290E-01  7.400750E-02  1.000000E+00  0.000000E+00  1.000000E+00  0.000000E+00
  0.000243550  3.571220E-02 -1.375600E-02  2.871820E-01  7.096990E-02  1.000000E+00  0.000000E+00  1.000000E+00  0.000000E+00
  0.000246025  3.685350E-02 -1.338310E-02  2.879130E-01  6.834410E-02  1.000000E+00  0.000000E+00  1.000000E+00  0.000000E+00
  0.000248500  3.640920E-02 -1.309480E-02  2.890090E-01  6.634980E-02  1.000000E+00  0.000000E+00  1.000000E+00  0.000000E+00
  0.000250975  3.743510E-02 -1.318740E-02  2.892540E-01  6.314520E-02  1.000000E+00  0.000000E+00  1.000000E+00  0.000000E+00
  0.000253450  3.739280E-02 -1.165730E-02  2.897580E-01  6.246410E-02  1.000000E+00  0.000000E+00  1.000000E+00  0.000000E+00
  0.000255925  3.663440E-02 -1.162290E-02  2.896220E-01  5.963500E-02  1.000000E+00  0.000000E+00  1.000000E+00  0.000000E+00
  0.000258400  3.706520E-02 -1.139990E-02  2.896880E-01  5.617030E-02  1.000000E+00  0.000000E+00  1.000000E+00  0.000000E+00
  0.000260875  3.738230E-02 -1.125180E-02  2.898120E-01  5.434060E-02  1.000000E+00  0.000000E+00  1.000000E+00  0.000000E+00
  0.000263350  3.710510E-02 -1.080560E-02  2.897680E-01  5.225610E-02  1.000000E+00  0.000000E+00  1.000000E+00  0.000000E+00
  0.000265825  3.714750E-02 -1.158470E-02  2.909090E-01  4.945750E-02  1.000000E+00  0.000000E+00  1.000000E+00  0.000000E+00
  0.000268300  3.838760E-02 -1.120620E-02  2.914320E-01  4.776510E-02  1.000000E+00  0.000000E+00  1.000000E+00  0.000000E+00
  0.000270775  3.787700E-02 -1.102280E-02  2.909370E-01  4.598300E-02  1.000000E+00  0.000000E+00  1.000000E+00  0.000000E+00
  0.000273250  3.813560E-02 -1.048330E-02  2.905780E-01  4.341870E-02  1.000000E+00  0.000000E+00  1.000000E+00  0.000000E+00
  0.000275725  3.937450E-02 -9.761570E-03  2.917240E-01  4.165050E-02  1.000000E+00  0.000000E+00  1.000000E+00  0.000000E+00
  0.000278200  3.864430E-02 -9.529510E-03  2.912850E-01  3.945180E-02  1.000000E+00  0.000000E+00  1.000000E+00  0.000000E+00
  0.000280675  3.852090E-02 -9.729490E-03  2.908600E-01  3.666160E-02  1.000000E+00  0.000000E+00  1.000000E+00  0.000000E+00
  0.000283150  3.909430E-02 -9.976560E-03  2.916180E-01  3.507910E-02  1.000000E+00  0.000000E+00  1.000000E+00  0.000000E+00
  0.000285625  3.875220E-02 -1.018560E-02  2.909770E-01  3.288650E-02  1.000000E+00  0.000000E+00  1.000000E+00  0.000000E+00
  0.000288100  3.870260E-02 -8.867920E-03  2.913440E-01  3.065990E-02  1.000000E+00  0.000000E+00  1.000000E+00  0.000000E+00
  0.000290575  3.865060E-02 -8.232430E-03  2.918230E-01  2.941350E-02  1.000000E+00  0.000000E+00  1.000000E+00  0.000000E+00
  0.000293050  3.957110E-02 -9.165170E-03  2.912140E-01  2.617810E-02  1.000000E+00  0.000000E+00  1.000000E+00  0.000000E+00
  0.000295525  4.015830E-02 -7.121590E-03  2.913450E-01  2.488300E-02  1.000000E+00  0.000000E+00  1.000000E+00  0.000000E+00
  0.000298000  3.893570E-02 -8.940380E-03  2.919290E-01  2.315160E-02  1.000000E+00  0.000000E+00  1.000000E+00  0.000000E+00
  0.000300475  4.034610E-02 -8.666090E-03  2.916740E-01  2.129750E-02  1.000000E+00  0.000000E+00  1.000000E+00  0.000000E+00
  0.000302950  4.012680E-02 -7.073010E-03  2.913740E-01  1.875090E-02  1.000000E+00  0.000000E+00  1.000000E+00  0.000000E+00
  0.000305425  3.987570E-02 -7.319330E-03  2.911420E-01  1.714680E-02  1.000000E+00  0.000000E+00  1.000000E+00  0.000000E+00
  0.000307900  4.092730E-02 -7.489250E-03  2.913070E-01  1.510910E-02  1.000000E+00  0.000000E+00  1.000000E+00  0.000000E+00
  0.000310375  4.183880E-02 -8.206420E-03  2.912410E-01  1.441100E-02  1.000000E+00  0.000000E+00  1.000000E+00  0.000000E+00
  0.000312850  4.138500E-02 -6.972370E-03  2.907220E-01  1.211560E-02  1.000000E+00  0.000000E+00  1.000000E+00  0.000000E+00
  0.000315325  4.066890E-02 -7.818340E-03  2.901320E-01  9.614650E-03  1.000000E+00  0.000000E+00  1.000000E+00  0.000000E+00
  0.000317800  4.213240E-02 -6.013400E-03  2.911080E-01  8.280010E-03  1.000000E+00  0.000000E+00  1.000000E+00  0.000000E+00
  0.000320275  4.114170E-02 -5.834560E-03  2.907740E-01  6.885780E-03  1.000000E+00  0.000000E+00  1.000000E+00  0.000000E+00
  0.000322750  4.153110E-02 -6.224030E-03  2.895100E-01  4.952850E-03  1.000000E+00  0.000000E+00  1.000000E+00  0.000000E+00
  0.000325225  4.250720E-02 -6.280690E-03  2.899470E-01  4.303670E-03  1.000000E+00  0.000000E+00  1.000000E+00  0.000000E+00
  0.000327700  4.203820E-02 -6.140450E-03  2.889430E-01  2.011850E-03  1.000000E+00  0.000000E+00  1.000000E+00  0.000000E+00
  0.000330175  4.248310E-02 -5.999970E-03  2.897270E-01  4.090720E-04  1.000000E+00  0.000000E+00  1.000000E+00  0.000000E+00
  0.000332650  4.149290E-02 -5.829920E-03  2.894390E-01 -1.094120E-03  1.000000E+00  0.000000E+00  1.000000E+00  0.000000E+00
  0.000335125  4.268970E-02 -6.257560E-03  2.885870E-01 -1.685840E-03  1.000000E+00  0.000000E+00  1.000000E+00  0.000000E+00
  0.000337600  4.321470E-02 -6.315580E-03  2.891480E-01 -2.721540E-03  1.000000E+00  0.000000E+00  1.000000E+00  0.000000E+00
  0.000340075  4.322650E-02 -6.758960E-03  2.898140E-01 -5.657990E-03  1.000000E+00  0.000000E+00  1.000000E+00  0.000000E+00
  0.000342550  4.346320E-02 -5.571310E-03  2.893770E-01 -7.321640E-03  1.000000E+00  0.000000E+00  1.000000E+00  0.000000E+00
  0.000345025  4.321090E-02 -6.990580E-03  2.902290E-01 -8.267110E-03  1.000000E+00  0.000000E+00  1.000000E+00  0.000000E+00
  0.000347500  4.315640E-02 -6.915540E-03  2.886350E-01 -9.020060E-03  1.000000E+00  0.000000E+00  1.000000E+00  0.000000E+00
  0.000349975  4.379530E-02 -5.509090E-03  2.895200E-01 -1.168850E-02  1.000000E+00  0.000000E+00  1.000000E+00  0.000000E+00
  0.000352450  4.454930E-02 -5.654660E-03  2.904820E-01 -1.286290E-02  1.000000E+00  0.000000E+00  1.000000E+00  0.000000E+00
  0.000354925  4.446100E-02 -5.433030E-03  2.904590E-01 -1.435930E-02  1.000000E+00  0.000000E+00  1.000000E+00  0.000000E+00
  0.000357400  4.361900E-02 -6.142650E-03  2.890100E-01 -1.630310E-02  1.000000E+00  0.000000E+00  1.000000E+00  0.000000E+00
  0.000359875  4.463280E-02 -6.398990E-03  2.892680E-01 -1.854390E-02  1.000000E+00  0.000000E+00  1.000000E+00  0.000000E+00
  0.000362350  4.445740E-02 -6.452960E-03  2.879930E-01 -2.033700E-02  1.000000E+00  0.000000E+00  1.000000E+00  0.000000E+00
  0.000364825  4.530690E-02 -5.188670E-03  2.885730E-01 -2.078980E-02  1.000000E+00  0.000000E+00  1.000000E+00  0.000000E+00
  0.000367300  4.545360E-02 -6.405720E-03  2.890270E-01 -2.181590E-02  1.000000E+00  0.000000E+00  1.000000E+00  0.000000E+00
  0.000369775  4.472530E-02 -5.043200E-03  2.876950E-01 -2.383520E-02  1.000000E+00  0.000000E+00  1.000000E+00  0.000000E+00
  0.000372250  4.518820E-02 -6.648780E-03  2.872390E-01 -2.562690E-02  1.000000E+00  0.000000E+00  1.000000E+00  0.000000E+00
  0.000374725  4.504460E-02 -5.659210E-03  2.871420E-01 -2.651060E-02  1.000000E+00  0.000000E+00  1.000000E+00  0.000000E+00
  0.000377200  4.478700E-02 -6.297110E-03  2.874890E-01 -2.793610E-02  1.000000E+00  0.000000E+00  1.000000E+00  0.000000E+00
  0.000379675  4.592230E-02 -6.473940E-03  2.864840E-01 -2.939510E-02  1.000000E+00  0.000000E+00  1.000000E+00  0.000000E+00
  0.000382150  4.533940E-02 -6.765480E-03  2.864230E-01 -3.071390E-02  1.000000E+00  0.000000E+00  1.000000E+00  0.000000E+00
  0.000384625  4.650050E-02 -6.479450E-03  2.865120E-01 -3.179100E-02  1.000000E+00  0.000000E+00  1.000000E+00  0.000000E+00
  0.000387100  4.481040E-02 -6.171530E-03  2.867500E-01 -3.354850E-02  1.000000E+00  0.000000E+00  1.000000E+00  0.000000E+00
  0.000389575  4.631240E-02 -6.348140E-03  2.871500E-01 -3.478590E-02  1.000000E+00  0.000000E+00  1.000000E+00  0.000000E+00
  0.000392050  4.588510E-02 -5.752350E-03  2.862710E-01 -3.624220E-02  1.000000E+00  0.000000E+00  1.000000E+00  0.000000E+00
  0.000394525  4.607130E-02 -6.147170E-03  2.858260E-01 -3.746010E-02  1.000000E+00  0.000000E+00  1.000000E+00  0.000000E+00
  0.000397000  4.582710E-02 -6.586100E-03  2.857670E-01 -3.876330E-02  1.000000E+00  0.000000E+00  1.000000E+00  0.000000E+00
  0.000399475  4.671850E-02 -6.495460E-03  2.858400E-01 -4.043280E-02  1.000000E+00  0.000000E+00  1.000000E+00  0.000000E+00
  0.000401950  4.633880E-02 -7.224080E-03  2.856650E-01 -4.184680E-02  1.000000E+00  0.000000E+00  1.000000E+00  0.000000E+00
  0.000404425  4.716840E-02 -5.909410E-03  2.848630E-01 -4.402810E-02  1.000000E+00  0.000000E+00  1.000000E+00  0.000000E+00
  0.000406900  4.661820E-02 -7.127520E-03  2.834110E-01 -4.475590E-02  1.000000E+00  0.000000E+00  1.000000E+00  0.000000E+00
  0.000409375  4.643080E-02 -6.923420E-03  2.834610E-01 -4.695520E-02  1.000000E+00  0.000000E+00  1.000000E+00  0.000000E+00
  0.000411850  4.662250E-02 -7.736620E-03  2.830410E-01 -4.821350E-02  1.000000E+00  0.000000E+00  1.000000E+00  0.000000E+00
  0.000414325  4.694210E-02 -6.279550E-03  2.830920E-01 -5.023120E-02  1.000000E+00  0.000000E+00  1.000000E+00  0.000000E+00
  0.000416800  4.676890E-02 -6.483710E-03  2.821610E-01 -5.087460E-02  1.000000E+00  0.000000E+00  1.000000E+00  0.000000E+00
  0.000419275  4.615420E-02 -6.786550E-03  2.805870E-01 -5.307730E-02  1.000000E+00  0.000000E+00  1.000000E+00  0.000000E+00
  0.000421750  4.765080E-02 -6.909950E-03  2.807460E-01 -5.372100E-02  1.000000E+00  0.000000E+00  1.000000E+00  0.000000E+00
  0.000424225  4.680910E-02 -5.978470E-03  2.792520E-01 -5.600180E-02  1.000000E+00  0.000000E+00  1.000000E+00  0.000000E+00
  0.000426700  4.696070E-02 -7.440460E-03  2.796420E-01 -5.691900E-02  1.000000E+00  0.000000E+00  1.000000E+00  0.000000E+00
  0.000429175  4.624080E-02 -7.521850E-03  2.790960E-01 -5.764240E-02  1.000000E+00  0.000000E+00  1.000000E+00  0.000000E+00
  0.000431650  4.667830E-02 -6.602820E-03  2.769790E-01 -5.820840E-02  1.000000E+00  0.000000E+00  1.000000E+00  0.000000E+00
  0.000434125  4.708430E-02 -7.207870E-03  2.772050E-01 -6.039650E-02  1.000000E+00  0.000000E+00  1.000000E+00  0.000000E+00
  0.000436600  4.616880E-02 -6.813060E-03  2.759600E-01 -6.056630E-02  1.000000E+00  0.000000E+00  1.000000E+00  0.000000E+00
  0.000439075  4.696730E-02 -7.099620E-03  2.746750E-01 -6.179540E-02  1.000000E+00  0.000000E+00  1.000000E+00  0.000000E+00
  0.000441550  4.718610E-02 -6.633960E-03  2.755770E-01 -6.277340E-02  1.000000E+00  0.000000E+00  1.000000E+00  0.000000E+00
  0.000444025  4.592270E-02 -6.722820E-03  2.750150E-01 -6.394670E-02  1.000000E+00  0.000000E+00  1.000000E+00  0.000000E+00
  0.000446500  4.756640E-02 -6.956000E-03  2.736980E-01 -6.459210E-02  1.000000E+00  0.000000E+00  1.000000E+00  0.000000E+00
  0.000448975  4.692390E-02 -6.456830E-03  2.735410E-01 -6.422400E-02  1.000000E+00  0.000000E+00  1.000000E+00  0.000000E+00
  0.000451450  4.699890E-02 -6.879170E-03  2.737000E-01 -6.474570E-02  1.000000E+00  0.000000E+00  1.000000E+00  0.000000E+00
  0.000453925  4.662680E-02 -6.899340E-03  2.722810E-01 -6.512820E-02  1.000000E+00  0.000000E+00  1.000000E+00  0.000000E+00
