! Anritsu VNA Master:                        Model: MS2026C/19
! SN:                                  1815009
! /card0/usr/20180902_41.s2p
! Existing Calibration Information:
! TYPE:                         Current Settings,       Active Cal Settings
! TIME:             	   09/03/2018 12:00:23 AM,    09/02/2018 11:58:48 AM
! INTERNAL TEMP:    	                   46.0 C,                    48.8 C
! # POINTS:         	                     4001,                      4001
! START FREQ:       	              100.000 kHz,               100.000 kHz
! STOP FREQ:        	               10.000 MHz,                10.000 MHz
! SOURCE POWER:     	                      Low,                       Low
! IFBW:             	                   500 Hz,                    500 Hz
! AVG FACTOR:       	                       1 ,                        1 
! REF PLANE 1:      	                     0 mm,                      0 mm
! REF PLANE 2:      	                     0 mm,                      0 mm
! CAL TYPE:         	             1P2P S11,S21,              1P2P S11,S21
! CAL METHOD:       	                     SOLT,                      SOLT
! CAL LINE TYPE:    	                     Coax,                      Coax
! DUT PORT 1:       	                N-Conn(M),                 N-Conn(M)
! DUT PORT 2:       	                N-Conn(M),                 N-Conn(M)
! CAL STATUS:       	        OK: Accuracy High,                        --
# GHZ S RI R 50.0
! FREQ.GHZ      S11RE         S11IM         S21RE         S21IM         S12RE         S12IM         S22RE         S22IM
  0.000100000  6.652290E-03 -6.209270E-02  7.573440E-04 -6.989790E-04  1.000000E+00  0.000000E+00  1.000000E+00  0.000000E+00
  0.000102475  8.958150E-03 -5.895700E-02 -5.815430E-04 -5.369390E-04  1.000000E+00  0.000000E+00  1.000000E+00  0.000000E+00
  0.000104950  8.791000E-03 -5.600310E-02  7.627250E-04  9.821910E-05  1.000000E+00  0.000000E+00  1.000000E+00  0.000000E+00
  0.000107425  1.114400E-02 -5.513520E-02 -6.620100E-04 -5.945420E-04  1.000000E+00  0.000000E+00  1.000000E+00  0.000000E+00
  0.000109900  1.207060E-02 -5.284530E-02  3.530360E-04  5.090030E-04  1.000000E+00  0.000000E+00  1.000000E+00  0.000000E+00
  0.000112375  1.253160E-02 -5.199270E-02  5.899100E-04  1.884750E-04  1.000000E+00  0.000000E+00  1.000000E+00  0.000000E+00
  0.000114850  1.271210E-02 -4.996170E-02 -1.529700E-04  4.942960E-05  1.000000E+00  0.000000E+00  1.000000E+00  0.000000E+00
  0.000117325  1.581940E-02 -4.863490E-02  3.719980E-04 -7.066300E-05  1.000000E+00  0.000000E+00  1.000000E+00  0.000000E+00
  0.000119800  1.539840E-02 -4.639170E-02 -9.627580E-05 -9.211090E-04  1.000000E+00  0.000000E+00  1.000000E+00  0.000000E+00
  0.000122275  1.592650E-02 -4.505190E-02 -1.384340E-04  4.760420E-04  1.000000E+00  0.000000E+00  1.000000E+00  0.000000E+00
  0.000124750  1.657620E-02 -4.337840E-02  3.074490E-04  5.564980E-04  1.000000E+00  0.000000E+00  1.000000E+00  0.000000E+00
  0.000127225  1.746710E-02 -4.323250E-02 -2.575160E-04 -1.421620E-04  1.000000E+00  0.000000E+00  1.000000E+00  0.000000E+00
  0.000129700  1.810320E-02 -3.980220E-02 -2.350370E-04  5.369460E-04  1.000000E+00  0.000000E+00  1.000000E+00  0.000000E+00
  0.000132175  1.884330E-02 -4.029560E-02 -7.993660E-04  1.736900E-04  1.000000E+00  0.000000E+00  1.000000E+00  0.000000E+00
  0.000134650  1.972330E-02 -4.050500E-02  7.581240E-04  3.887610E-04  1.000000E+00  0.000000E+00  1.000000E+00  0.000000E+00
  0.000137125  1.992040E-02 -3.813740E-02 -3.065050E-04 -2.597880E-04  1.000000E+00  0.000000E+00  1.000000E+00  0.000000E+00
  0.000139600  2.117580E-02 -3.790660E-02 -9.123580E-05  3.159970E-04  1.000000E+00  0.000000E+00  1.000000E+00  0.000000E+00
  0.000142075  2.128490E-02 -3.824530E-02 -1.115310E-04  8.745410E-04  1.000000E+00  0.000000E+00  1.000000E+00  0.000000E+00
  0.000144550  2.239650E-02 -3.667200E-02 -1.597800E-04  1.146980E-04  1.000000E+00  0.000000E+00  1.000000E+00  0.000000E+00
  0.000147025  2.246780E-02 -3.553410E-02 -2.680570E-04 -2.419160E-05  1.000000E+00  0.000000E+00  1.000000E+00  0.000000E+00
  0.000149500  2.332970E-02 -3.449820E-02  3.053220E-04 -1.897050E-04  1.000000E+00  0.000000E+00  1.000000E+00  0.000000E+00
  0.000151975  2.312000E-02 -3.323560E-02 -3.487270E-04  2.698360E-04  1.000000E+00  0.000000E+00  1.000000E+00  0.000000E+00
  0.000154450  2.405520E-02 -3.114240E-02  1.638120E-04  9.300050E-06  1.000000E+00  0.000000E+00  1.000000E+00  0.000000E+00
  0.000156925  2.590440E-02 -2.991150E-02 -2.121820E-04  4.273390E-04  1.000000E+00  0.000000E+00  1.000000E+00  0.000000E+00
  0.000159400  2.376260E-02 -3.050910E-02  6.921450E-04 -3.729060E-04  1.000000E+00  0.000000E+00  1.000000E+00  0.000000E+00
  0.000161875  2.493280E-02 -3.126710E-02  3.111460E-04  2.629590E-05  1.000000E+00  0.000000E+00  1.000000E+00  0.000000E+00
  0.000164350  2.543090E-02 -3.011520E-02  1.616300E-04  4.634860E-04  1.000000E+00  0.000000E+00  1.000000E+00  0.000000E+00
  0.000166825  2.519670E-02 -2.918490E-02  1.618090E-04  6.588260E-04  1.000000E+00  0.000000E+00  1.000000E+00  0.000000E+00
  0.000169300  2.702860E-02 -2.827710E-02 -4.603450E-04 -7.533570E-04  1.000000E+00  0.000000E+00  1.000000E+00  0.000000E+00
  0.000171775  2.537980E-02 -2.728600E-02 -3.160920E-04  1.163950E-03  1.000000E+00  0.000000E+00  1.000000E+00  0.000000E+00
  0.000174250  2.597010E-02 -2.553530E-02 -4.338640E-06 -7.405970E-04  1.000000E+00  0.000000E+00  1.000000E+00  0.000000E+00
  0.000176725  2.806020E-02 -2.624940E-02  8.446400E-05 -1.304640E-03  1.000000E+00  0.000000E+00  1.000000E+00  0.000000E+00
  0.000179200  2.697270E-02 -2.546760E-02 -6.786800E-04  4.005360E-04  1.000000E+00  0.000000E+00  1.000000E+00  0.000000E+00
  0.000181675  2.749670E-02 -2.565980E-02  7.997410E-04  1.536880E-03  1.000000E+00  0.000000E+00  1.000000E+00  0.000000E+00
  0.000184150  2.847070E-02 -2.597600E-02  2.340890E-04  6.627490E-04  1.000000E+00  0.000000E+00  1.000000E+00  0.000000E+00
  0.000186625  2.884360E-02 -2.347540E-02 -5.038200E-04 -1.252140E-03  1.000000E+00  0.000000E+00  1.000000E+00  0.000000E+00
  0.000189100  2.810200E-02 -2.340670E-02 -8.804210E-04 -1.237690E-04  1.000000E+00  0.000000E+00  1.000000E+00  0.000000E+00
  0.000191575  2.841770E-02 -2.295410E-02  4.993050E-06  6.886110E-05  1.000000E+00  0.000000E+00  1.000000E+00  0.000000E+00
  0.000194050  2.715110E-02 -2.249690E-02  3.285070E-05  3.438690E-05  1.000000E+00  0.000000E+00  1.000000E+00  0.000000E+00
  0.000196525  2.865390E-02 -2.294400E-02 -5.330800E-04  4.433510E-04  1.000000E+00  0.000000E+00  1.000000E+00  0.000000E+00
  0.000199000  2.998610E-02 -2.220620E-02 -8.872940E-05 -4.271280E-04  1.000000E+00  0.000000E+00  1.000000E+00  0.000000E+00
  0.000201475  2.940910E-02 -2.095580E-02 -6.503070E-05  1.918100E-05  1.000000E+00  0.000000E+00  1.000000E+00  0.000000E+00
  0.000203950  3.013590E-02 -2.066500E-02 -7.014840E-05  7.844890E-05  1.000000E+00  0.000000E+00  1.000000E+00  0.000000E+00
  0.000206425  2.973950E-02 -2.020690E-02  4.745030E-04  2.873800E-04  1.000000E+00  0.000000E+00  1.000000E+00  0.000000E+00
  0.000208900  2.948680E-02 -2.122980E-02  1.475020E-04 -8.654290E-04  1.000000E+00  0.000000E+00  1.000000E+00  0.000000E+00
  0.000211375  3.130860E-02 -2.043630E-02  1.513320E-04 -1.078330E-04  1.000000E+00  0.000000E+00  1.000000E+00  0.000000E+00
  0.000213850  2.964560E-02 -2.002130E-02 -6.923910E-04 -7.251320E-04  1.000000E+00  0.000000E+00  1.000000E+00  0.000000E+00
  0.000216325  2.998020E-02 -1.859170E-02  5.802420E-04  2.775270E-04  1.000000E+00  0.000000E+00  1.000000E+00  0.000000E+00
  0.000218800  3.075210E-02 -1.855050E-02 -8.599120E-05  6.738070E-04  1.000000E+00  0.000000E+00  1.000000E+00  0.000000E+00
  0.000221275  3.218080E-02 -1.728950E-02 -5.187680E-04  6.760300E-04  1.000000E+00  0.000000E+00  1.000000E+00  0.000000E+00
  0.000223750  3.157490E-02 -1.873720E-02  7.026510E-05  1.149470E-05  1.000000E+00  0.000000E+00  1.000000E+00  0.000000E+00
  0.000226225  3.217320E-02 -1.776230E-02 -7.981300E-04  7.991080E-05  1.000000E+00  0.000000E+00  1.000000E+00  0.000000E+00
  0.000228700  3.304910E-02 -1.796870E-02  8.155360E-04 -2.989090E-04  1.000000E+00  0.000000E+00  1.000000E+00  0.000000E+00
  0.000231175  3.099580E-02 -1.775570E-02  8.574920E-04  8.389350E-04  1.000000E+00  0.000000E+00  1.000000E+00  0.000000E+00
  0.000233650  3.251490E-02 -1.726170E-02 -5.613600E-04 -1.035190E-03  1.000000E+00  0.000000E+00  1.000000E+00  0.000000E+00
  0.000236125  3.251690E-02 -1.569860E-02  1.670290E-06 -2.236460E-05  1.000000E+00  0.000000E+00  1.000000E+00  0.000000E+00
  0.000238600  3.343430E-02 -1.648620E-02 -3.715080E-04 -8.281290E-04  1.000000E+00  0.000000E+00  1.000000E+00  0.000000E+00
  0.000241075  3.325110E-02 -1.619630E-02 -5.514600E-05  6.111680E-04  1.000000E+00  0.000000E+00  1.000000E+00  0.000000E+00
  0.000243550  3.179560E-02 -1.592370E-02  6.586460E-04 -8.611000E-04  1.000000E+00  0.000000E+00  1.000000E+00  0.000000E+00
  0.000246025  3.281670E-02 -1.603950E-02  2.483630E-04 -3.337320E-04  1.000000E+00  0.000000E+00  1.000000E+00  0.000000E+00
  0.000248500  3.417740E-02 -1.418450E-02  2.405860E-04  8.559740E-05  1.000000E+00  0.000000E+00  1.000000E+00  0.000000E+00
  0.000250975  3.366400E-02 -1.528840E-02  4.388770E-04 -2.025420E-04  1.000000E+00  0.000000E+00  1.000000E+00  0.000000E+00
  0.000253450  3.412390E-02 -1.410460E-02 -3.264580E-04 -8.849750E-04  1.000000E+00  0.000000E+00  1.000000E+00  0.000000E+00
  0.000255925  3.216580E-02 -1.400260E-02  6.433950E-04  3.158470E-04  1.000000E+00  0.000000E+00  1.000000E+00  0.000000E+00
  0.000258400  3.452610E-02 -1.382440E-02 -2.427350E-04 -8.965730E-04  1.000000E+00  0.000000E+00  1.000000E+00  0.000000E+00
  0.000260875  3.442480E-02 -1.390590E-02 -7.570030E-04 -1.023560E-05  1.000000E+00  0.000000E+00  1.000000E+00  0.000000E+00
  0.000263350  3.384930E-02 -1.341450E-02 -4.832540E-04  5.263200E-04  1.000000E+00  0.000000E+00  1.000000E+00  0.000000E+00
  0.000265825  3.386620E-02 -1.427320E-02 -2.052920E-04  5.176130E-04  1.000000E+00  0.000000E+00  1.000000E+00  0.000000E+00
  0.000268300  3.352180E-02 -1.247700E-02  1.384710E-04  4.037500E-04  1.000000E+00  0.000000E+00  1.000000E+00  0.000000E+00
  0.000270775  3.489910E-02 -1.293110E-02 -8.179710E-04 -1.097000E-03  1.000000E+00  0.000000E+00  1.000000E+00  0.000000E+00
  0.000273250  3.453580E-02 -1.325740E-02  3.453760E-04 -9.825500E-07  1.000000E+00  0.000000E+00  1.000000E+00  0.000000E+00
  0.000275725  3.519150E-02 -1.359100E-02  6.406500E-04  1.054920E-04  1.000000E+00  0.000000E+00  1.000000E+00  0.000000E+00
  0.000278200  3.408820E-02 -1.149730E-02 -2.395740E-04 -2.005390E-04  1.000000E+00  0.000000E+00  1.000000E+00  0.000000E+00
  0.000280675  3.551480E-02 -1.248120E-02 -3.673590E-04 -8.517790E-05  1.000000E+00  0.000000E+00  1.000000E+00  0.000000E+00
  0.000283150  3.523740E-02 -1.281700E-02 -6.556700E-04  5.770310E-04  1.000000E+00  0.000000E+00  1.000000E+00  0.000000E+00
  0.000285625  3.545470E-02 -1.172630E-02 -2.174180E-04 -2.430500E-04  1.000000E+00  0.000000E+00  1.000000E+00  0.000000E+00
  0.000288100  3.386540E-02 -1.136910E-02 -7.137830E-04  1.887880E-03  1.000000E+00  0.000000E+00  1.000000E+00  0.000000E+00
  0.000290575  3.502980E-02 -1.071430E-02  2.703280E-04 -4.435860E-04  1.000000E+00  0.000000E+00  1.000000E+00  0.000000E+00
  0.000293050  3.597030E-02 -1.103620E-02 -2.109420E-04 -5.832220E-04  1.000000E+00  0.000000E+00  1.000000E+00  0.000000E+00
  0.000295525  3.513770E-02 -9.917940E-03 -4.667980E-04  7.285620E-04  1.000000E+00  0.000000E+00  1.000000E+00  0.000000E+00
  0.000298000  3.558090E-02 -1.135030E-02 -6.535140E-04  2.544530E-04  1.000000E+00  0.000000E+00  1.000000E+00  0.000000E+00
  0.000300475  3.692150E-02 -1.193420E-02  4.030650E-04  7.526150E-05  1.000000E+00  0.000000E+00  1.000000E+00  0.000000E+00
  0.000302950  3.617070E-02 -9.648120E-03 -8.437190E-05  8.897800E-04  1.000000E+00  0.000000E+00  1.000000E+00  0.000000E+00
  0.000305425  3.597580E-02 -9.176800E-03  2.687090E-04 -9.719070E-04  1.000000E+00  0.000000E+00  1.000000E+00  0.000000E+00
  0.000307900  3.710270E-02 -1.028140E-02 -4.953100E-04 -5.253980E-04  1.000000E+00  0.000000E+00  1.000000E+00  0.000000E+00
  0.000310375  3.762780E-02 -1.101100E-02 -4.285810E-05  1.689650E-04  1.000000E+00  0.000000E+00  1.000000E+00  0.000000E+00
  0.000312850  3.616740E-02 -1.090560E-02  5.917290E-04 -3.194460E-04  1.000000E+00  0.000000E+00  1.000000E+00  0.000000E+00
  0.000315325  3.639250E-02 -1.011430E-02 -2.654290E-04 -1.216870E-03  1.000000E+00  0.000000E+00  1.000000E+00  0.000000E+00
  0.000317800  3.585940E-02 -8.743320E-03  6.629730E-04 -7.820850E-04  1.000000E+00  0.000000E+00  1.000000E+00  0.000000E+00
  0.000320275  3.650950E-02 -8.875090E-03  2.825180E-04 -1.677910E-04  1.000000E+00  0.000000E+00  1.000000E+00  0.000000E+00
  0.000322750  3.593060E-02 -9.660260E-03  2.604550E-04 -4.652040E-05  1.000000E+00  0.000000E+00  1.000000E+00  0.000000E+00
  0.000325225  3.720180E-02 -9.485360E-03  1.000840E-04 -2.091360E-05  1.000000E+00  0.000000E+00  1.000000E+00  0.000000E+00
  0.000327700  3.638390E-02 -8.556520E-03  9.594440E-04 -5.940600E-04  1.000000E+00  0.000000E+00  1.000000E+00  0.000000E+00
  0.000330175  3.615720E-02 -9.665020E-03 -1.114570E-03  9.416200E-04  1.000000E+00  0.000000E+00  1.000000E+00  0.000000E+00
  0.000332650  3.743110E-02 -8.247680E-03  8.289220E-04 -5.229990E-04  1.000000E+00  0.000000E+00  1.000000E+00  0.000000E+00
  0.000335125  3.741960E-02 -7.956250E-03 -2.084120E-05 -4.674110E-04  1.000000E+00  0.000000E+00  1.000000E+00  0.000000E+00
  0.000337600  3.878870E-02 -8.727600E-03 -5.343940E-04  4.255570E-04  1.000000E+00  0.000000E+00  1.000000E+00  0.000000E+00
  0.000340075  3.765350E-02 -7.408760E-03 -1.724530E-03 -5.061480E-04  1.000000E+00  0.000000E+00  1.000000E+00  0.000000E+00
  0.000342550  3.724160E-02 -7.251060E-03  3.953210E-04  5.596790E-04  1.000000E+00  0.000000E+00  1.000000E+00  0.000000E+00
  0.000345025  3.730940E-02 -7.515370E-03 -2.270940E-04 -1.584970E-04  1.000000E+00  0.000000E+00  1.000000E+00  0.000000E+00
  0.000347500  3.978370E-02 -8.792460E-03 -1.234820E-03 -1.138650E-04  1.000000E+00  0.000000E+00  1.000000E+00  0.000000E+00
  0.000349975  3.703810E-02 -6.397890E-03 -5.013240E-04 -4.702060E-04  1.000000E+00  0.000000E+00  1.000000E+00  0.000000E+00
  0.000352450  3.893200E-02 -6.626700E-03 -6.199280E-04 -6.300310E-04  1.000000E+00  0.000000E+00  1.000000E+00  0.000000E+00
  0.000354925  3.751600E-02 -7.851550E-03  2.081540E-04  2.025770E-04  1.000000E+00  0.000000E+00  1.000000E+00  0.000000E+00
  0.000357400  3.843880E-02 -7.742290E-03 -9.658920E-05  4.538140E-04  1.000000E+00  0.000000E+00  1.000000E+00  0.000000E+00
  0.000359875  3.831730E-02 -5.755390E-03  2.235320E-04 -6.651780E-04  1.000000E+00  0.000000E+00  1.000000E+00  0.000000E+00
  0.000362350  3.877440E-02 -6.647750E-03 -3.511260E-05  8.241960E-05  1.000000E+00  0.000000E+00  1.000000E+00  0.000000E+00
  0.000364825  3.829590E-02 -6.256100E-03  1.356410E-03 -5.738510E-04  1.000000E+00  0.000000E+00  1.000000E+00  0.000000E+00
  0.000367300  3.913210E-02 -6.281720E-03 -3.669190E-04  4.755180E-04  1.000000E+00  0.000000E+00  1.000000E+00  0.000000E+00
  0.000369775  3.836510E-02 -6.747880E-03 -4.101170E-04 -6.116780E-04  1.000000E+00  0.000000E+00  1.000000E+00  0.000000E+00
  0.000372250  3.907970E-02 -6.757300E-03 -6.981670E-05  1.721340E-04  1.000000E+00  0.000000E+00  1.000000E+00  0.000000E+00
  0.000374725  3.875970E-02 -6.759140E-03  2.172020E-04 -3.993610E-04  1.000000E+00  0.000000E+00  1.000000E+00  0.000000E+00
  0.000377200  3.937800E-02 -6.192260E-03 -1.108300E-03  4.282060E-04  1.000000E+00  0.000000E+00  1.000000E+00  0.000000E+00
  0.000379675  3.943050E-02 -7.106450E-03  1.148710E-04 -2.920470E-04  1.000000E+00  0.000000E+00  1.000000E+00  0.000000E+00
  0.000382150  3.918630E-02 -5.571200E-03 -1.020870E-03 -5.206470E-05  1.000000E+00  0.000000E+00  1.000000E+00  0.000000E+00
  0.000384625  4.124490E-02 -6.498330E-03 -6.917980E-05  5.042640E-04  1.000000E+00  0.000000E+00  1.000000E+00  0.000000E+00
  0.000387100  3.880270E-02 -6.593270E-03  8.756450E-05  3.303180E-04  1.000000E+00  0.000000E+00  1.000000E+00  0.000000E+00
  0.000389575  3.873600E-02 -7.524300E-03  5.561200E-04 -2.942650E-04  1.000000E+00  0.000000E+00  1.000000E+00  0.000000E+00
  0.000392050  3.922980E-02 -5.437140E-03  1.606220E-04 -5.551150E-05  1.000000E+00  0.000000E+00  1.000000E+00  0.000000E+00
  0.000394525  3.974140E-02 -5.930650E-03 -2.603190E-04  3.117840E-04  1.000000E+00  0.000000E+00  1.000000E+00  0.000000E+00
  0.000397000  3.961240E-02 -5.214640E-03  4.311760E-05 -6.876550E-04  1.000000E+00  0.000000E+00  1.000000E+00  0.000000E+00
  0.000399475  4.107540E-02 -7.651620E-03 -4.664230E-04  7.184400E-04  1.000000E+00  0.000000E+00  1.000000E+00  0.000000E+00
  0.000401950  3.960570E-02 -5.814830E-03  8.244380E-04 -3.824560E-04  1.000000E+00  0.000000E+00  1.000000E+00  0.000000E+00
  0.000404425  4.115090E-02 -4.527740E-03  3.638910E-04 -7.209680E-04  1.000000E+00  0.000000E+00  1.000000E+00  0.000000E+00
  0.000406900  4.009130E-02 -6.249180E-03 -5.603400E-04 -1.104510E-04  1.000000E+00  0.000000E+00  1.000000E+00  0.000000E+00
  0.000409375  3.997230E-02 -6.296540E-03 -3.070330E-04  1.762070E-04  1.000000E+00  0.000000E+00  1.000000E+00  0.000000E+00
  0.000411850  4.047130E-02 -6.686060E-03 -4.403620E-04 -4.955130E-04  1.000000E+00  0.000000E+00  1.000000E+00  0.000000E+00
  0.000414325  4.106450E-02 -5.199500E-03 -1.164550E-03 -1.126020E-04  1.000000E+00  0.000000E+00  1.000000E+00  0.000000E+00
  0.000416800  3.992990E-02 -5.044630E-03 -2.775730E-04 -4.118370E-04  1.000000E+00  0.000000E+00  1.000000E+00  0.000000E+00
  0.000419275  4.031330E-02 -4.794950E-03  1.102530E-03  7.168320E-04  1.000000E+00  0.000000E+00  1.000000E+00  0.000000E+00
  0.000421750  4.124610E-02 -4.459330E-03  7.282300E-05 -6.633100E-04  1.000000E+00  0.000000E+00  1.000000E+00  0.000000E+00
  0.000424225  4.150350E-02 -4.928530E-03  3.115370E-05 -5.251700E-04  1.000000E+00  0.000000E+00  1.000000E+00  0.000000E+00
  0.000426700  4.086860E-02 -6.567140E-03  7.247010E-04  6.375700E-04  1.000000E+00  0.000000E+00  1.000000E+00  0.000000E+00
  0.000429175  3.967030E-02 -4.301030E-03  1.446740E-03  5.220750E-04  1.000000E+00  0.000000E+00  1.000000E+00  0.000000E+00
  0.000431650  4.188170E-02 -5.961020E-03 -1.255140E-03 -3.126660E-04  1.000000E+00  0.000000E+00  1.000000E+00  0.000000E+00
  0.000434125  4.104190E-02 -5.663960E-03  3.671240E-04 -8.625580E-04  1.000000E+00  0.000000E+00  1.000000E+00  0.000000E+00
  0.000436600  4.027230E-02 -7.145000E-03 -5.381080E-04 -4.761130E-05  1.000000E+00  0.000000E+00  1.000000E+00  0.000000E+00
  0.000439075  4.014930E-02 -6.846820E-03 -7.133130E-05  7.385340E-04  1.000000E+00  0.000000E+00  1.000000E+00  0.000000E+00
  0.000441550  4.079580E-02 -4.177420E-03 -5.119240E-04 -3.166170E-05  1.000000E+00  0.000000E+00  1.000000E+00  0.000000E+00
  0.000444025  4.187850E-02 -5.486120E-03 -5.535870E-04 -1.189640E-03  1.000000E+00  0.000000E+00  1.000000E+00  0.000000E+00
  0.000446500  4.167370E-02 -5.606580E-03 -1.583320E-05 -7.882240E-04  1.000000E+00  0.000000E+00  1.000000E+00  0.000000E+00
  0.000448975  4.285340E-02 -3.093250E-03 -4.167220E-05  1.080470E-03  1.000000E+00  0.000000E+00  1.000000E+00  0.000000E+00
  0.000451450  4.098910E-02 -4.837660E-03 -2.789490E-04 -6.153990E-04  1.000000E+00  0.000000E+00  1.000000E+00  0.000000E+00
  0.000453925  4.088710E-02 -5.509600E-03  9.464670E-04 -4.461560E-04  1.000000E+00  0.000000E+00  1.000000E+00  0.000000E+00
