! Anritsu VNA Master:                        Model: MS2026C/19
! SN:                                  1815009
! /card0/usr/20180902_23.s2p
! Existing Calibration Information:
! TYPE:                         Current Settings,       Active Cal Settings
! TIME:             	   09/02/2018 02:28:46 PM,    09/02/2018 11:58:48 AM
! INTERNAL TEMP:    	                   48.0 C,                    48.8 C
! # POINTS:         	                     4001,                      4001
! START FREQ:       	              100.000 kHz,               100.000 kHz
! STOP FREQ:        	               10.000 MHz,                10.000 MHz
! SOURCE POWER:     	                      Low,                       Low
! IFBW:             	                   500 Hz,                    500 Hz
! AVG FACTOR:       	                       1 ,                        1 
! REF PLANE 1:      	                     0 mm,                      0 mm
! REF PLANE 2:      	                     0 mm,                      0 mm
! CAL TYPE:         	             1P2P S11,S21,              1P2P S11,S21
! CAL METHOD:       	                     SOLT,                      SOLT
! CAL LINE TYPE:    	                     Coax,                      Coax
! DUT PORT 1:       	                N-Conn(M),                 N-Conn(M)
! DUT PORT 2:       	                N-Conn(M),                 N-Conn(M)
! CAL STATUS:       	        OK: Accuracy High,                        --
# GHZ S RI R 50.0
! FREQ.GHZ      S11RE         S11IM         S21RE         S21IM         S12RE         S12IM         S22RE         S22IM
  0.000100000  4.559260E-03 -6.512030E-02  1.423530E-03 -8.620210E-04  1.000000E+00  0.000000E+00  1.000000E+00  0.000000E+00
  0.000102475  7.130410E-03 -6.262360E-02  1.304220E-03 -1.364840E-03  1.000000E+00  0.000000E+00  1.000000E+00  0.000000E+00
  0.000104950  6.633250E-03 -6.033370E-02  1.152740E-03 -1.125700E-03  1.000000E+00  0.000000E+00  1.000000E+00  0.000000E+00
  0.000107425  8.902680E-03 -5.758960E-02  6.035280E-04 -1.568470E-03  1.000000E+00  0.000000E+00  1.000000E+00  0.000000E+00
  0.000109900  9.450460E-03 -5.520370E-02  1.789870E-04 -1.874040E-03  1.000000E+00  0.000000E+00  1.000000E+00  0.000000E+00
  0.000112375  1.063850E-02 -5.406000E-02 -4.955680E-04 -2.171960E-03  1.000000E+00  0.000000E+00  1.000000E+00  0.000000E+00
  0.000114850  1.129060E-02 -5.384310E-02 -6.828080E-04 -1.956790E-03  1.000000E+00  0.000000E+00  1.000000E+00  0.000000E+00
  0.000117325  1.350900E-02 -5.044860E-02  4.237700E-04 -1.877620E-03  1.000000E+00  0.000000E+00  1.000000E+00  0.000000E+00
  0.000119800  1.456310E-02 -4.904630E-02 -2.839310E-04 -3.468510E-04  1.000000E+00  0.000000E+00  1.000000E+00  0.000000E+00
  0.000122275  1.430920E-02 -4.616080E-02 -5.083560E-04 -6.073020E-04  1.000000E+00  0.000000E+00  1.000000E+00  0.000000E+00
  0.000124750  1.489950E-02 -4.717500E-02 -1.400730E-03 -1.973600E-03  1.000000E+00  0.000000E+00  1.000000E+00  0.000000E+00
  0.000127225  1.460070E-02 -4.505700E-02 -1.593760E-04 -3.170760E-04  1.000000E+00  0.000000E+00  1.000000E+00  0.000000E+00
  0.000129700  1.586780E-02 -4.206870E-02 -1.882700E-03 -9.143800E-04  1.000000E+00  0.000000E+00  1.000000E+00  0.000000E+00
  0.000132175  1.800300E-02 -4.238280E-02 -1.059140E-04 -2.253400E-03  1.000000E+00  0.000000E+00  1.000000E+00  0.000000E+00
  0.000134650  1.747460E-02 -4.337040E-02 -1.395650E-03 -1.420840E-03  1.000000E+00  0.000000E+00  1.000000E+00  0.000000E+00
  0.000137125  1.880610E-02 -4.110550E-02 -1.134520E-03 -5.024970E-04  1.000000E+00  0.000000E+00  1.000000E+00  0.000000E+00
  0.000139600  1.824500E-02 -3.992820E-02 -1.467450E-04 -6.929440E-04  1.000000E+00  0.000000E+00  1.000000E+00  0.000000E+00
  0.000142075  1.911460E-02 -3.806640E-02 -4.162740E-04 -1.330870E-03  1.000000E+00  0.000000E+00  1.000000E+00  0.000000E+00
  0.000144550  1.931580E-02 -3.768220E-02 -1.073550E-03 -1.885840E-03  1.000000E+00  0.000000E+00  1.000000E+00  0.000000E+00
  0.000147025  2.100530E-02 -3.704870E-02 -1.189040E-04 -1.328550E-03  1.000000E+00  0.000000E+00  1.000000E+00  0.000000E+00
  0.000149500  1.981500E-02 -3.539530E-02 -1.769980E-04 -1.037680E-03  1.000000E+00  0.000000E+00  1.000000E+00  0.000000E+00
  0.000151975  2.156310E-02 -3.557940E-02 -1.026380E-03 -1.588100E-03  1.000000E+00  0.000000E+00  1.000000E+00  0.000000E+00
  0.000154450  2.113940E-02 -3.321360E-02 -1.069910E-03 -1.275860E-03  1.000000E+00  0.000000E+00  1.000000E+00  0.000000E+00
  0.000156925  2.099670E-02 -3.213400E-02  9.195440E-05 -1.743770E-03  1.000000E+00  0.000000E+00  1.000000E+00  0.000000E+00
  0.000159400  2.208130E-02 -3.257550E-02  3.102860E-04 -1.430970E-03  1.000000E+00  0.000000E+00  1.000000E+00  0.000000E+00
  0.000161875  2.220310E-02 -3.313800E-02  1.463190E-05 -9.750580E-04  1.000000E+00  0.000000E+00  1.000000E+00  0.000000E+00
  0.000164350  2.320800E-02 -3.227850E-02 -7.430910E-04 -1.058650E-03  1.000000E+00  0.000000E+00  1.000000E+00  0.000000E+00
  0.000166825  2.329610E-02 -3.085850E-02 -6.586020E-04 -4.678270E-04  1.000000E+00  0.000000E+00  1.000000E+00  0.000000E+00
  0.000169300  2.393330E-02 -2.981940E-02 -7.037180E-04 -9.971010E-04  1.000000E+00  0.000000E+00  1.000000E+00  0.000000E+00
  0.000171775  2.297510E-02 -2.893410E-02  4.175680E-04 -1.486040E-03  1.000000E+00  0.000000E+00  1.000000E+00  0.000000E+00
  0.000174250  2.439340E-02 -2.779540E-02 -7.759640E-04 -2.442710E-03  1.000000E+00  0.000000E+00  1.000000E+00  0.000000E+00
  0.000176725  2.361200E-02 -2.781860E-02 -1.157230E-03 -1.581430E-03  1.000000E+00  0.000000E+00  1.000000E+00  0.000000E+00
  0.000179200  2.488330E-02 -2.799770E-02  6.143530E-04 -1.856010E-03  1.000000E+00  0.000000E+00  1.000000E+00  0.000000E+00
  0.000181675  2.467100E-02 -2.877490E-02 -7.711230E-04 -2.707660E-04  1.000000E+00  0.000000E+00  1.000000E+00  0.000000E+00
  0.000184150  2.471520E-02 -2.685550E-02 -7.859560E-04 -1.483650E-03  1.000000E+00  0.000000E+00  1.000000E+00  0.000000E+00
  0.000186625  2.477140E-02 -2.646730E-02 -9.072770E-04 -2.354840E-03  1.000000E+00  0.000000E+00  1.000000E+00  0.000000E+00
  0.000189100  2.512710E-02 -2.610310E-02  3.445690E-04 -1.852920E-03  1.000000E+00  0.000000E+00  1.000000E+00  0.000000E+00
  0.000191575  2.450360E-02 -2.600730E-02 -2.384210E-04 -5.248550E-05  1.000000E+00  0.000000E+00  1.000000E+00  0.000000E+00
  0.000194050  2.678980E-02 -2.384860E-02 -1.185310E-03 -1.346360E-03  1.000000E+00  0.000000E+00  1.000000E+00  0.000000E+00
  0.000196525  2.594310E-02 -2.512590E-02  3.500450E-04 -5.694210E-04  1.000000E+00  0.000000E+00  1.000000E+00  0.000000E+00
  0.000199000  2.665750E-02 -2.321650E-02  8.067320E-05  2.967060E-04  1.000000E+00  0.000000E+00  1.000000E+00  0.000000E+00
  0.000201475  2.691030E-02 -2.274960E-02 -8.981990E-04 -9.621940E-04  1.000000E+00  0.000000E+00  1.000000E+00  0.000000E+00
  0.000203950  2.591380E-02 -2.231380E-02 -6.984690E-04 -6.021830E-04  1.000000E+00  0.000000E+00  1.000000E+00  0.000000E+00
  0.000206425  2.707500E-02 -2.307230E-02  8.744530E-04 -5.126890E-04  1.000000E+00  0.000000E+00  1.000000E+00  0.000000E+00
  0.000208900  2.476770E-02 -2.304220E-02  1.163040E-04 -7.780490E-04  1.000000E+00  0.000000E+00  1.000000E+00  0.000000E+00
  0.000211375  2.755750E-02 -2.252470E-02  2.856110E-04  2.381520E-05  1.000000E+00  0.000000E+00  1.000000E+00  0.000000E+00
  0.000213850  2.673200E-02 -2.090450E-02  5.785080E-04 -9.556700E-04  1.000000E+00  0.000000E+00  1.000000E+00  0.000000E+00
  0.000216325  2.722450E-02 -2.175300E-02 -1.767530E-03 -1.462010E-03  1.000000E+00  0.000000E+00  1.000000E+00  0.000000E+00
  0.000218800  2.769280E-02 -2.067360E-02 -1.194050E-03 -2.576230E-03  1.000000E+00  0.000000E+00  1.000000E+00  0.000000E+00
  0.000221275  2.813780E-02 -1.847940E-02 -3.589040E-04 -1.008560E-03  1.000000E+00  0.000000E+00  1.000000E+00  0.000000E+00
  0.000223750  2.704680E-02 -1.879270E-02 -5.093390E-04 -1.763310E-03  1.000000E+00  0.000000E+00  1.000000E+00  0.000000E+00
  0.000226225  2.909430E-02 -1.940480E-02  3.481990E-04 -1.863940E-03  1.000000E+00  0.000000E+00  1.000000E+00  0.000000E+00
  0.000228700  2.752140E-02 -1.905090E-02 -3.156300E-04 -1.216460E-03  1.000000E+00  0.000000E+00  1.000000E+00  0.000000E+00
  0.000231175  2.712500E-02 -1.943350E-02 -5.556810E-04 -2.362360E-03  1.000000E+00  0.000000E+00  1.000000E+00  0.000000E+00
  0.000233650  2.853450E-02 -1.906410E-02 -8.343590E-05 -9.569010E-04  1.000000E+00  0.000000E+00  1.000000E+00  0.000000E+00
  0.000236125  2.920570E-02 -1.751530E-02 -4.619310E-04 -1.367080E-03  1.000000E+00  0.000000E+00  1.000000E+00  0.000000E+00
  0.000238600  2.984190E-02 -1.887230E-02 -8.407520E-04 -1.145500E-03  1.000000E+00  0.000000E+00  1.000000E+00  0.000000E+00
  0.000241075  2.768260E-02 -1.621750E-02 -1.026630E-03 -2.706240E-03  1.000000E+00  0.000000E+00  1.000000E+00  0.000000E+00
  0.000243550  2.901370E-02 -1.702040E-02 -6.383770E-04 -1.123690E-03  1.000000E+00  0.000000E+00  1.000000E+00  0.000000E+00
  0.000246025  2.865080E-02 -1.755080E-02 -1.007850E-03 -2.527830E-03  1.000000E+00  0.000000E+00  1.000000E+00  0.000000E+00
  0.000248500  2.894180E-02 -1.617730E-02 -1.713680E-03 -1.404110E-03  1.000000E+00  0.000000E+00  1.000000E+00  0.000000E+00
  0.000250975  2.980730E-02 -1.778860E-02 -1.900630E-03 -3.307970E-03  1.000000E+00  0.000000E+00  1.000000E+00  0.000000E+00
  0.000253450  2.961880E-02 -1.453620E-02 -4.222340E-04 -2.650760E-03  1.000000E+00  0.000000E+00  1.000000E+00  0.000000E+00
  0.000255925  2.903700E-02 -1.455020E-02 -2.121760E-04 -1.394600E-03  1.000000E+00  0.000000E+00  1.000000E+00  0.000000E+00
  0.000258400  2.979870E-02 -1.487070E-02 -1.383980E-03 -1.770310E-03  1.000000E+00  0.000000E+00  1.000000E+00  0.000000E+00
  0.000260875  3.118170E-02 -1.449000E-02 -1.248330E-03 -2.047900E-03  1.000000E+00  0.000000E+00  1.000000E+00  0.000000E+00
  0.000263350  3.051550E-02 -1.283510E-02 -2.215800E-03 -3.544830E-03  1.000000E+00  0.000000E+00  1.000000E+00  0.000000E+00
  0.000265825  2.919960E-02 -1.417750E-02 -4.164750E-04 -1.572930E-03  1.000000E+00  0.000000E+00  1.000000E+00  0.000000E+00
  0.000268300  2.920000E-02 -1.376280E-02 -4.257130E-04 -1.785440E-03  1.000000E+00  0.000000E+00  1.000000E+00  0.000000E+00
  0.000270775  2.995680E-02 -1.464230E-02 -7.693360E-04 -5.893890E-04  1.000000E+00  0.000000E+00  1.000000E+00  0.000000E+00
  0.000273250  2.974140E-02 -1.324230E-02 -2.098190E-03 -4.425780E-03  1.000000E+00  0.000000E+00  1.000000E+00  0.000000E+00
  0.000275725  3.028100E-02 -1.354310E-02 -1.400810E-03 -2.610040E-03  1.000000E+00  0.000000E+00  1.000000E+00  0.000000E+00
  0.000278200  3.117940E-02 -1.282040E-02 -8.089360E-04 -1.872120E-03  1.000000E+00  0.000000E+00  1.000000E+00  0.000000E+00
  0.000280675  3.097780E-02 -1.265880E-02 -8.925010E-04 -2.709700E-03  1.000000E+00  0.000000E+00  1.000000E+00  0.000000E+00
  0.000283150  3.026840E-02 -1.116980E-02 -2.566960E-03 -4.236060E-03  1.000000E+00  0.000000E+00  1.000000E+00  0.000000E+00
  0.000285625  2.993130E-02 -1.138480E-02 -2.530060E-03 -3.192840E-03  1.000000E+00  0.000000E+00  1.000000E+00  0.000000E+00
  0.000288100  3.044880E-02 -1.120000E-02 -1.569150E-03 -2.784630E-03  1.000000E+00  0.000000E+00  1.000000E+00  0.000000E+00
  0.000290575  2.995740E-02 -9.352760E-03 -1.759730E-03 -3.062350E-03  1.000000E+00  0.000000E+00  1.000000E+00  0.000000E+00
  0.000293050  3.212060E-02 -1.027390E-02 -2.804270E-03 -3.789870E-03  1.000000E+00  0.000000E+00  1.000000E+00  0.000000E+00
  0.000295525  3.159260E-02 -8.347430E-03 -4.765350E-03 -6.200500E-03  1.000000E+00  0.000000E+00  1.000000E+00  0.000000E+00
  0.000298000  3.020680E-02 -9.988480E-03 -1.560750E-03 -2.058800E-03  1.000000E+00  0.000000E+00  1.000000E+00  0.000000E+00
  0.000300475  3.198680E-02 -1.059570E-02 -1.037470E-03 -2.957510E-03  1.000000E+00  0.000000E+00  1.000000E+00  0.000000E+00
  0.000302950  3.154420E-02 -8.818220E-03 -2.876490E-03 -3.059470E-03  1.000000E+00  0.000000E+00  1.000000E+00  0.000000E+00
  0.000305425  3.222670E-02 -8.219900E-03 -6.467430E-03 -6.354070E-03  1.000000E+00  0.000000E+00  1.000000E+00  0.000000E+00
  0.000307900  3.118020E-02 -8.215810E-03 -2.618040E-03 -1.406200E-03  1.000000E+00  0.000000E+00  1.000000E+00  0.000000E+00
  0.000310375  3.241050E-02 -9.215150E-03 -3.360070E-03 -3.353890E-03  1.000000E+00  0.000000E+00  1.000000E+00  0.000000E+00
  0.000312850  3.252700E-02 -7.600700E-03 -3.207560E-03 -2.485880E-03  1.000000E+00  0.000000E+00  1.000000E+00  0.000000E+00
  0.000315325  3.004060E-02 -8.676890E-03 -9.449880E-03 -5.645730E-03  1.000000E+00  0.000000E+00  1.000000E+00  0.000000E+00
  0.000317800  3.232080E-02 -6.713300E-03 -5.022920E-03 -4.340210E-03  1.000000E+00  0.000000E+00  1.000000E+00  0.000000E+00
  0.000320275  3.077840E-02 -5.412660E-03 -2.551980E-03 -2.921440E-03  1.000000E+00  0.000000E+00  1.000000E+00  0.000000E+00
  0.000322750  3.179420E-02 -6.563570E-03 -3.686430E-03 -2.330250E-03  1.000000E+00  0.000000E+00  1.000000E+00  0.000000E+00
  0.000325225  3.257350E-02 -6.615360E-03 -8.082550E-03 -2.530180E-03  1.000000E+00  0.000000E+00  1.000000E+00  0.000000E+00
  0.000327700  3.266610E-02 -6.820360E-03 -1.103840E-02 -3.058720E-03  1.000000E+00  0.000000E+00  1.000000E+00  0.000000E+00
  0.000330175  3.252620E-02 -6.474170E-03 -5.339260E-03 -2.660180E-03  1.000000E+00  0.000000E+00  1.000000E+00  0.000000E+00
  0.000332650  3.126780E-02 -4.739920E-03 -5.460360E-03 -3.792470E-03  1.000000E+00  0.000000E+00  1.000000E+00  0.000000E+00
  0.000335125  3.374900E-02 -5.320410E-03 -7.617040E-03 -1.945420E-03  1.000000E+00  0.000000E+00  1.000000E+00  0.000000E+00
  0.000337600  3.365540E-02 -4.575640E-03 -1.526650E-02  4.973370E-03  1.000000E+00  0.000000E+00  1.000000E+00  0.000000E+00
  0.000340075  3.266830E-02 -4.886340E-03 -4.648360E-03 -8.830700E-04  1.000000E+00  0.000000E+00  1.000000E+00  0.000000E+00
  0.000342550  3.362500E-02 -5.271970E-03 -4.890850E-03 -2.757470E-03  1.000000E+00  0.000000E+00  1.000000E+00  0.000000E+00
  0.000345025  3.389840E-02 -5.465200E-03 -6.793590E-03 -7.143310E-04  1.000000E+00  0.000000E+00  1.000000E+00  0.000000E+00
  0.000347500  3.566840E-02 -5.426180E-03 -1.131320E-02  9.614580E-03  1.000000E+00  0.000000E+00  1.000000E+00  0.000000E+00
  0.000349975  3.414520E-02 -2.743230E-03 -6.668290E-03 -1.942720E-04  1.000000E+00  0.000000E+00  1.000000E+00  0.000000E+00
  0.000352450  3.568630E-02 -2.727330E-03 -6.265390E-03 -1.011670E-03  1.000000E+00  0.000000E+00  1.000000E+00  0.000000E+00
  0.000354925  3.476740E-02 -2.841420E-03 -8.628020E-03 -6.642950E-04  1.000000E+00  0.000000E+00  1.000000E+00  0.000000E+00
  0.000357400  3.482240E-02 -4.535140E-03 -6.287900E-03  9.876920E-03  1.000000E+00  0.000000E+00  1.000000E+00  0.000000E+00
  0.000359875  3.439580E-02 -3.926170E-03 -7.395180E-03  6.072040E-03  1.000000E+00  0.000000E+00  1.000000E+00  0.000000E+00
  0.000362350  3.536730E-02 -4.275020E-03 -6.941650E-03  1.230380E-03  1.000000E+00  0.000000E+00  1.000000E+00  0.000000E+00
  0.000364825  3.701130E-02 -2.678570E-03 -8.740210E-03  3.484650E-03  1.000000E+00  0.000000E+00  1.000000E+00  0.000000E+00
  0.000367300  3.560000E-02 -4.115550E-03 -5.084380E-03  7.577570E-03  1.000000E+00  0.000000E+00  1.000000E+00  0.000000E+00
  0.000369775  3.551540E-02 -4.550440E-03 -1.794200E-03  1.008540E-02  1.000000E+00  0.000000E+00  1.000000E+00  0.000000E+00
  0.000372250  3.558510E-02 -2.812420E-03 -8.719130E-03  2.458470E-03  1.000000E+00  0.000000E+00  1.000000E+00  0.000000E+00
  0.000374725  3.724790E-02 -2.969510E-03 -5.907250E-03  6.272320E-03  1.000000E+00  0.000000E+00  1.000000E+00  0.000000E+00
  0.000377200  3.581740E-02 -2.587180E-03 -4.378720E-03  7.799780E-03  1.000000E+00  0.000000E+00  1.000000E+00  0.000000E+00
  0.000379675  3.754740E-02 -5.224840E-03 -1.139530E-04  6.704410E-03  1.000000E+00  0.000000E+00  1.000000E+00  0.000000E+00
  0.000382150  3.670810E-02 -2.406190E-03 -7.605940E-03  7.559310E-03  1.000000E+00  0.000000E+00  1.000000E+00  0.000000E+00
  0.000384625  3.785620E-02 -2.826100E-03 -4.721830E-03  8.485970E-03  1.000000E+00  0.000000E+00  1.000000E+00  0.000000E+00
  0.000387100  3.564960E-02 -2.878890E-03 -6.954530E-04  7.311250E-03  1.000000E+00  0.000000E+00  1.000000E+00  0.000000E+00
  0.000389575  3.701430E-02 -2.973870E-03 -2.235450E-06  4.762910E-03  1.000000E+00  0.000000E+00  1.000000E+00  0.000000E+00
  0.000392050  3.784210E-02 -9.612250E-04 -1.483610E-03  6.829330E-03  1.000000E+00  0.000000E+00  1.000000E+00  0.000000E+00
  0.000394525  3.798410E-02 -1.312840E-03 -3.036420E-03  8.210390E-03  1.000000E+00  0.000000E+00  1.000000E+00  0.000000E+00
  0.000397000  3.601900E-02 -1.207140E-03 -9.339050E-04  5.934400E-03  1.000000E+00  0.000000E+00  1.000000E+00  0.000000E+00
  0.000399475  3.815290E-02 -2.340450E-03  1.745270E-04  5.729190E-03  1.000000E+00  0.000000E+00  1.000000E+00  0.000000E+00
  0.000401950  3.715780E-02 -2.221220E-03  7.154070E-04  5.166770E-03  1.000000E+00  0.000000E+00  1.000000E+00  0.000000E+00
  0.000404425  3.931890E-02 -1.209450E-03 -1.117880E-03  7.038430E-03  1.000000E+00  0.000000E+00  1.000000E+00  0.000000E+00
  0.000406900  3.919530E-02 -2.539780E-03  1.567330E-03  7.133460E-03  1.000000E+00  0.000000E+00  1.000000E+00  0.000000E+00
  0.000409375  3.959380E-02 -3.045990E-03  2.057040E-03  3.690980E-03  1.000000E+00  0.000000E+00  1.000000E+00  0.000000E+00
  0.000411850  3.883460E-02 -4.744360E-03  4.818290E-04  2.787700E-03  1.000000E+00  0.000000E+00  1.000000E+00  0.000000E+00
  0.000414325  3.970090E-02 -1.634840E-03  1.343820E-03  6.395850E-03  1.000000E+00  0.000000E+00  1.000000E+00  0.000000E+00
  0.000416800  3.998190E-02 -1.855200E-03  2.061940E-03  4.541610E-03  1.000000E+00  0.000000E+00  1.000000E+00  0.000000E+00
  0.000419275  3.885160E-02 -2.043170E-03  3.224720E-03  3.420520E-03  1.000000E+00  0.000000E+00  1.000000E+00  0.000000E+00
  0.000421750  3.944580E-02 -2.488740E-03  1.342550E-03  3.845000E-03  1.000000E+00  0.000000E+00  1.000000E+00  0.000000E+00
  0.000424225  3.850480E-02  2.726570E-04  3.002600E-03  2.130360E-03  1.000000E+00  0.000000E+00  1.000000E+00  0.000000E+00
  0.000426700  3.947550E-02 -2.478320E-03  2.614100E-03  2.952980E-03  1.000000E+00  0.000000E+00  1.000000E+00  0.000000E+00
  0.000429175  4.043190E-02 -1.753570E-03  2.557150E-03  2.743740E-03  1.000000E+00  0.000000E+00  1.000000E+00  0.000000E+00
  0.000431650  4.008810E-02 -2.021570E-03  2.310340E-03  1.640350E-03  1.000000E+00  0.000000E+00  1.000000E+00  0.000000E+00
  0.000434125  4.153950E-02 -1.559920E-03  1.425440E-03  2.811270E-03  1.000000E+00  0.000000E+00  1.000000E+00  0.000000E+00
  0.000436600  3.961360E-02 -1.808820E-03  1.839830E-03  1.593840E-03  1.000000E+00  0.000000E+00  1.000000E+00  0.000000E+00
  0.000439075  4.074330E-02 -6.081390E-04  1.666060E-03  1.124210E-03  1.000000E+00  0.000000E+00  1.000000E+00  0.000000E+00
  0.000441550  4.045240E-02 -4.087600E-04  1.819840E-03  1.320720E-03  1.000000E+00  0.000000E+00  1.000000E+00  0.000000E+00
  0.000444025  4.027710E-02 -2.351130E-03  7.163000E-04  2.584450E-03  1.000000E+00  0.000000E+00  1.000000E+00  0.000000E+00
  0.000446500  4.042730E-02 -2.730970E-03  3.590480E-03  2.973130E-04  1.000000E+00  0.000000E+00  1.000000E+00  0.000000E+00
  0.000448975  4.085900E-02 -1.754330E-03  2.029330E-03  5.368610E-04  1.000000E+00  0.000000E+00  1.000000E+00  0.000000E+00
  0.000451450  4.069480E-02 -1.227400E-03  2.067540E-03 -5.006630E-04  1.000000E+00  0.000000E+00  1.000000E+00  0.000000E+00
  0.000453925  4.042080E-02 -1.781750E-03  1.656110E-03  2.095200E-03  1.000000E+00  0.000000E+00  1.000000E+00  0.000000E+00
