! Anritsu VNA Master:                        Model: MS2026C/19
! SN:                                  1815009
! /card0/usr/20180902_2.s2p
! Existing Calibration Information:
! TYPE:                         Current Settings,       Active Cal Settings
! TIME:             	   09/02/2018 12:28:39 PM,    09/02/2018 11:58:48 AM
! INTERNAL TEMP:    	                   52.0 C,                    48.8 C
! # POINTS:         	                     4001,                      4001
! START FREQ:       	              100.000 kHz,               100.000 kHz
! STOP FREQ:        	               10.000 MHz,                10.000 MHz
! SOURCE POWER:     	                      Low,                       Low
! IFBW:             	                   500 Hz,                    500 Hz
! AVG FACTOR:       	                       5 ,                        1 
! REF PLANE 1:      	                     0 mm,                      0 mm
! REF PLANE 2:      	                     0 mm,                      0 mm
! CAL TYPE:         	             1P2P S11,S21,              1P2P S11,S21
! CAL METHOD:       	                     SOLT,                      SOLT
! CAL LINE TYPE:    	                     Coax,                      Coax
! DUT PORT 1:       	                N-Conn(M),                 N-Conn(M)
! DUT PORT 2:       	                N-Conn(M),                 N-Conn(M)
! CAL STATUS:       	        OK: Accuracy High,                        --
# GHZ S RI R 50.0
! FREQ.GHZ      S11RE         S11IM         S21RE         S21IM         S12RE         S12IM         S22RE         S22IM
  0.000100000  3.699570E-03 -5.853110E-02  4.705400E-01  1.237780E+00  1.000000E+00  0.000000E+00  1.000000E+00  0.000000E+00
  0.000102475  5.995360E-03 -5.590240E-02  5.133900E-01  1.225260E+00  1.000000E+00  0.000000E+00  1.000000E+00  0.000000E+00
  0.000104950  6.639140E-03 -5.381440E-02  5.556450E-01  1.210660E+00  1.000000E+00  0.000000E+00  1.000000E+00  0.000000E+00
  0.000107425  8.848260E-03 -5.153880E-02  5.930950E-01  1.194250E+00  1.000000E+00  0.000000E+00  1.000000E+00  0.000000E+00
  0.000109900  9.774150E-03 -4.981690E-02  6.298060E-01  1.180100E+00  1.000000E+00  0.000000E+00  1.000000E+00  0.000000E+00
  0.000112375  1.074250E-02 -4.817360E-02  6.677640E-01  1.162770E+00  1.000000E+00  0.000000E+00  1.000000E+00  0.000000E+00
  0.000114850  1.110600E-02 -4.646240E-02  7.001070E-01  1.145740E+00  1.000000E+00  0.000000E+00  1.000000E+00  0.000000E+00
  0.000117325  1.366850E-02 -4.506430E-02  7.291000E-01  1.124200E+00  1.000000E+00  0.000000E+00  1.000000E+00  0.000000E+00
  0.000119800  1.434140E-02 -4.258790E-02  7.598500E-01  1.107750E+00  1.000000E+00  0.000000E+00  1.000000E+00  0.000000E+00
  0.000122275  1.475650E-02 -4.041110E-02  7.899520E-01  1.089690E+00  1.000000E+00  0.000000E+00  1.000000E+00  0.000000E+00
  0.000124750  1.622120E-02 -4.048810E-02  8.183810E-01  1.070950E+00  1.000000E+00  0.000000E+00  1.000000E+00  0.000000E+00
  0.000127225  1.556760E-02 -3.887260E-02  8.450280E-01  1.055210E+00  1.000000E+00  0.000000E+00  1.000000E+00  0.000000E+00
  0.000129700  1.745660E-02 -3.622980E-02  8.706990E-01  1.035070E+00  1.000000E+00  0.000000E+00  1.000000E+00  0.000000E+00
  0.000132175  1.875870E-02 -3.665690E-02  8.953760E-01  1.020090E+00  1.000000E+00  0.000000E+00  1.000000E+00  0.000000E+00
  0.000134650  1.909130E-02 -3.578770E-02  9.162280E-01  9.991130E-01  1.000000E+00  0.000000E+00  1.000000E+00  0.000000E+00
  0.000137125  2.022650E-02 -3.443310E-02  9.376090E-01  9.818240E-01  1.000000E+00  0.000000E+00  1.000000E+00  0.000000E+00
  0.000139600  2.148310E-02 -3.323890E-02  9.581280E-01  9.643300E-01  1.000000E+00  0.000000E+00  1.000000E+00  0.000000E+00
  0.000142075  2.243030E-02 -3.239460E-02  9.776690E-01  9.450460E-01  1.000000E+00  0.000000E+00  1.000000E+00  0.000000E+00
  0.000144550  2.241560E-02 -3.136480E-02  9.935810E-01  9.228660E-01  1.000000E+00  0.000000E+00  1.000000E+00  0.000000E+00
  0.000147025  2.334990E-02 -2.989040E-02  1.011370E+00  9.061970E-01  1.000000E+00  0.000000E+00  1.000000E+00  0.000000E+00
  0.000149500  2.438200E-02 -2.981750E-02  1.027400E+00  8.853220E-01  1.000000E+00  0.000000E+00  1.000000E+00  0.000000E+00
  0.000151975  2.447710E-02 -2.886000E-02  1.040250E+00  8.700940E-01  1.000000E+00  0.000000E+00  1.000000E+00  0.000000E+00
  0.000154450  2.492390E-02 -2.676390E-02  1.053870E+00  8.516340E-01  1.000000E+00  0.000000E+00  1.000000E+00  0.000000E+00
  0.000156925  2.581060E-02 -2.654030E-02  1.073100E+00  8.370360E-01  1.000000E+00  0.000000E+00  1.000000E+00  0.000000E+00
  0.000159400  2.504600E-02 -2.621790E-02  1.082140E+00  8.179830E-01  1.000000E+00  0.000000E+00  1.000000E+00  0.000000E+00
  0.000161875  2.634630E-02 -2.611380E-02  1.094990E+00  8.030060E-01  1.000000E+00  0.000000E+00  1.000000E+00  0.000000E+00
  0.000164350  2.703960E-02 -2.545120E-02  1.109540E+00  7.859060E-01  1.000000E+00  0.000000E+00  1.000000E+00  0.000000E+00
  0.000166825  2.729220E-02 -2.503990E-02  1.121200E+00  7.652580E-01  1.000000E+00  0.000000E+00  1.000000E+00  0.000000E+00
  0.000169300  2.790890E-02 -2.430850E-02  1.130930E+00  7.550500E-01  1.000000E+00  0.000000E+00  1.000000E+00  0.000000E+00
  0.000171775  2.834230E-02 -2.325810E-02  1.142180E+00  7.364540E-01  1.000000E+00  0.000000E+00  1.000000E+00  0.000000E+00
  0.000174250  2.859240E-02 -2.256720E-02  1.150660E+00  7.234570E-01  1.000000E+00  0.000000E+00  1.000000E+00  0.000000E+00
  0.000176725  2.973990E-02 -2.279250E-02  1.158980E+00  7.085070E-01  1.000000E+00  0.000000E+00  1.000000E+00  0.000000E+00
  0.000179200  2.947740E-02 -2.188710E-02  1.170190E+00  6.916150E-01  1.000000E+00  0.000000E+00  1.000000E+00  0.000000E+00
  0.000181675  2.958780E-02 -2.215880E-02  1.179910E+00  6.785100E-01  1.000000E+00  0.000000E+00  1.000000E+00  0.000000E+00
  0.000184150  3.026270E-02 -2.061380E-02  1.189670E+00  6.610450E-01  1.000000E+00  0.000000E+00  1.000000E+00  0.000000E+00
  0.000186625  3.078750E-02 -2.007920E-02  1.194800E+00  6.515440E-01  1.000000E+00  0.000000E+00  1.000000E+00  0.000000E+00
  0.000189100  3.008150E-02 -2.069140E-02  1.204500E+00  6.317870E-01  1.000000E+00  0.000000E+00  1.000000E+00  0.000000E+00
  0.000191575  2.988060E-02 -2.021150E-02  1.208500E+00  6.192560E-01  1.000000E+00  0.000000E+00  1.000000E+00  0.000000E+00
  0.000194050  3.116240E-02 -1.951760E-02  1.217870E+00  6.051220E-01  1.000000E+00  0.000000E+00  1.000000E+00  0.000000E+00
  0.000196525  3.144910E-02 -1.937740E-02  1.223950E+00  5.927680E-01  1.000000E+00  0.000000E+00  1.000000E+00  0.000000E+00
  0.000199000  3.270110E-02 -1.891000E-02  1.229900E+00  5.776540E-01  1.000000E+00  0.000000E+00  1.000000E+00  0.000000E+00
  0.000201475  3.256590E-02 -1.792040E-02  1.237010E+00  5.628400E-01  1.000000E+00  0.000000E+00  1.000000E+00  0.000000E+00
  0.000203950  3.243170E-02 -1.836900E-02  1.240530E+00  5.521850E-01  1.000000E+00  0.000000E+00  1.000000E+00  0.000000E+00
  0.000206425  3.308220E-02 -1.749830E-02  1.247600E+00  5.405380E-01  1.000000E+00  0.000000E+00  1.000000E+00  0.000000E+00
  0.000208900  3.329030E-02 -1.786050E-02  1.251310E+00  5.252630E-01  1.000000E+00  0.000000E+00  1.000000E+00  0.000000E+00
  0.000211375  3.478960E-02 -1.733390E-02  1.255970E+00  5.157520E-01  1.000000E+00  0.000000E+00  1.000000E+00  0.000000E+00
  0.000213850  3.325160E-02 -1.669960E-02  1.261110E+00  4.993950E-01  1.000000E+00  0.000000E+00  1.000000E+00  0.000000E+00
  0.000216325  3.352270E-02 -1.699430E-02  1.263600E+00  4.901920E-01  1.000000E+00  0.000000E+00  1.000000E+00  0.000000E+00
  0.000218800  3.379760E-02 -1.650670E-02  1.271150E+00  4.760490E-01  1.000000E+00  0.000000E+00  1.000000E+00  0.000000E+00
  0.000221275  3.489720E-02 -1.559940E-02  1.274250E+00  4.629790E-01  1.000000E+00  0.000000E+00  1.000000E+00  0.000000E+00
  0.000223750  3.416840E-02 -1.597580E-02  1.278490E+00  4.545010E-01  1.000000E+00  0.000000E+00  1.000000E+00  0.000000E+00
  0.000226225  3.534050E-02 -1.486740E-02  1.283930E+00  4.420560E-01  1.000000E+00  0.000000E+00  1.000000E+00  0.000000E+00
  0.000228700  3.413770E-02 -1.534130E-02  1.284960E+00  4.304130E-01  1.000000E+00  0.000000E+00  1.000000E+00  0.000000E+00
  0.000231175  3.452850E-02 -1.547940E-02  1.289000E+00  4.185810E-01  1.000000E+00  0.000000E+00  1.000000E+00  0.000000E+00
  0.000233650  3.522820E-02 -1.487850E-02  1.293360E+00  4.069040E-01  1.000000E+00  0.000000E+00  1.000000E+00  0.000000E+00
  0.000236125  3.456120E-02 -1.339590E-02  1.294620E+00  3.961590E-01  1.000000E+00  0.000000E+00  1.000000E+00  0.000000E+00
  0.000238600  3.573340E-02 -1.358470E-02  1.297230E+00  3.839910E-01  1.000000E+00  0.000000E+00  1.000000E+00  0.000000E+00
  0.000241075  3.560660E-02 -1.378730E-02  1.302870E+00  3.734590E-01  1.000000E+00  0.000000E+00  1.000000E+00  0.000000E+00
  0.000243550  3.553130E-02 -1.319460E-02  1.302980E+00  3.600200E-01  1.000000E+00  0.000000E+00  1.000000E+00  0.000000E+00
  0.000246025  3.652690E-02 -1.284870E-02  1.302380E+00  3.515650E-01  1.000000E+00  0.000000E+00  1.000000E+00  0.000000E+00
  0.000248500  3.624570E-02 -1.227140E-02  1.310320E+00  3.406410E-01  1.000000E+00  0.000000E+00  1.000000E+00  0.000000E+00
  0.000250975  3.694330E-02 -1.325270E-02  1.308500E+00  3.306280E-01  1.000000E+00  0.000000E+00  1.000000E+00  0.000000E+00
  0.000253450  3.610800E-02 -1.137850E-02  1.311930E+00  3.184080E-01  1.000000E+00  0.000000E+00  1.000000E+00  0.000000E+00
  0.000255925  3.619740E-02 -1.114910E-02  1.310320E+00  3.097220E-01  1.000000E+00  0.000000E+00  1.000000E+00  0.000000E+00
  0.000258400  3.706940E-02 -1.148370E-02  1.314270E+00  2.970680E-01  1.000000E+00  0.000000E+00  1.000000E+00  0.000000E+00
  0.000260875  3.679460E-02 -1.089300E-02  1.316570E+00  2.893250E-01  1.000000E+00  0.000000E+00  1.000000E+00  0.000000E+00
  0.000263350  3.634940E-02 -1.032000E-02  1.319780E+00  2.758670E-01  1.000000E+00  0.000000E+00  1.000000E+00  0.000000E+00
  0.000265825  3.728690E-02 -1.093550E-02  1.320350E+00  2.719210E-01  1.000000E+00  0.000000E+00  1.000000E+00  0.000000E+00
  0.000268300  3.778600E-02 -1.089060E-02  1.319100E+00  2.601370E-01  1.000000E+00  0.000000E+00  1.000000E+00  0.000000E+00
  0.000270775  3.733560E-02 -1.002150E-02  1.321570E+00  2.497610E-01  1.000000E+00  0.000000E+00  1.000000E+00  0.000000E+00
  0.000273250  3.813780E-02 -9.339430E-03  1.322410E+00  2.402980E-01  1.000000E+00  0.000000E+00  1.000000E+00  0.000000E+00
  0.000275725  3.840340E-02 -1.000260E-02  1.323880E+00  2.296450E-01  1.000000E+00  0.000000E+00  1.000000E+00  0.000000E+00
  0.000278200  3.885840E-02 -9.849380E-03  1.324590E+00  2.204990E-01  1.000000E+00  0.000000E+00  1.000000E+00  0.000000E+00
  0.000280675  3.806950E-02 -9.156800E-03  1.325520E+00  2.130480E-01  1.000000E+00  0.000000E+00  1.000000E+00  0.000000E+00
  0.000283150  3.861040E-02 -1.000400E-02  1.325350E+00  2.020190E-01  1.000000E+00  0.000000E+00  1.000000E+00  0.000000E+00
  0.000285625  3.829240E-02 -9.311390E-03  1.325780E+00  1.975750E-01  1.000000E+00  0.000000E+00  1.000000E+00  0.000000E+00
  0.000288100  3.846050E-02 -8.242300E-03  1.325660E+00  1.853430E-01  1.000000E+00  0.000000E+00  1.000000E+00  0.000000E+00
  0.000290575  3.860590E-02 -7.458580E-03  1.325290E+00  1.792910E-01  1.000000E+00  0.000000E+00  1.000000E+00  0.000000E+00
  0.000293050  3.925020E-02 -8.167430E-03  1.328580E+00  1.684650E-01  1.000000E+00  0.000000E+00  1.000000E+00  0.000000E+00
  0.000295525  3.986980E-02 -6.571790E-03  1.328630E+00  1.611570E-01  1.000000E+00  0.000000E+00  1.000000E+00  0.000000E+00
  0.000298000  3.985390E-02 -8.988460E-03  1.328360E+00  1.534750E-01  1.000000E+00  0.000000E+00  1.000000E+00  0.000000E+00
  0.000300475  4.027680E-02 -8.271930E-03  1.328540E+00  1.448600E-01  1.000000E+00  0.000000E+00  1.000000E+00  0.000000E+00
  0.000302950  3.982120E-02 -6.608210E-03  1.329470E+00  1.361240E-01  1.000000E+00  0.000000E+00  1.000000E+00  0.000000E+00
  0.000305425  4.040710E-02 -5.995070E-03  1.327870E+00  1.259080E-01  1.000000E+00  0.000000E+00  1.000000E+00  0.000000E+00
  0.000307900  4.022150E-02 -7.589060E-03  1.326910E+00  1.195390E-01  1.000000E+00  0.000000E+00  1.000000E+00  0.000000E+00
  0.000310375  4.180040E-02 -7.658520E-03  1.328650E+00  1.108750E-01  1.000000E+00  0.000000E+00  1.000000E+00  0.000000E+00
  0.000312850  4.085090E-02 -7.213340E-03  1.327660E+00  1.045080E-01  1.000000E+00  0.000000E+00  1.000000E+00  0.000000E+00
  0.000315325  4.034840E-02 -7.141450E-03  1.327610E+00  9.708500E-02  1.000000E+00  0.000000E+00  1.000000E+00  0.000000E+00
  0.000317800  4.122040E-02 -5.847590E-03  1.328730E+00  8.663420E-02  1.000000E+00  0.000000E+00  1.000000E+00  0.000000E+00
  0.000320275  4.090270E-02 -5.445830E-03  1.328270E+00  7.994700E-02  1.000000E+00  0.000000E+00  1.000000E+00  0.000000E+00
  0.000322750  4.133180E-02 -6.404150E-03  1.326160E+00  7.461140E-02  1.000000E+00  0.000000E+00  1.000000E+00  0.000000E+00
  0.000325225  4.152570E-02 -6.445950E-03  1.324110E+00  6.846610E-02  1.000000E+00  0.000000E+00  1.000000E+00  0.000000E+00
  0.000327700  4.224480E-02 -5.965990E-03  1.324780E+00  5.595790E-02  1.000000E+00  0.000000E+00  1.000000E+00  0.000000E+00
  0.000330175  4.157900E-02 -5.974080E-03  1.323450E+00  5.080890E-02  1.000000E+00  0.000000E+00  1.000000E+00  0.000000E+00
  0.000332650  4.196220E-02 -5.537370E-03  1.323120E+00  4.212540E-02  1.000000E+00  0.000000E+00  1.000000E+00  0.000000E+00
  0.000335125  4.269390E-02 -5.695930E-03  1.324470E+00  3.863710E-02  1.000000E+00  0.000000E+00  1.000000E+00  0.000000E+00
  0.000337600  4.332320E-02 -5.555250E-03  1.323060E+00  3.268040E-02  1.000000E+00  0.000000E+00  1.000000E+00  0.000000E+00
  0.000340075  4.359120E-02 -6.533530E-03  1.325730E+00  2.473560E-02  1.000000E+00  0.000000E+00  1.000000E+00  0.000000E+00
  0.000342550  4.260540E-02 -5.518060E-03  1.323330E+00  1.694200E-02  1.000000E+00  0.000000E+00  1.000000E+00  0.000000E+00
  0.000345025  4.361980E-02 -6.583080E-03  1.323890E+00  1.177040E-02  1.000000E+00  0.000000E+00  1.000000E+00  0.000000E+00
  0.000347500  4.345090E-02 -5.971330E-03  1.323880E+00  3.623040E-03  1.000000E+00  0.000000E+00  1.000000E+00  0.000000E+00
  0.000349975  4.388850E-02 -5.061870E-03  1.325080E+00 -7.379650E-03  1.000000E+00  0.000000E+00  1.000000E+00  0.000000E+00
  0.000352450  4.407630E-02 -5.855140E-03  1.323770E+00 -1.282570E-02  1.000000E+00  0.000000E+00  1.000000E+00  0.000000E+00
  0.000354925  4.442830E-02 -5.326410E-03  1.321120E+00 -1.727950E-02  1.000000E+00  0.000000E+00  1.000000E+00  0.000000E+00
  0.000357400  4.367210E-02 -5.752600E-03  1.321550E+00 -2.590750E-02  1.000000E+00  0.000000E+00  1.000000E+00  0.000000E+00
  0.000359875  4.456880E-02 -5.296510E-03  1.321770E+00 -2.963050E-02  1.000000E+00  0.000000E+00  1.000000E+00  0.000000E+00
  0.000362350  4.370270E-02 -5.681020E-03  1.317510E+00 -3.538880E-02  1.000000E+00  0.000000E+00  1.000000E+00  0.000000E+00
  0.000364825  4.500140E-02 -4.427350E-03  1.317050E+00 -4.135770E-02  1.000000E+00  0.000000E+00  1.000000E+00  0.000000E+00
  0.000367300  4.486370E-02 -5.404370E-03  1.314870E+00 -5.194530E-02  1.000000E+00  0.000000E+00  1.000000E+00  0.000000E+00
  0.000369775  4.446090E-02 -4.497970E-03  1.314140E+00 -5.706890E-02  1.000000E+00  0.000000E+00  1.000000E+00  0.000000E+00
  0.000372250  4.519620E-02 -6.024340E-03  1.314360E+00 -6.039580E-02  1.000000E+00  0.000000E+00  1.000000E+00  0.000000E+00
  0.000374725  4.454140E-02 -5.175400E-03  1.315010E+00 -6.800140E-02  1.000000E+00  0.000000E+00  1.000000E+00  0.000000E+00
  0.000377200  4.601740E-02 -5.956100E-03  1.313110E+00 -7.616520E-02  1.000000E+00  0.000000E+00  1.000000E+00  0.000000E+00
  0.000379675  4.536640E-02 -5.582920E-03  1.310920E+00 -8.004480E-02  1.000000E+00  0.000000E+00  1.000000E+00  0.000000E+00
  0.000382150  4.543960E-02 -5.952560E-03  1.309780E+00 -8.746490E-02  1.000000E+00  0.000000E+00  1.000000E+00  0.000000E+00
  0.000384625  4.659210E-02 -5.779330E-03  1.307630E+00 -9.332910E-02  1.000000E+00  0.000000E+00  1.000000E+00  0.000000E+00
  0.000387100  4.482160E-02 -6.403870E-03  1.306150E+00 -9.823760E-02  1.000000E+00  0.000000E+00  1.000000E+00  0.000000E+00
  0.000389575  4.667730E-02 -5.469330E-03  1.306300E+00 -1.031480E-01  1.000000E+00  0.000000E+00  1.000000E+00  0.000000E+00
  0.000392050  4.563070E-02 -4.650090E-03  1.305680E+00 -1.092920E-01  1.000000E+00  0.000000E+00  1.000000E+00  0.000000E+00
  0.000394525  4.586460E-02 -5.728820E-03  1.303490E+00 -1.150540E-01  1.000000E+00  0.000000E+00  1.000000E+00  0.000000E+00
  0.000397000  4.466170E-02 -5.574240E-03  1.301200E+00 -1.191670E-01  1.000000E+00  0.000000E+00  1.000000E+00  0.000000E+00
  0.000399475  4.659910E-02 -6.455280E-03  1.301000E+00 -1.263270E-01  1.000000E+00  0.000000E+00  1.000000E+00  0.000000E+00
  0.000401950  4.599900E-02 -6.056660E-03  1.301610E+00 -1.353030E-01  1.000000E+00  0.000000E+00  1.000000E+00  0.000000E+00
  0.000404425  4.741080E-02 -5.758560E-03  1.298090E+00 -1.420490E-01  1.000000E+00  0.000000E+00  1.000000E+00  0.000000E+00
  0.000406900  4.623560E-02 -6.401030E-03  1.295160E+00 -1.452010E-01  1.000000E+00  0.000000E+00  1.000000E+00  0.000000E+00
  0.000409375  4.676900E-02 -6.696230E-03  1.295320E+00 -1.508700E-01  1.000000E+00  0.000000E+00  1.000000E+00  0.000000E+00
  0.000411850  4.625680E-02 -7.780910E-03  1.292280E+00 -1.568770E-01  1.000000E+00  0.000000E+00  1.000000E+00  0.000000E+00
  0.000414325  4.659300E-02 -5.601410E-03  1.290410E+00 -1.642710E-01  1.000000E+00  0.000000E+00  1.000000E+00  0.000000E+00
  0.000416800  4.613800E-02 -5.726780E-03  1.289660E+00 -1.674300E-01  1.000000E+00  0.000000E+00  1.000000E+00  0.000000E+00
  0.000419275  4.633800E-02 -6.622040E-03  1.284900E+00 -1.741810E-01  1.000000E+00  0.000000E+00  1.000000E+00  0.000000E+00
  0.000421750  4.736060E-02 -6.698770E-03  1.283620E+00 -1.783940E-01  1.000000E+00  0.000000E+00  1.000000E+00  0.000000E+00
  0.000424225  4.720390E-02 -5.616770E-03  1.281250E+00 -1.865950E-01  1.000000E+00  0.000000E+00  1.000000E+00  0.000000E+00
  0.000426700  4.648330E-02 -7.091150E-03  1.277430E+00 -1.915480E-01  1.000000E+00  0.000000E+00  1.000000E+00  0.000000E+00
  0.000429175  4.612090E-02 -6.685740E-03  1.275730E+00 -1.937450E-01  1.000000E+00  0.000000E+00  1.000000E+00  0.000000E+00
  0.000431650  4.581490E-02 -6.389970E-03  1.270960E+00 -1.986270E-01  1.000000E+00  0.000000E+00  1.000000E+00  0.000000E+00
  0.000434125  4.758170E-02 -6.822180E-03  1.270440E+00 -2.041000E-01  1.000000E+00  0.000000E+00  1.000000E+00  0.000000E+00
  0.000436600  4.606860E-02 -6.002860E-03  1.262420E+00 -2.064500E-01  1.000000E+00  0.000000E+00  1.000000E+00  0.000000E+00
  0.000439075  4.680740E-02 -6.963840E-03  1.262090E+00 -2.098460E-01  1.000000E+00  0.000000E+00  1.000000E+00  0.000000E+00
  0.000441550  4.654380E-02 -6.479470E-03  1.264970E+00 -2.160140E-01  1.000000E+00  0.000000E+00  1.000000E+00  0.000000E+00
  0.000444025  4.527250E-02 -5.786800E-03  1.259560E+00 -2.192650E-01  1.000000E+00  0.000000E+00  1.000000E+00  0.000000E+00
  0.000446500  4.734840E-02 -6.774570E-03  1.258950E+00 -2.205660E-01  1.000000E+00  0.000000E+00  1.000000E+00  0.000000E+00
  0.000448975  4.648340E-02 -5.485920E-03  1.255870E+00 -2.243010E-01  1.000000E+00  0.000000E+00  1.000000E+00  0.000000E+00
  0.000451450  4.658490E-02 -6.820230E-03  1.254750E+00 -2.246140E-01  1.000000E+00  0.000000E+00  1.000000E+00  0.000000E+00
  0.000453925  4.586100E-02 -6.535410E-03  1.252190E+00 -2.272530E-01  1.000000E+00  0.000000E+00  1.000000E+00  0.000000E+00
