! Anritsu VNA Master:                        Model: MS2026C/19
! SN:                                  1815009
! /card0/usr/20180209_38.s2p
! Existing Calibration Information:
! TYPE:                         Current Settings,       Active Cal Settings
! TIME:             	   09/02/2018 11:12:23 PM,    09/02/2018 11:58:48 AM
! INTERNAL TEMP:    	                   52.8 C,                    48.8 C
! # POINTS:         	                     4001,                      4001
! START FREQ:       	              100.000 kHz,               100.000 kHz
! STOP FREQ:        	               10.000 MHz,                10.000 MHz
! SOURCE POWER:     	                      Low,                       Low
! IFBW:             	                   500 Hz,                    500 Hz
! AVG FACTOR:       	                       5 ,                        1 
! REF PLANE 1:      	                     0 mm,                      0 mm
! REF PLANE 2:      	                     0 mm,                      0 mm
! CAL TYPE:         	             1P2P S11,S21,              1P2P S11,S21
! CAL METHOD:       	                     SOLT,                      SOLT
! CAL LINE TYPE:    	                     Coax,                      Coax
! DUT PORT 1:       	                N-Conn(M),                 N-Conn(M)
! DUT PORT 2:       	                N-Conn(M),                 N-Conn(M)
! CAL STATUS:       	        OK: Accuracy High,                        --
# GHZ S RI R 50.0
! FREQ.GHZ      S11RE         S11IM         S21RE         S21IM         S12RE         S12IM         S22RE         S22IM
  0.000100000  7.108030E-03 -6.213590E-02 -4.544920E-02 -9.392670E-02  1.000000E+00  0.000000E+00  1.000000E+00  0.000000E+00
  0.000102475  9.695280E-03 -5.894420E-02 -4.837800E-02 -9.272740E-02  1.000000E+00  0.000000E+00  1.000000E+00  0.000000E+00
  0.000104950  9.486900E-03 -5.683110E-02 -5.216870E-02 -9.107530E-02  1.000000E+00  0.000000E+00  1.000000E+00  0.000000E+00
  0.000107425  1.131420E-02 -5.502900E-02 -5.462480E-02 -8.966770E-02  1.000000E+00  0.000000E+00  1.000000E+00  0.000000E+00
  0.000109900  1.293240E-02 -5.274070E-02 -5.681730E-02 -8.823940E-02  1.000000E+00  0.000000E+00  1.000000E+00  0.000000E+00
  0.000112375  1.316980E-02 -5.140230E-02 -5.956220E-02 -8.674610E-02  1.000000E+00  0.000000E+00  1.000000E+00  0.000000E+00
  0.000114850  1.382360E-02 -4.996990E-02 -6.138700E-02 -8.433400E-02  1.000000E+00  0.000000E+00  1.000000E+00  0.000000E+00
  0.000117325  1.577640E-02 -4.817590E-02 -6.454060E-02 -8.330310E-02  1.000000E+00  0.000000E+00  1.000000E+00  0.000000E+00
  0.000119800  1.618440E-02 -4.570960E-02 -6.578340E-02 -8.110470E-02  1.000000E+00  0.000000E+00  1.000000E+00  0.000000E+00
  0.000122275  1.691880E-02 -4.385660E-02 -6.814190E-02 -7.942910E-02  1.000000E+00  0.000000E+00  1.000000E+00  0.000000E+00
  0.000124750  1.828490E-02 -4.351320E-02 -7.030230E-02 -7.845620E-02  1.000000E+00  0.000000E+00  1.000000E+00  0.000000E+00
  0.000127225  1.807360E-02 -4.189710E-02 -7.163760E-02 -7.681950E-02  1.000000E+00  0.000000E+00  1.000000E+00  0.000000E+00
  0.000129700  1.914510E-02 -3.945730E-02 -7.375410E-02 -7.508330E-02  1.000000E+00  0.000000E+00  1.000000E+00  0.000000E+00
  0.000132175  2.060860E-02 -3.926770E-02 -7.505710E-02 -7.400930E-02  1.000000E+00  0.000000E+00  1.000000E+00  0.000000E+00
  0.000134650  2.075160E-02 -3.844280E-02 -7.651630E-02 -7.263810E-02  1.000000E+00  0.000000E+00  1.000000E+00  0.000000E+00
  0.000137125  2.179990E-02 -3.676830E-02 -7.782460E-02 -7.021100E-02  1.000000E+00  0.000000E+00  1.000000E+00  0.000000E+00
  0.000139600  2.289970E-02 -3.647510E-02 -7.939510E-02 -6.948360E-02  1.000000E+00  0.000000E+00  1.000000E+00  0.000000E+00
  0.000142075  2.328660E-02 -3.548410E-02 -8.050620E-02 -6.787160E-02  1.000000E+00  0.000000E+00  1.000000E+00  0.000000E+00
  0.000144550  2.358690E-02 -3.450520E-02 -8.170470E-02 -6.636430E-02  1.000000E+00  0.000000E+00  1.000000E+00  0.000000E+00
  0.000147025  2.457540E-02 -3.308890E-02 -8.257930E-02 -6.485770E-02  1.000000E+00  0.000000E+00  1.000000E+00  0.000000E+00
  0.000149500  2.543060E-02 -3.262100E-02 -8.384370E-02 -6.397620E-02  1.000000E+00  0.000000E+00  1.000000E+00  0.000000E+00
  0.000151975  2.549280E-02 -3.186590E-02 -8.445430E-02 -6.214680E-02  1.000000E+00  0.000000E+00  1.000000E+00  0.000000E+00
  0.000154450  2.639900E-02 -2.977780E-02 -8.569770E-02 -6.169830E-02  1.000000E+00  0.000000E+00  1.000000E+00  0.000000E+00
  0.000156925  2.734810E-02 -3.007090E-02 -8.630610E-02 -6.004020E-02  1.000000E+00  0.000000E+00  1.000000E+00  0.000000E+00
  0.000159400  2.662300E-02 -2.889230E-02 -8.750860E-02 -5.861100E-02  1.000000E+00  0.000000E+00  1.000000E+00  0.000000E+00
  0.000161875  2.781350E-02 -2.920340E-02 -8.823760E-02 -5.703480E-02  1.000000E+00  0.000000E+00  1.000000E+00  0.000000E+00
  0.000164350  2.861500E-02 -2.826220E-02 -8.923550E-02 -5.586910E-02  1.000000E+00  0.000000E+00  1.000000E+00  0.000000E+00
  0.000166825  2.889530E-02 -2.799620E-02 -8.965880E-02 -5.477510E-02  1.000000E+00  0.000000E+00  1.000000E+00  0.000000E+00
  0.000169300  2.931610E-02 -2.763860E-02 -9.082360E-02 -5.319050E-02  1.000000E+00  0.000000E+00  1.000000E+00  0.000000E+00
  0.000171775  2.916110E-02 -2.640130E-02 -9.132290E-02 -5.252850E-02  1.000000E+00  0.000000E+00  1.000000E+00  0.000000E+00
  0.000174250  2.965110E-02 -2.540490E-02 -9.197090E-02 -5.087910E-02  1.000000E+00  0.000000E+00  1.000000E+00  0.000000E+00
  0.000176725  3.019210E-02 -2.600750E-02 -9.329430E-02 -5.009870E-02  1.000000E+00  0.000000E+00  1.000000E+00  0.000000E+00
  0.000179200  3.044020E-02 -2.506760E-02 -9.327800E-02 -4.844130E-02  1.000000E+00  0.000000E+00  1.000000E+00  0.000000E+00
  0.000181675  3.001900E-02 -2.493160E-02 -9.413670E-02 -4.817190E-02  1.000000E+00  0.000000E+00  1.000000E+00  0.000000E+00
  0.000184150  3.193140E-02 -2.381880E-02 -9.393150E-02 -4.633870E-02  1.000000E+00  0.000000E+00  1.000000E+00  0.000000E+00
  0.000186625  3.168710E-02 -2.407180E-02 -9.490700E-02 -4.513270E-02  1.000000E+00  0.000000E+00  1.000000E+00  0.000000E+00
  0.000189100  3.110540E-02 -2.396870E-02 -9.553780E-02 -4.426600E-02  1.000000E+00  0.000000E+00  1.000000E+00  0.000000E+00
  0.000191575  3.130780E-02 -2.381570E-02 -9.597540E-02 -4.364270E-02  1.000000E+00  0.000000E+00  1.000000E+00  0.000000E+00
  0.000194050  3.210100E-02 -2.332370E-02 -9.588240E-02 -4.252940E-02  1.000000E+00  0.000000E+00  1.000000E+00  0.000000E+00
  0.000196525  3.216950E-02 -2.204630E-02 -9.653410E-02 -4.109330E-02  1.000000E+00  0.000000E+00  1.000000E+00  0.000000E+00
  0.000199000  3.314540E-02 -2.104940E-02 -9.687340E-02 -4.001450E-02  1.000000E+00  0.000000E+00  1.000000E+00  0.000000E+00
  0.000201475  3.339330E-02 -2.150420E-02 -9.783370E-02 -3.924420E-02  1.000000E+00  0.000000E+00  1.000000E+00  0.000000E+00
  0.000203950  3.310500E-02 -2.119220E-02 -9.750990E-02 -3.825850E-02  1.000000E+00  0.000000E+00  1.000000E+00  0.000000E+00
  0.000206425  3.436770E-02 -2.049480E-02 -9.816860E-02 -3.762810E-02  1.000000E+00  0.000000E+00  1.000000E+00  0.000000E+00
  0.000208900  3.422210E-02 -2.088910E-02 -9.871100E-02 -3.673130E-02  1.000000E+00  0.000000E+00  1.000000E+00  0.000000E+00
  0.000211375  3.465100E-02 -2.089520E-02 -9.853240E-02 -3.535240E-02  1.000000E+00  0.000000E+00  1.000000E+00  0.000000E+00
  0.000213850  3.390100E-02 -1.957750E-02 -9.921210E-02 -3.363860E-02  1.000000E+00  0.000000E+00  1.000000E+00  0.000000E+00
  0.000216325  3.456860E-02 -1.990510E-02 -9.960600E-02 -3.344720E-02  1.000000E+00  0.000000E+00  1.000000E+00  0.000000E+00
  0.000218800  3.441430E-02 -1.954360E-02 -9.965530E-02 -3.221380E-02  1.000000E+00  0.000000E+00  1.000000E+00  0.000000E+00
  0.000221275  3.597560E-02 -1.851410E-02 -9.977230E-02 -3.222650E-02  1.000000E+00  0.000000E+00  1.000000E+00  0.000000E+00
  0.000223750  3.498330E-02 -1.944050E-02 -1.005370E-01 -3.111200E-02  1.000000E+00  0.000000E+00  1.000000E+00  0.000000E+00
  0.000226225  3.584940E-02 -1.810940E-02 -1.008560E-01 -2.997930E-02  1.000000E+00  0.000000E+00  1.000000E+00  0.000000E+00
  0.000228700  3.531110E-02 -1.897660E-02 -1.010630E-01 -2.895630E-02  1.000000E+00  0.000000E+00  1.000000E+00  0.000000E+00
  0.000231175  3.541560E-02 -1.886210E-02 -1.003880E-01 -2.830470E-02  1.000000E+00  0.000000E+00  1.000000E+00  0.000000E+00
  0.000233650  3.564320E-02 -1.803660E-02 -1.010690E-01 -2.739790E-02  1.000000E+00  0.000000E+00  1.000000E+00  0.000000E+00
  0.000236125  3.562790E-02 -1.708590E-02 -1.011140E-01 -2.640410E-02  1.000000E+00  0.000000E+00  1.000000E+00  0.000000E+00
  0.000238600  3.643640E-02 -1.706030E-02 -1.013420E-01 -2.540400E-02  1.000000E+00  0.000000E+00  1.000000E+00  0.000000E+00
  0.000241075  3.607370E-02 -1.709070E-02 -1.017870E-01 -2.515900E-02  1.000000E+00  0.000000E+00  1.000000E+00  0.000000E+00
  0.000243550  3.640530E-02 -1.756550E-02 -1.018170E-01 -2.391010E-02  1.000000E+00  0.000000E+00  1.000000E+00  0.000000E+00
  0.000246025  3.739290E-02 -1.705050E-02 -1.021580E-01 -2.400760E-02  1.000000E+00  0.000000E+00  1.000000E+00  0.000000E+00
  0.000248500  3.621790E-02 -1.581890E-02 -1.026080E-01 -2.275800E-02  1.000000E+00  0.000000E+00  1.000000E+00  0.000000E+00
  0.000250975  3.722180E-02 -1.664030E-02 -1.021640E-01 -2.181330E-02  1.000000E+00  0.000000E+00  1.000000E+00  0.000000E+00
  0.000253450  3.735120E-02 -1.557210E-02 -1.017420E-01 -2.139320E-02  1.000000E+00  0.000000E+00  1.000000E+00  0.000000E+00
  0.000255925  3.668780E-02 -1.525580E-02 -1.021290E-01 -2.006170E-02  1.000000E+00  0.000000E+00  1.000000E+00  0.000000E+00
  0.000258400  3.765160E-02 -1.572640E-02 -1.030680E-01 -1.970180E-02  1.000000E+00  0.000000E+00  1.000000E+00  0.000000E+00
  0.000260875  3.758990E-02 -1.517250E-02 -1.025440E-01 -1.843530E-02  1.000000E+00  0.000000E+00  1.000000E+00  0.000000E+00
  0.000263350  3.747920E-02 -1.458740E-02 -1.026730E-01 -1.890910E-02  1.000000E+00  0.000000E+00  1.000000E+00  0.000000E+00
  0.000265825  3.734480E-02 -1.483230E-02 -1.031160E-01 -1.741830E-02  1.000000E+00  0.000000E+00  1.000000E+00  0.000000E+00
  0.000268300  3.798920E-02 -1.471030E-02 -1.030620E-01 -1.609910E-02  1.000000E+00  0.000000E+00  1.000000E+00  0.000000E+00
  0.000270775  3.765760E-02 -1.435820E-02 -1.033310E-01 -1.595420E-02  1.000000E+00  0.000000E+00  1.000000E+00  0.000000E+00
  0.000273250  3.790050E-02 -1.407650E-02 -1.025130E-01 -1.544920E-02  1.000000E+00  0.000000E+00  1.000000E+00  0.000000E+00
  0.000275725  3.835350E-02 -1.372360E-02 -1.032350E-01 -1.505440E-02  1.000000E+00  0.000000E+00  1.000000E+00  0.000000E+00
  0.000278200  3.771580E-02 -1.374000E-02 -1.033790E-01 -1.400830E-02  1.000000E+00  0.000000E+00  1.000000E+00  0.000000E+00
  0.000280675  3.848790E-02 -1.373000E-02 -1.026520E-01 -1.329980E-02  1.000000E+00  0.000000E+00  1.000000E+00  0.000000E+00
  0.000283150  3.851600E-02 -1.319170E-02 -1.032820E-01 -1.272710E-02  1.000000E+00  0.000000E+00  1.000000E+00  0.000000E+00
  0.000285625  3.853910E-02 -1.316240E-02 -1.038110E-01 -1.289160E-02  1.000000E+00  0.000000E+00  1.000000E+00  0.000000E+00
  0.000288100  3.801970E-02 -1.318470E-02 -1.032800E-01 -1.124870E-02  1.000000E+00  0.000000E+00  1.000000E+00  0.000000E+00
  0.000290575  3.804450E-02 -1.220820E-02 -1.032600E-01 -1.088250E-02  1.000000E+00  0.000000E+00  1.000000E+00  0.000000E+00
  0.000293050  3.912090E-02 -1.276950E-02 -1.036600E-01 -1.014240E-02  1.000000E+00  0.000000E+00  1.000000E+00  0.000000E+00
  0.000295525  3.847840E-02 -1.159230E-02 -1.039020E-01 -9.115220E-03  1.000000E+00  0.000000E+00  1.000000E+00  0.000000E+00
  0.000298000  3.899530E-02 -1.334010E-02 -1.037110E-01 -8.308490E-03  1.000000E+00  0.000000E+00  1.000000E+00  0.000000E+00
  0.000300475  3.957920E-02 -1.289520E-02 -1.034730E-01 -8.263940E-03  1.000000E+00  0.000000E+00  1.000000E+00  0.000000E+00
  0.000302950  3.938500E-02 -1.143670E-02 -1.028920E-01 -7.320960E-03  1.000000E+00  0.000000E+00  1.000000E+00  0.000000E+00
  0.000305425  3.924530E-02 -1.134990E-02 -1.039070E-01 -6.603430E-03  1.000000E+00  0.000000E+00  1.000000E+00  0.000000E+00
  0.000307900  3.899440E-02 -1.252500E-02 -1.036450E-01 -6.237890E-03  1.000000E+00  0.000000E+00  1.000000E+00  0.000000E+00
  0.000310375  4.070300E-02 -1.249150E-02 -1.038500E-01 -5.928690E-03  1.000000E+00  0.000000E+00  1.000000E+00  0.000000E+00
  0.000312850  4.059970E-02 -1.158450E-02 -1.041030E-01 -5.028680E-03  1.000000E+00  0.000000E+00  1.000000E+00  0.000000E+00
  0.000315325  3.973210E-02 -1.160540E-02 -1.038760E-01 -4.515190E-03  1.000000E+00  0.000000E+00  1.000000E+00  0.000000E+00
  0.000317800  4.011390E-02 -1.059100E-02 -1.042010E-01 -4.414340E-03  1.000000E+00  0.000000E+00  1.000000E+00  0.000000E+00
  0.000320275  3.958250E-02 -9.956610E-03 -1.042040E-01 -3.138580E-03  1.000000E+00  0.000000E+00  1.000000E+00  0.000000E+00
  0.000322750  4.021740E-02 -1.137240E-02 -1.031710E-01 -2.602520E-03  1.000000E+00  0.000000E+00  1.000000E+00  0.000000E+00
  0.000325225  4.047880E-02 -1.165170E-02 -1.044940E-01 -2.031800E-03  1.000000E+00  0.000000E+00  1.000000E+00  0.000000E+00
  0.000327700  4.017610E-02 -1.072080E-02 -1.035060E-01 -1.631200E-03  1.000000E+00  0.000000E+00  1.000000E+00  0.000000E+00
  0.000330175  4.064090E-02 -1.054900E-02 -1.038490E-01 -3.848040E-04  1.000000E+00  0.000000E+00  1.000000E+00  0.000000E+00
  0.000332650  4.006200E-02 -1.071380E-02 -1.037560E-01 -2.322230E-04  1.000000E+00  0.000000E+00  1.000000E+00  0.000000E+00
  0.000335125  4.068810E-02 -1.114310E-02 -1.041590E-01  7.463780E-04  1.000000E+00  0.000000E+00  1.000000E+00  0.000000E+00
  0.000337600  4.091100E-02 -1.006350E-02 -1.037900E-01  4.605750E-04  1.000000E+00  0.000000E+00  1.000000E+00  0.000000E+00
  0.000340075  4.158900E-02 -1.102070E-02 -1.047260E-01  1.912760E-03  1.000000E+00  0.000000E+00  1.000000E+00  0.000000E+00
  0.000342550  4.109990E-02 -9.674930E-03 -1.039390E-01  2.233150E-03  1.000000E+00  0.000000E+00  1.000000E+00  0.000000E+00
  0.000345025  4.101480E-02 -1.064250E-02 -1.041550E-01  3.394350E-03  1.000000E+00  0.000000E+00  1.000000E+00  0.000000E+00
  0.000347500  4.068470E-02 -1.116150E-02 -1.039290E-01  3.608750E-03  1.000000E+00  0.000000E+00  1.000000E+00  0.000000E+00
  0.000349975  4.097460E-02 -1.003060E-02 -1.046220E-01  4.318920E-03  1.000000E+00  0.000000E+00  1.000000E+00  0.000000E+00
  0.000352450  4.237600E-02 -1.039240E-02 -1.047600E-01  4.892230E-03  1.000000E+00  0.000000E+00  1.000000E+00  0.000000E+00
  0.000354925  4.265280E-02 -9.547820E-03 -1.039390E-01  6.103870E-03  1.000000E+00  0.000000E+00  1.000000E+00  0.000000E+00
  0.000357400  4.092010E-02 -9.927430E-03 -1.042390E-01  6.545990E-03  1.000000E+00  0.000000E+00  1.000000E+00  0.000000E+00
  0.000359875  4.184600E-02 -9.755090E-03 -1.041170E-01  7.695980E-03  1.000000E+00  0.000000E+00  1.000000E+00  0.000000E+00
  0.000362350  4.233280E-02 -1.030170E-02 -1.038340E-01  1.007790E-02  1.000000E+00  0.000000E+00  1.000000E+00  0.000000E+00
  0.000364825  4.146420E-02 -8.812640E-03 -1.045670E-01  8.769420E-03  1.000000E+00  0.000000E+00  1.000000E+00  0.000000E+00
  0.000367300  4.221940E-02 -1.033400E-02 -1.042110E-01  1.024120E-02  1.000000E+00  0.000000E+00  1.000000E+00  0.000000E+00
  0.000369775  4.182020E-02 -8.401300E-03 -1.036430E-01  1.029060E-02  1.000000E+00  0.000000E+00  1.000000E+00  0.000000E+00
  0.000372250  4.131580E-02 -9.908360E-03 -1.021720E-01  1.332980E-02  1.000000E+00  0.000000E+00  1.000000E+00  0.000000E+00
  0.000374725  4.162600E-02 -9.824740E-03 -1.037960E-01  1.134600E-02  1.000000E+00  0.000000E+00  1.000000E+00  0.000000E+00
  0.000377200  4.139380E-02 -9.413550E-03 -1.018150E-01  1.437890E-02  1.000000E+00  0.000000E+00  1.000000E+00  0.000000E+00
  0.000379675  4.294740E-02 -9.846160E-03 -1.026400E-01  1.384660E-02  1.000000E+00  0.000000E+00  1.000000E+00  0.000000E+00
  0.000382150  4.168330E-02 -9.915470E-03 -9.937680E-02  1.615410E-02  1.000000E+00  0.000000E+00  1.000000E+00  0.000000E+00
  0.000384625  4.346430E-02 -9.326280E-03 -1.007310E-01  1.587360E-02  1.000000E+00  0.000000E+00  1.000000E+00  0.000000E+00
  0.000387100  4.139100E-02 -9.732090E-03 -1.001360E-01  1.753580E-02  1.000000E+00  0.000000E+00  1.000000E+00  0.000000E+00
  0.000389575  4.201920E-02 -9.055980E-03 -9.889830E-02  1.774110E-02  1.000000E+00  0.000000E+00  1.000000E+00  0.000000E+00
  0.000392050  4.247610E-02 -8.166700E-03 -9.686820E-02  1.868650E-02  1.000000E+00  0.000000E+00  1.000000E+00  0.000000E+00
  0.000394525  4.264290E-02 -9.356710E-03 -9.543460E-02  1.831160E-02  1.000000E+00  0.000000E+00  1.000000E+00  0.000000E+00
  0.000397000  4.125700E-02 -8.820980E-03 -9.521410E-02  1.903680E-02  1.000000E+00  0.000000E+00  1.000000E+00  0.000000E+00
  0.000399475  4.335930E-02 -1.062560E-02 -9.282230E-02  1.773070E-02  1.000000E+00  0.000000E+00  1.000000E+00  0.000000E+00
  0.000401950  4.242070E-02 -9.862130E-03 -9.329610E-02  1.933440E-02  1.000000E+00  0.000000E+00  1.000000E+00  0.000000E+00
  0.000404425  4.274980E-02 -8.964770E-03 -9.171720E-02  1.657450E-02  1.000000E+00  0.000000E+00  1.000000E+00  0.000000E+00
  0.000406900  4.256080E-02 -1.030160E-02 -9.162380E-02  1.782330E-02  1.000000E+00  0.000000E+00  1.000000E+00  0.000000E+00
  0.000409375  4.242880E-02 -9.697110E-03 -9.001990E-02  1.516060E-02  1.000000E+00  0.000000E+00  1.000000E+00  0.000000E+00
  0.000411850  4.281570E-02 -1.007330E-02 -9.054210E-02  1.547910E-02  1.000000E+00  0.000000E+00  1.000000E+00  0.000000E+00
  0.000414325  4.238380E-02 -8.896930E-03 -9.102750E-02  1.320420E-02  1.000000E+00  0.000000E+00  1.000000E+00  0.000000E+00
  0.000416800  4.216460E-02 -8.842100E-03 -9.037010E-02  1.474200E-02  1.000000E+00  0.000000E+00  1.000000E+00  0.000000E+00
  0.000419275  4.267790E-02 -9.528520E-03 -9.194460E-02  1.254460E-02  1.000000E+00  0.000000E+00  1.000000E+00  0.000000E+00
  0.000421750  4.334050E-02 -8.755570E-03 -9.153470E-02  1.315290E-02  1.000000E+00  0.000000E+00  1.000000E+00  0.000000E+00
  0.000424225  4.279310E-02 -8.941430E-03 -9.351810E-02  1.273540E-02  1.000000E+00  0.000000E+00  1.000000E+00  0.000000E+00
  0.000426700  4.258800E-02 -9.517000E-03 -9.390430E-02  1.294300E-02  1.000000E+00  0.000000E+00  1.000000E+00  0.000000E+00
  0.000429175  4.271860E-02 -9.869240E-03 -9.346400E-02  1.275120E-02  1.000000E+00  0.000000E+00  1.000000E+00  0.000000E+00
  0.000431650  4.308980E-02 -9.502450E-03 -9.470780E-02  1.258270E-02  1.000000E+00  0.000000E+00  1.000000E+00  0.000000E+00
  0.000434125  4.402710E-02 -9.520300E-03 -9.472670E-02  1.300730E-02  1.000000E+00  0.000000E+00  1.000000E+00  0.000000E+00
  0.000436600  4.229550E-02 -9.212180E-03 -9.624960E-02  1.346680E-02  1.000000E+00  0.000000E+00  1.000000E+00  0.000000E+00
  0.000439075  4.280530E-02 -9.020400E-03 -9.549130E-02  1.429680E-02  1.000000E+00  0.000000E+00  1.000000E+00  0.000000E+00
  0.000441550  4.309800E-02 -8.579160E-03 -9.703890E-02  1.501560E-02  1.000000E+00  0.000000E+00  1.000000E+00  0.000000E+00
  0.000444025  4.213610E-02 -8.379250E-03 -9.677280E-02  1.533630E-02  1.000000E+00  0.000000E+00  1.000000E+00  0.000000E+00
  0.000446500  4.286360E-02 -9.627930E-03 -9.725630E-02  1.596150E-02  1.000000E+00  0.000000E+00  1.000000E+00  0.000000E+00
  0.000448975  4.242530E-02 -7.854050E-03 -9.671710E-02  1.569910E-02  1.000000E+00  0.000000E+00  1.000000E+00  0.000000E+00
  0.000451450  4.327200E-02 -8.661250E-03 -9.762670E-02  1.683080E-02  1.000000E+00  0.000000E+00  1.000000E+00  0.000000E+00
  0.000453925  4.190720E-02 -8.924010E-03 -9.733660E-02  1.821890E-02  1.000000E+00  0.000000E+00  1.000000E+00  0.000000E+00
