! Anritsu VNA Master:                        Model: MS2026C/19
! SN:                                  1815009
! /card0/usr/20180902_11.s2p
! Existing Calibration Information:
! TYPE:                         Current Settings,       Active Cal Settings
! TIME:             	   09/02/2018 12:43:46 PM,    09/02/2018 11:58:48 AM
! INTERNAL TEMP:    	                   53.3 C,                    48.8 C
! # POINTS:         	                     4001,                      4001
! START FREQ:       	              100.000 kHz,               100.000 kHz
! STOP FREQ:        	               10.000 MHz,                10.000 MHz
! SOURCE POWER:     	                      Low,                       Low
! IFBW:             	                   500 Hz,                    500 Hz
! AVG FACTOR:       	                       5 ,                        1 
! REF PLANE 1:      	                     0 mm,                      0 mm
! REF PLANE 2:      	                     0 mm,                      0 mm
! CAL TYPE:         	             1P2P S11,S21,              1P2P S11,S21
! CAL METHOD:       	                     SOLT,                      SOLT
! CAL LINE TYPE:    	                     Coax,                      Coax
! DUT PORT 1:       	                N-Conn(M),                 N-Conn(M)
! DUT PORT 2:       	                N-Conn(M),                 N-Conn(M)
! CAL STATUS:       	        OK: Accuracy High,                        --
# GHZ S RI R 50.0
! FREQ.GHZ      S11RE         S11IM         S21RE         S21IM         S12RE         S12IM         S22RE         S22IM
  0.000100000  5.917700E-04 -6.038030E-02  6.810640E-05 -1.310940E-03  1.000000E+00  0.000000E+00  1.000000E+00  0.000000E+00
  0.000102475  2.987440E-03 -5.766930E-02 -4.532010E-04 -1.366680E-03  1.000000E+00  0.000000E+00  1.000000E+00  0.000000E+00
  0.000104950  3.198340E-03 -5.559200E-02 -7.255470E-05 -2.290120E-03  1.000000E+00  0.000000E+00  1.000000E+00  0.000000E+00
  0.000107425  5.593320E-03 -5.253860E-02 -2.833430E-06 -2.033400E-03  1.000000E+00  0.000000E+00  1.000000E+00  0.000000E+00
  0.000109900  6.707720E-03 -5.065370E-02  1.778760E-04 -1.904600E-03  1.000000E+00  0.000000E+00  1.000000E+00  0.000000E+00
  0.000112375  7.215490E-03 -4.930460E-02 -4.584820E-04 -2.506130E-03  1.000000E+00  0.000000E+00  1.000000E+00  0.000000E+00
  0.000114850  8.625230E-03 -4.754580E-02 -4.025000E-04 -2.649060E-03  1.000000E+00  0.000000E+00  1.000000E+00  0.000000E+00
  0.000117325  1.131850E-02 -4.531740E-02 -5.884970E-04 -1.577120E-03  1.000000E+00  0.000000E+00  1.000000E+00  0.000000E+00
  0.000119800  1.019490E-02 -4.380760E-02 -1.206600E-03 -2.244190E-03  1.000000E+00  0.000000E+00  1.000000E+00  0.000000E+00
  0.000122275  1.185780E-02 -4.205890E-02 -1.122680E-03 -9.149950E-04  1.000000E+00  0.000000E+00  1.000000E+00  0.000000E+00
  0.000124750  1.268370E-02 -4.138690E-02 -1.263200E-03 -2.171740E-03  1.000000E+00  0.000000E+00  1.000000E+00  0.000000E+00
  0.000127225  1.369450E-02 -4.034810E-02 -8.985950E-04 -2.405420E-03  1.000000E+00  0.000000E+00  1.000000E+00  0.000000E+00
  0.000129700  1.509360E-02 -3.698720E-02 -1.100950E-03 -1.358180E-03  1.000000E+00  0.000000E+00  1.000000E+00  0.000000E+00
  0.000132175  1.560910E-02 -3.678530E-02 -7.523840E-04 -2.971370E-04  1.000000E+00  0.000000E+00  1.000000E+00  0.000000E+00
  0.000134650  1.598240E-02 -3.644670E-02 -1.277610E-03 -1.259630E-03  1.000000E+00  0.000000E+00  1.000000E+00  0.000000E+00
  0.000137125  1.630840E-02 -3.423100E-02 -2.510120E-03 -1.743580E-03  1.000000E+00  0.000000E+00  1.000000E+00  0.000000E+00
  0.000139600  1.865350E-02 -3.450030E-02 -5.146030E-04 -1.397860E-03  1.000000E+00  0.000000E+00  1.000000E+00  0.000000E+00
  0.000142075  1.939130E-02 -3.303240E-02 -1.529540E-03 -1.738090E-03  1.000000E+00  0.000000E+00  1.000000E+00  0.000000E+00
  0.000144550  1.935900E-02 -3.229110E-02 -1.740870E-03 -1.334270E-03  1.000000E+00  0.000000E+00  1.000000E+00  0.000000E+00
  0.000147025  1.970280E-02 -3.121210E-02 -1.339290E-03 -1.583080E-03  1.000000E+00  0.000000E+00  1.000000E+00  0.000000E+00
  0.000149500  2.108410E-02 -3.000630E-02 -1.933390E-03 -1.912810E-03  1.000000E+00  0.000000E+00  1.000000E+00  0.000000E+00
  0.000151975  2.103930E-02 -3.031610E-02 -1.380910E-03 -6.604190E-04  1.000000E+00  0.000000E+00  1.000000E+00  0.000000E+00
  0.000154450  2.142790E-02 -2.697150E-02 -1.052710E-03 -3.098530E-05  1.000000E+00  0.000000E+00  1.000000E+00  0.000000E+00
  0.000156925  2.211280E-02 -2.701170E-02 -1.467210E-03 -8.801490E-04  1.000000E+00  0.000000E+00  1.000000E+00  0.000000E+00
  0.000159400  2.356220E-02 -2.692840E-02 -5.058460E-04 -2.903130E-04  1.000000E+00  0.000000E+00  1.000000E+00  0.000000E+00
  0.000161875  2.377360E-02 -2.803980E-02 -1.787120E-03 -2.426830E-04  1.000000E+00  0.000000E+00  1.000000E+00  0.000000E+00
  0.000164350  2.409400E-02 -2.590870E-02 -1.383390E-03 -8.374100E-04  1.000000E+00  0.000000E+00  1.000000E+00  0.000000E+00
  0.000166825  2.345760E-02 -2.562310E-02 -1.096000E-03 -9.078430E-04  1.000000E+00  0.000000E+00  1.000000E+00  0.000000E+00
  0.000169300  2.543220E-02 -2.485520E-02 -1.340760E-03 -1.137740E-03  1.000000E+00  0.000000E+00  1.000000E+00  0.000000E+00
  0.000171775  2.552670E-02 -2.308720E-02 -6.899450E-04 -3.957010E-04  1.000000E+00  0.000000E+00  1.000000E+00  0.000000E+00
  0.000174250  2.547970E-02 -2.243780E-02 -1.675080E-03  3.350570E-08  1.000000E+00  0.000000E+00  1.000000E+00  0.000000E+00
  0.000176725  2.588400E-02 -2.223370E-02 -7.362590E-04 -3.043720E-04  1.000000E+00  0.000000E+00  1.000000E+00  0.000000E+00
  0.000179200  2.627340E-02 -2.243500E-02 -4.002340E-04 -1.049580E-03  1.000000E+00  0.000000E+00  1.000000E+00  0.000000E+00
  0.000181675  2.615180E-02 -2.270480E-02 -1.905740E-03 -5.849940E-04  1.000000E+00  0.000000E+00  1.000000E+00  0.000000E+00
  0.000184150  2.730790E-02 -2.241400E-02 -9.755030E-04 -9.083540E-04  1.000000E+00  0.000000E+00  1.000000E+00  0.000000E+00
  0.000186625  2.799930E-02 -2.193160E-02 -3.307860E-04 -1.445190E-04  1.000000E+00  0.000000E+00  1.000000E+00  0.000000E+00
  0.000189100  2.776660E-02 -2.018310E-02 -1.547990E-03 -1.274540E-03  1.000000E+00  0.000000E+00  1.000000E+00  0.000000E+00
  0.000191575  2.627840E-02 -2.156170E-02 -1.208570E-03 -1.635600E-03  1.000000E+00  0.000000E+00  1.000000E+00  0.000000E+00
  0.000194050  2.797870E-02 -1.943210E-02 -3.872960E-04  3.432530E-04  1.000000E+00  0.000000E+00  1.000000E+00  0.000000E+00
  0.000196525  2.826200E-02 -1.969490E-02 -1.103720E-03  4.684860E-05  1.000000E+00  0.000000E+00  1.000000E+00  0.000000E+00
  0.000199000  2.935340E-02 -2.002870E-02 -4.848470E-04 -6.007060E-04  1.000000E+00  0.000000E+00  1.000000E+00  0.000000E+00
  0.000201475  2.938790E-02 -1.841770E-02 -1.538830E-03 -1.211390E-03  1.000000E+00  0.000000E+00  1.000000E+00  0.000000E+00
  0.000203950  2.830880E-02 -1.816370E-02 -9.050720E-04 -5.596690E-04  1.000000E+00  0.000000E+00  1.000000E+00  0.000000E+00
  0.000206425  2.945860E-02 -1.791780E-02 -9.791380E-04 -5.947070E-04  1.000000E+00  0.000000E+00  1.000000E+00  0.000000E+00
  0.000208900  2.995290E-02 -1.812720E-02 -1.605980E-03 -9.080780E-04  1.000000E+00  0.000000E+00  1.000000E+00  0.000000E+00
  0.000211375  3.014230E-02 -1.691340E-02 -1.609700E-03 -1.248490E-03  1.000000E+00  0.000000E+00  1.000000E+00  0.000000E+00
  0.000213850  2.953180E-02 -1.735210E-02 -8.265590E-04 -1.256610E-03  1.000000E+00  0.000000E+00  1.000000E+00  0.000000E+00
  0.000216325  2.959890E-02 -1.719090E-02 -1.606630E-03 -9.430150E-04  1.000000E+00  0.000000E+00  1.000000E+00  0.000000E+00
  0.000218800  3.025110E-02 -1.690330E-02 -1.172640E-03 -6.848400E-04  1.000000E+00  0.000000E+00  1.000000E+00  0.000000E+00
  0.000221275  3.211500E-02 -1.583210E-02 -1.145840E-03 -7.361270E-04  1.000000E+00  0.000000E+00  1.000000E+00  0.000000E+00
  0.000223750  3.038510E-02 -1.459830E-02 -1.710970E-03 -1.333970E-03  1.000000E+00  0.000000E+00  1.000000E+00  0.000000E+00
  0.000226225  3.199510E-02 -1.589910E-02 -1.264040E-03 -5.520110E-04  1.000000E+00  0.000000E+00  1.000000E+00  0.000000E+00
  0.000228700  3.068000E-02 -1.502230E-02 -1.477560E-03 -1.216330E-03  1.000000E+00  0.000000E+00  1.000000E+00  0.000000E+00
  0.000231175  3.191510E-02 -1.544510E-02 -8.177280E-04 -6.976700E-04  1.000000E+00  0.000000E+00  1.000000E+00  0.000000E+00
  0.000233650  3.140800E-02 -1.536590E-02 -1.882860E-03 -2.177110E-03  1.000000E+00  0.000000E+00  1.000000E+00  0.000000E+00
  0.000236125  3.011520E-02 -1.371320E-02 -1.030900E-03 -5.719100E-04  1.000000E+00  0.000000E+00  1.000000E+00  0.000000E+00
  0.000238600  3.148560E-02 -1.406620E-02 -2.069360E-03 -9.980140E-04  1.000000E+00  0.000000E+00  1.000000E+00  0.000000E+00
  0.000241075  3.168070E-02 -1.330850E-02 -8.502410E-04 -7.999560E-04  1.000000E+00  0.000000E+00  1.000000E+00  0.000000E+00
  0.000243550  3.169520E-02 -1.314060E-02 -2.093550E-03 -2.382570E-03  1.000000E+00  0.000000E+00  1.000000E+00  0.000000E+00
  0.000246025  3.171140E-02 -1.296590E-02 -8.082110E-04 -1.681580E-03  1.000000E+00  0.000000E+00  1.000000E+00  0.000000E+00
  0.000248500  3.224790E-02 -1.256760E-02 -1.743090E-03 -1.541030E-03  1.000000E+00  0.000000E+00  1.000000E+00  0.000000E+00
  0.000250975  3.317120E-02 -1.362500E-02 -6.769470E-04 -1.454290E-03  1.000000E+00  0.000000E+00  1.000000E+00  0.000000E+00
  0.000253450  3.145380E-02 -1.124670E-02 -1.915510E-03 -3.490690E-04  1.000000E+00  0.000000E+00  1.000000E+00  0.000000E+00
  0.000255925  3.166370E-02 -1.041330E-02 -2.371530E-03 -1.995310E-03  1.000000E+00  0.000000E+00  1.000000E+00  0.000000E+00
  0.000258400  3.312040E-02 -1.159980E-02 -1.213920E-03 -1.117830E-03  1.000000E+00  0.000000E+00  1.000000E+00  0.000000E+00
  0.000260875  3.405300E-02 -1.047650E-02 -1.255970E-03 -4.956350E-04  1.000000E+00  0.000000E+00  1.000000E+00  0.000000E+00
  0.000263350  3.297570E-02 -9.840050E-03 -2.447580E-03 -1.729530E-03  1.000000E+00  0.000000E+00  1.000000E+00  0.000000E+00
  0.000265825  3.278750E-02 -1.111440E-02 -2.658140E-03 -1.454710E-03  1.000000E+00  0.000000E+00  1.000000E+00  0.000000E+00
  0.000268300  3.337810E-02 -1.025060E-02 -1.562670E-03 -1.396490E-03  1.000000E+00  0.000000E+00  1.000000E+00  0.000000E+00
  0.000270775  3.366390E-02 -9.579950E-03 -1.666220E-03 -1.216390E-03  1.000000E+00  0.000000E+00  1.000000E+00  0.000000E+00
  0.000273250  3.310780E-02 -8.813850E-03 -1.097430E-03 -1.853410E-03  1.000000E+00  0.000000E+00  1.000000E+00  0.000000E+00
  0.000275725  3.406010E-02 -8.704160E-03 -3.594810E-03 -1.506500E-03  1.000000E+00  0.000000E+00  1.000000E+00  0.000000E+00
  0.000278200  3.399990E-02 -7.242030E-03 -1.811900E-03 -1.360330E-03  1.000000E+00  0.000000E+00  1.000000E+00  0.000000E+00
  0.000280675  3.498050E-02 -8.613160E-03 -2.092440E-03 -1.247710E-03  1.000000E+00  0.000000E+00  1.000000E+00  0.000000E+00
  0.000283150  3.363640E-02 -8.787550E-03 -2.795440E-03 -1.301780E-03  1.000000E+00  0.000000E+00  1.000000E+00  0.000000E+00
  0.000285625  3.413150E-02 -8.533330E-03 -4.584960E-03 -2.461950E-03  1.000000E+00  0.000000E+00  1.000000E+00  0.000000E+00
  0.000288100  3.394200E-02 -7.112880E-03 -2.431510E-03 -1.853100E-03  1.000000E+00  0.000000E+00  1.000000E+00  0.000000E+00
  0.000290575  3.528220E-02 -6.553030E-03 -1.342560E-03 -1.126890E-03  1.000000E+00  0.000000E+00  1.000000E+00  0.000000E+00
  0.000293050  3.581370E-02 -6.681320E-03 -2.471220E-03 -1.075660E-03  1.000000E+00  0.000000E+00  1.000000E+00  0.000000E+00
  0.000295525  3.559400E-02 -5.333880E-03 -5.199230E-03 -1.771560E-03  1.000000E+00  0.000000E+00  1.000000E+00  0.000000E+00
  0.000298000  3.449540E-02 -6.178000E-03 -5.188900E-03 -2.090730E-03  1.000000E+00  0.000000E+00  1.000000E+00  0.000000E+00
  0.000300475  3.549550E-02 -6.804700E-03 -2.806790E-03 -1.195930E-03  1.000000E+00  0.000000E+00  1.000000E+00  0.000000E+00
  0.000302950  3.532280E-02 -5.262010E-03 -2.561680E-03 -1.702460E-03  1.000000E+00  0.000000E+00  1.000000E+00  0.000000E+00
  0.000305425  3.499070E-02 -4.599400E-03 -3.604710E-03 -9.510310E-04  1.000000E+00  0.000000E+00  1.000000E+00  0.000000E+00
  0.000307900  3.641750E-02 -5.643190E-03 -7.773590E-03 -2.475910E-03  1.000000E+00  0.000000E+00  1.000000E+00  0.000000E+00
  0.000310375  3.639710E-02 -5.546350E-03 -2.867740E-03 -1.123020E-03  1.000000E+00  0.000000E+00  1.000000E+00  0.000000E+00
  0.000312850  3.631900E-02 -3.959890E-03 -2.553190E-03 -7.604570E-04  1.000000E+00  0.000000E+00  1.000000E+00  0.000000E+00
  0.000315325  3.561810E-02 -4.901540E-03 -3.844580E-03 -3.672920E-04  1.000000E+00  0.000000E+00  1.000000E+00  0.000000E+00
  0.000317800  3.786980E-02 -2.508770E-03 -1.139610E-02 -6.910030E-04  1.000000E+00  0.000000E+00  1.000000E+00  0.000000E+00
  0.000320275  3.597190E-02 -2.588220E-03 -3.723040E-03 -9.795260E-04  1.000000E+00  0.000000E+00  1.000000E+00  0.000000E+00
  0.000322750  3.713830E-02 -2.583090E-03 -3.026120E-03 -4.151890E-04  1.000000E+00  0.000000E+00  1.000000E+00  0.000000E+00
  0.000325225  3.647540E-02 -3.604580E-03 -4.558000E-03  3.343220E-04  1.000000E+00  0.000000E+00  1.000000E+00  0.000000E+00
  0.000327700  3.850480E-02 -2.923030E-03 -1.166170E-02  3.091280E-03  1.000000E+00  0.000000E+00  1.000000E+00  0.000000E+00
  0.000330175  3.872370E-02 -2.344720E-03 -7.450550E-03  2.898280E-03  1.000000E+00  0.000000E+00  1.000000E+00  0.000000E+00
  0.000332650  3.713720E-02 -1.787850E-03 -3.662450E-03 -1.195920E-03  1.000000E+00  0.000000E+00  1.000000E+00  0.000000E+00
  0.000335125  3.802800E-02 -2.493010E-03 -4.443930E-03 -7.741780E-05  1.000000E+00  0.000000E+00  1.000000E+00  0.000000E+00
  0.000337600  3.962230E-02 -3.569520E-03 -7.642460E-03  5.128360E-03  1.000000E+00  0.000000E+00  1.000000E+00  0.000000E+00
  0.000340075  4.101730E-02 -3.369420E-03 -7.594460E-03  1.061930E-02  1.000000E+00  0.000000E+00  1.000000E+00  0.000000E+00
  0.000342550  3.890640E-02 -1.831350E-03 -4.434250E-03 -1.315790E-05  1.000000E+00  0.000000E+00  1.000000E+00  0.000000E+00
  0.000345025  3.913030E-02 -1.815450E-03 -5.625500E-03  1.278000E-04  1.000000E+00  0.000000E+00  1.000000E+00  0.000000E+00
  0.000347500  3.959880E-02 -2.244560E-03 -6.212390E-03  3.969360E-03  1.000000E+00  0.000000E+00  1.000000E+00  0.000000E+00
  0.000349975  4.095450E-02 -2.177030E-03 -6.561330E-04  1.251580E-02  1.000000E+00  0.000000E+00  1.000000E+00  0.000000E+00
  0.000352450  4.045470E-02 -1.086030E-03 -6.161500E-03  3.708330E-04  1.000000E+00  0.000000E+00  1.000000E+00  0.000000E+00
  0.000354925  4.025530E-02  6.356080E-05 -6.375120E-03  6.412400E-04  1.000000E+00  0.000000E+00  1.000000E+00  0.000000E+00
  0.000357400  3.984610E-02 -1.445690E-03 -6.173580E-03  2.778630E-03  1.000000E+00  0.000000E+00  1.000000E+00  0.000000E+00
  0.000359875  4.130990E-02 -2.261570E-03  8.134320E-04  9.306900E-03  1.000000E+00  0.000000E+00  1.000000E+00  0.000000E+00
  0.000362350  4.129670E-02 -1.827740E-03 -3.919640E-03  4.173790E-03  1.000000E+00  0.000000E+00  1.000000E+00  0.000000E+00
  0.000364825  4.214880E-02  5.341760E-04 -6.823980E-03  3.360950E-03  1.000000E+00  0.000000E+00  1.000000E+00  0.000000E+00
  0.000367300  4.248710E-02 -2.609220E-03 -4.627120E-03  4.034000E-03  1.000000E+00  0.000000E+00  1.000000E+00  0.000000E+00
  0.000369775  4.183160E-02 -8.502030E-04 -4.480410E-04  7.481920E-03  1.000000E+00  0.000000E+00  1.000000E+00  0.000000E+00
  0.000372250  4.278780E-02 -1.326960E-03  4.551970E-04  6.654800E-03  1.000000E+00  0.000000E+00  1.000000E+00  0.000000E+00
  0.000374725  4.286820E-02 -3.385770E-04 -7.228110E-03  4.277300E-03  1.000000E+00  0.000000E+00  1.000000E+00  0.000000E+00
  0.000377200  4.362320E-02 -8.598000E-04 -4.710960E-03  7.402690E-03  1.000000E+00  0.000000E+00  1.000000E+00  0.000000E+00
  0.000379675  4.345610E-02 -1.548700E-03  7.614700E-04  6.814780E-03  1.000000E+00  0.000000E+00  1.000000E+00  0.000000E+00
  0.000382150  4.177460E-02 -1.975290E-03  2.005790E-03  5.336780E-03  1.000000E+00  0.000000E+00  1.000000E+00  0.000000E+00
  0.000384625  4.454960E-02 -1.468710E-03 -4.667950E-03  7.103200E-03  1.000000E+00  0.000000E+00  1.000000E+00  0.000000E+00
  0.000387100  4.211210E-02 -2.373660E-03 -2.328450E-03  8.922760E-03  1.000000E+00  0.000000E+00  1.000000E+00  0.000000E+00
  0.000389575  4.392300E-02 -9.966800E-04  1.979760E-04  7.649510E-03  1.000000E+00  0.000000E+00  1.000000E+00  0.000000E+00
  0.000392050  4.403280E-02 -7.469770E-04  2.845620E-03  4.666720E-03  1.000000E+00  0.000000E+00  1.000000E+00  0.000000E+00
  0.000394525  4.458740E-02 -9.146570E-04 -1.726860E-04  7.797640E-03  1.000000E+00  0.000000E+00  1.000000E+00  0.000000E+00
  0.000397000  4.404390E-02 -1.554660E-03  1.329370E-03  9.430170E-03  1.000000E+00  0.000000E+00  1.000000E+00  0.000000E+00
  0.000399475  4.507490E-02 -2.818710E-03  2.239250E-03  7.179410E-03  1.000000E+00  0.000000E+00  1.000000E+00  0.000000E+00
  0.000401950  4.480020E-02 -2.631830E-03  3.550430E-03  3.690200E-03  1.000000E+00  0.000000E+00  1.000000E+00  0.000000E+00
  0.000404425  4.644860E-02 -1.487470E-03  3.076940E-03  5.946630E-03  1.000000E+00  0.000000E+00  1.000000E+00  0.000000E+00
  0.000406900  4.582940E-02 -2.332540E-03  3.106520E-03  6.789960E-03  1.000000E+00  0.000000E+00  1.000000E+00  0.000000E+00
  0.000409375  4.486010E-02 -3.035050E-03  4.826060E-03  6.120570E-03  1.000000E+00  0.000000E+00  1.000000E+00  0.000000E+00
  0.000411850  4.552000E-02 -3.874750E-03  3.654430E-03  3.170550E-03  1.000000E+00  0.000000E+00  1.000000E+00  0.000000E+00
  0.000414325  4.529250E-02 -1.358100E-03  3.258780E-03  3.472520E-03  1.000000E+00  0.000000E+00  1.000000E+00  0.000000E+00
  0.000416800  4.583010E-02 -1.199160E-03  3.646200E-03  4.109790E-03  1.000000E+00  0.000000E+00  1.000000E+00  0.000000E+00
  0.000419275  4.539940E-02 -2.309500E-03  6.197040E-03  3.242360E-03  1.000000E+00  0.000000E+00  1.000000E+00  0.000000E+00
  0.000421750  4.628010E-02 -2.137110E-03  3.897860E-03  1.972040E-03  1.000000E+00  0.000000E+00  1.000000E+00  0.000000E+00
  0.000424225  4.609860E-02 -2.431430E-03  2.272860E-03  2.209520E-03  1.000000E+00  0.000000E+00  1.000000E+00  0.000000E+00
  0.000426700  4.660890E-02 -3.107740E-03  4.289090E-03  1.807520E-03  1.000000E+00  0.000000E+00  1.000000E+00  0.000000E+00
  0.000429175  4.590240E-02 -2.455680E-03  4.378680E-03  9.248130E-04  1.000000E+00  0.000000E+00  1.000000E+00  0.000000E+00
  0.000431650  4.761470E-02 -2.999150E-03  5.314870E-03  7.569390E-05  1.000000E+00  0.000000E+00  1.000000E+00  0.000000E+00
  0.000434125  4.711920E-02 -3.736430E-03  2.988660E-03  1.691210E-03  1.000000E+00  0.000000E+00  1.000000E+00  0.000000E+00
  0.000436600  4.539140E-02 -3.357460E-03  3.263030E-03  4.632890E-04  1.000000E+00  0.000000E+00  1.000000E+00  0.000000E+00
  0.000439075  4.621880E-02 -2.333910E-03  4.245710E-03 -1.003630E-03  1.000000E+00  0.000000E+00  1.000000E+00  0.000000E+00
  0.000441550  4.636330E-02 -2.123650E-03  4.583860E-03 -7.856790E-04  1.000000E+00  0.000000E+00  1.000000E+00  0.000000E+00
  0.000444025  4.530450E-02 -3.777050E-03  2.977000E-03 -4.501190E-04  1.000000E+00  0.000000E+00  1.000000E+00  0.000000E+00
  0.000446500  4.616440E-02 -3.281080E-03  1.774410E-03 -9.239710E-04  1.000000E+00  0.000000E+00  1.000000E+00  0.000000E+00
  0.000448975  4.670950E-02 -2.605120E-03  3.504120E-03 -1.684320E-03  1.000000E+00  0.000000E+00  1.000000E+00  0.000000E+00
  0.000451450  4.714180E-02 -3.330000E-03  3.921640E-03 -3.250550E-03  1.000000E+00  0.000000E+00  1.000000E+00  0.000000E+00
  0.000453925  4.603340E-02 -3.151570E-03  2.359650E-03 -2.416330E-03  1.000000E+00  0.000000E+00  1.000000E+00  0.000000E+00
