! Anritsu VNA Master:                        Model: MS2026C/19
! SN:                                  1815009
! /card0/usr/20180902_9.s2p
! Existing Calibration Information:
! TYPE:                         Current Settings,       Active Cal Settings
! TIME:             	   09/02/2018 12:40:15 PM,    09/02/2018 11:58:48 AM
! INTERNAL TEMP:    	                   53.3 C,                    48.8 C
! # POINTS:         	                     4001,                      4001
! START FREQ:       	              100.000 kHz,               100.000 kHz
! STOP FREQ:        	               10.000 MHz,                10.000 MHz
! SOURCE POWER:     	                      Low,                       Low
! IFBW:             	                   500 Hz,                    500 Hz
! AVG FACTOR:       	                       1 ,                        1 
! REF PLANE 1:      	                     0 mm,                      0 mm
! REF PLANE 2:      	                     0 mm,                      0 mm
! CAL TYPE:         	             1P2P S11,S21,              1P2P S11,S21
! CAL METHOD:       	                     SOLT,                      SOLT
! CAL LINE TYPE:    	                     Coax,                      Coax
! DUT PORT 1:       	                N-Conn(M),                 N-Conn(M)
! DUT PORT 2:       	                N-Conn(M),                 N-Conn(M)
! CAL STATUS:       	        OK: Accuracy High,                        --
# GHZ S RI R 50.0
! FREQ.GHZ      S11RE         S11IM         S21RE         S21IM         S12RE         S12IM         S22RE         S22IM
  0.000100000  2.877880E-04 -6.050230E-02  4.711240E-04 -1.892080E-03  1.000000E+00  0.000000E+00  1.000000E+00  0.000000E+00
  0.000102475  3.265920E-03 -5.692940E-02  9.205120E-04 -1.205060E-03  1.000000E+00  0.000000E+00  1.000000E+00  0.000000E+00
  0.000104950  3.421380E-03 -5.393870E-02 -1.480170E-03 -2.481440E-03  1.000000E+00  0.000000E+00  1.000000E+00  0.000000E+00
  0.000107425  5.029090E-03 -5.415800E-02 -8.234140E-04 -2.363590E-03  1.000000E+00  0.000000E+00  1.000000E+00  0.000000E+00
  0.000109900  6.144740E-03 -5.184870E-02 -3.555310E-04 -3.322910E-03  1.000000E+00  0.000000E+00  1.000000E+00  0.000000E+00
  0.000112375  8.285960E-03 -4.940210E-02 -1.603770E-04 -2.707390E-03  1.000000E+00  0.000000E+00  1.000000E+00  0.000000E+00
  0.000114850  8.633020E-03 -4.746520E-02  6.800000E-06 -1.539280E-03  1.000000E+00  0.000000E+00  1.000000E+00  0.000000E+00
  0.000117325  1.090140E-02 -4.677040E-02 -2.058150E-03 -1.988550E-03  1.000000E+00  0.000000E+00  1.000000E+00  0.000000E+00
  0.000119800  1.160270E-02 -4.387180E-02 -2.203030E-03 -6.141520E-04  1.000000E+00  0.000000E+00  1.000000E+00  0.000000E+00
  0.000122275  1.240330E-02 -4.079640E-02 -1.421270E-03 -2.173480E-03  1.000000E+00  0.000000E+00  1.000000E+00  0.000000E+00
  0.000124750  1.277590E-02 -4.135560E-02 -7.017190E-04 -1.386950E-03  1.000000E+00  0.000000E+00  1.000000E+00  0.000000E+00
  0.000127225  1.276830E-02 -4.022840E-02 -5.695130E-04 -1.145260E-03  1.000000E+00  0.000000E+00  1.000000E+00  0.000000E+00
  0.000129700  1.462340E-02 -3.761980E-02 -1.820520E-03 -4.351660E-04  1.000000E+00  0.000000E+00  1.000000E+00  0.000000E+00
  0.000132175  1.548210E-02 -3.849210E-02 -1.093760E-03 -2.357210E-03  1.000000E+00  0.000000E+00  1.000000E+00  0.000000E+00
  0.000134650  1.627350E-02 -3.751360E-02 -1.501300E-03 -1.429850E-03  1.000000E+00  0.000000E+00  1.000000E+00  0.000000E+00
  0.000137125  1.653280E-02 -3.509870E-02 -1.488230E-03  5.692210E-04  1.000000E+00  0.000000E+00  1.000000E+00  0.000000E+00
  0.000139600  1.828070E-02 -3.435880E-02 -2.745080E-03 -7.467300E-04  1.000000E+00  0.000000E+00  1.000000E+00  0.000000E+00
  0.000142075  1.835810E-02 -3.294950E-02 -1.537280E-03 -1.343680E-03  1.000000E+00  0.000000E+00  1.000000E+00  0.000000E+00
  0.000144550  1.936880E-02 -3.309440E-02 -1.760900E-03  8.796960E-04  1.000000E+00  0.000000E+00  1.000000E+00  0.000000E+00
  0.000147025  2.048820E-02 -3.103080E-02 -9.822990E-04 -9.194830E-04  1.000000E+00  0.000000E+00  1.000000E+00  0.000000E+00
  0.000149500  2.133760E-02 -3.076240E-02 -1.121030E-03 -2.021730E-03  1.000000E+00  0.000000E+00  1.000000E+00  0.000000E+00
  0.000151975  2.136340E-02 -2.895640E-02 -6.007430E-04 -2.012510E-04  1.000000E+00  0.000000E+00  1.000000E+00  0.000000E+00
  0.000154450  2.167630E-02 -2.800820E-02 -2.233060E-03 -6.416540E-04  1.000000E+00  0.000000E+00  1.000000E+00  0.000000E+00
  0.000156925  2.306140E-02 -2.723500E-02  5.014270E-04 -2.074500E-03  1.000000E+00  0.000000E+00  1.000000E+00  0.000000E+00
  0.000159400  2.223530E-02 -2.644900E-02 -5.505270E-04 -9.905600E-04  1.000000E+00  0.000000E+00  1.000000E+00  0.000000E+00
  0.000161875  2.307370E-02 -2.745840E-02 -1.074580E-03 -1.257400E-03  1.000000E+00  0.000000E+00  1.000000E+00  0.000000E+00
  0.000164350  2.464420E-02 -2.643130E-02 -1.059510E-03 -1.360760E-03  1.000000E+00  0.000000E+00  1.000000E+00  0.000000E+00
  0.000166825  2.407760E-02 -2.544520E-02  2.811050E-04 -1.589490E-03  1.000000E+00  0.000000E+00  1.000000E+00  0.000000E+00
  0.000169300  2.425720E-02 -2.454160E-02  4.217660E-04  5.150650E-04  1.000000E+00  0.000000E+00  1.000000E+00  0.000000E+00
  0.000171775  2.510360E-02 -2.203250E-02 -6.854640E-04 -3.485970E-04  1.000000E+00  0.000000E+00  1.000000E+00  0.000000E+00
  0.000174250  2.538800E-02 -2.325400E-02 -2.256830E-03 -7.479910E-04  1.000000E+00  0.000000E+00  1.000000E+00  0.000000E+00
  0.000176725  2.559280E-02 -2.261400E-02 -6.163510E-04 -1.691780E-03  1.000000E+00  0.000000E+00  1.000000E+00  0.000000E+00
  0.000179200  2.704250E-02 -2.293670E-02  8.807370E-04 -1.835140E-03  1.000000E+00  0.000000E+00  1.000000E+00  0.000000E+00
  0.000181675  2.598860E-02 -2.251390E-02  5.850300E-04 -1.667380E-03  1.000000E+00  0.000000E+00  1.000000E+00  0.000000E+00
  0.000184150  2.744890E-02 -2.155840E-02 -1.831200E-03 -1.392520E-03  1.000000E+00  0.000000E+00  1.000000E+00  0.000000E+00
  0.000186625  2.863630E-02 -2.017270E-02 -1.328940E-03 -4.866290E-04  1.000000E+00  0.000000E+00  1.000000E+00  0.000000E+00
  0.000189100  2.740670E-02 -2.019410E-02 -5.207050E-04 -4.805210E-04  1.000000E+00  0.000000E+00  1.000000E+00  0.000000E+00
  0.000191575  2.652960E-02 -2.073010E-02 -6.130320E-04 -9.563110E-04  1.000000E+00  0.000000E+00  1.000000E+00  0.000000E+00
  0.000194050  2.787610E-02 -2.102870E-02 -1.823020E-03 -5.528860E-04  1.000000E+00  0.000000E+00  1.000000E+00  0.000000E+00
  0.000196525  2.846740E-02 -1.854920E-02 -1.452550E-03 -8.216330E-04  1.000000E+00  0.000000E+00  1.000000E+00  0.000000E+00
  0.000199000  2.908520E-02 -1.912250E-02 -2.686810E-03 -6.236870E-04  1.000000E+00  0.000000E+00  1.000000E+00  0.000000E+00
  0.000201475  3.038240E-02 -1.866080E-02 -1.278790E-03 -7.815630E-04  1.000000E+00  0.000000E+00  1.000000E+00  0.000000E+00
  0.000203950  2.893600E-02 -1.865210E-02 -9.193910E-04 -2.556880E-04  1.000000E+00  0.000000E+00  1.000000E+00  0.000000E+00
  0.000206425  2.841740E-02 -1.766790E-02 -1.960210E-03 -1.359980E-03  1.000000E+00  0.000000E+00  1.000000E+00  0.000000E+00
  0.000208900  3.065060E-02 -1.889180E-02 -5.915720E-04 -8.383160E-04  1.000000E+00  0.000000E+00  1.000000E+00  0.000000E+00
  0.000211375  3.044470E-02 -1.692800E-02 -1.340690E-03 -8.563780E-04  1.000000E+00  0.000000E+00  1.000000E+00  0.000000E+00
  0.000213850  2.929870E-02 -1.670210E-02 -3.303650E-04 -8.777040E-04  1.000000E+00  0.000000E+00  1.000000E+00  0.000000E+00
  0.000216325  2.967080E-02 -1.608620E-02 -1.140710E-03 -1.058590E-03  1.000000E+00  0.000000E+00  1.000000E+00  0.000000E+00
  0.000218800  3.037800E-02 -1.623830E-02 -1.000610E-03 -4.923690E-05  1.000000E+00  0.000000E+00  1.000000E+00  0.000000E+00
  0.000221275  3.103140E-02 -1.658130E-02  3.151830E-04 -2.123970E-04  1.000000E+00  0.000000E+00  1.000000E+00  0.000000E+00
  0.000223750  2.963420E-02 -1.652950E-02 -1.607640E-03  6.848060E-04  1.000000E+00  0.000000E+00  1.000000E+00  0.000000E+00
  0.000226225  3.228910E-02 -1.446360E-02 -2.563930E-03 -2.119980E-03  1.000000E+00  0.000000E+00  1.000000E+00  0.000000E+00
  0.000228700  2.944520E-02 -1.596130E-02 -1.306420E-03 -7.786330E-04  1.000000E+00  0.000000E+00  1.000000E+00  0.000000E+00
  0.000231175  3.112250E-02 -1.396870E-02 -1.446040E-03 -1.672370E-03  1.000000E+00  0.000000E+00  1.000000E+00  0.000000E+00
  0.000233650  3.119820E-02 -1.476400E-02 -1.532430E-03 -1.340430E-03  1.000000E+00  0.000000E+00  1.000000E+00  0.000000E+00
  0.000236125  3.057910E-02 -1.333960E-02 -1.933050E-03 -1.544640E-03  1.000000E+00  0.000000E+00  1.000000E+00  0.000000E+00
  0.000238600  3.184240E-02 -1.411600E-02 -1.541660E-03 -1.890960E-03  1.000000E+00  0.000000E+00  1.000000E+00  0.000000E+00
  0.000241075  3.173720E-02 -1.334290E-02 -7.556250E-04  8.153000E-04  1.000000E+00  0.000000E+00  1.000000E+00  0.000000E+00
  0.000243550  3.039530E-02 -1.314510E-02 -2.168290E-03 -3.217840E-04  1.000000E+00  0.000000E+00  1.000000E+00  0.000000E+00
  0.000246025  3.249570E-02 -1.224940E-02 -8.909090E-04  4.844850E-04  1.000000E+00  0.000000E+00  1.000000E+00  0.000000E+00
  0.000248500  3.271560E-02 -1.276870E-02 -2.042350E-03 -2.168380E-03  1.000000E+00  0.000000E+00  1.000000E+00  0.000000E+00
  0.000250975  3.180700E-02 -1.369310E-02 -1.198080E-03 -6.056490E-04  1.000000E+00  0.000000E+00  1.000000E+00  0.000000E+00
  0.000253450  3.202050E-02 -1.127190E-02 -7.105160E-04  8.944320E-04  1.000000E+00  0.000000E+00  1.000000E+00  0.000000E+00
  0.000255925  3.237650E-02 -1.083620E-02 -2.102530E-04 -1.481570E-03  1.000000E+00  0.000000E+00  1.000000E+00  0.000000E+00
  0.000258400  3.252680E-02 -1.116460E-02 -2.263040E-03 -8.831610E-04  1.000000E+00  0.000000E+00  1.000000E+00  0.000000E+00
  0.000260875  3.366440E-02 -1.008920E-02 -1.612660E-03 -9.296750E-04  1.000000E+00  0.000000E+00  1.000000E+00  0.000000E+00
  0.000263350  3.203620E-02 -1.025550E-02 -2.128370E-03 -2.110110E-03  1.000000E+00  0.000000E+00  1.000000E+00  0.000000E+00
  0.000265825  3.225200E-02 -9.392100E-03 -6.688120E-04 -1.505970E-03  1.000000E+00  0.000000E+00  1.000000E+00  0.000000E+00
  0.000268300  3.374230E-02 -9.434190E-03 -2.687680E-03 -1.781750E-03  1.000000E+00  0.000000E+00  1.000000E+00  0.000000E+00
  0.000270775  3.271590E-02 -7.492820E-03 -3.089820E-03 -2.130030E-03  1.000000E+00  0.000000E+00  1.000000E+00  0.000000E+00
  0.000273250  3.377180E-02 -8.498450E-03 -1.131480E-03  2.062870E-05  1.000000E+00  0.000000E+00  1.000000E+00  0.000000E+00
  0.000275725  3.387780E-02 -9.428190E-03 -1.079830E-03 -5.597400E-04  1.000000E+00  0.000000E+00  1.000000E+00  0.000000E+00
  0.000278200  3.434900E-02 -7.843150E-03 -2.416440E-03 -1.539420E-03  1.000000E+00  0.000000E+00  1.000000E+00  0.000000E+00
  0.000280675  3.480680E-02 -8.474080E-03 -2.862660E-03 -3.056600E-03  1.000000E+00  0.000000E+00  1.000000E+00  0.000000E+00
  0.000283150  3.485680E-02 -8.673930E-03 -9.408570E-04 -2.791060E-04  1.000000E+00  0.000000E+00  1.000000E+00  0.000000E+00
  0.000285625  3.462430E-02 -8.699350E-03 -1.002900E-03 -7.370930E-04  1.000000E+00  0.000000E+00  1.000000E+00  0.000000E+00
  0.000288100  3.252110E-02 -7.403870E-03 -2.261740E-03 -8.735240E-05  1.000000E+00  0.000000E+00  1.000000E+00  0.000000E+00
  0.000290575  3.430710E-02 -5.476280E-03 -5.532820E-03 -1.504260E-03  1.000000E+00  0.000000E+00  1.000000E+00  0.000000E+00
  0.000293050  3.477970E-02 -6.649890E-03 -2.819580E-03 -2.074760E-03  1.000000E+00  0.000000E+00  1.000000E+00  0.000000E+00
  0.000295525  3.470020E-02 -5.520780E-03 -2.317060E-03 -1.405400E-03  1.000000E+00  0.000000E+00  1.000000E+00  0.000000E+00
  0.000298000  3.336800E-02 -7.651160E-03 -2.713650E-03 -1.094130E-03  1.000000E+00  0.000000E+00  1.000000E+00  0.000000E+00
  0.000300475  3.667360E-02 -6.281950E-03 -5.934260E-03 -1.170240E-03  1.000000E+00  0.000000E+00  1.000000E+00  0.000000E+00
  0.000302950  3.529850E-02 -5.479520E-03 -6.015320E-03 -1.504630E-03  1.000000E+00  0.000000E+00  1.000000E+00  0.000000E+00
  0.000305425  3.595290E-02 -3.908090E-03 -1.721080E-03 -1.147730E-03  1.000000E+00  0.000000E+00  1.000000E+00  0.000000E+00
  0.000307900  3.480220E-02 -4.837030E-03 -3.686390E-03 -5.626560E-04  1.000000E+00  0.000000E+00  1.000000E+00  0.000000E+00
  0.000310375  3.702270E-02 -6.196390E-03 -4.792560E-03 -2.194630E-03  1.000000E+00  0.000000E+00  1.000000E+00  0.000000E+00
  0.000312850  3.736220E-02 -3.887800E-03 -8.542180E-03 -1.750840E-03  1.000000E+00  0.000000E+00  1.000000E+00  0.000000E+00
  0.000315325  3.529310E-02 -4.750340E-03 -2.595880E-03 -2.270020E-04  1.000000E+00  0.000000E+00  1.000000E+00  0.000000E+00
  0.000317800  3.633530E-02 -2.481850E-03 -2.794880E-03  1.254870E-03  1.000000E+00  0.000000E+00  1.000000E+00  0.000000E+00
  0.000320275  3.565700E-02 -2.841300E-03 -4.208490E-03 -8.475350E-04  1.000000E+00  0.000000E+00  1.000000E+00  0.000000E+00
  0.000322750  3.748700E-02 -2.399840E-03 -1.124700E-02  1.064550E-03  1.000000E+00  0.000000E+00  1.000000E+00  0.000000E+00
  0.000325225  3.700000E-02 -1.363070E-03 -5.708030E-03  3.448330E-04  1.000000E+00  0.000000E+00  1.000000E+00  0.000000E+00
  0.000327700  3.672890E-02 -2.405040E-03 -4.175930E-03 -2.099920E-04  1.000000E+00  0.000000E+00  1.000000E+00  0.000000E+00
  0.000330175  3.788110E-02 -2.997750E-03 -3.974460E-03  9.980630E-04  1.000000E+00  0.000000E+00  1.000000E+00  0.000000E+00
  0.000332650  3.705490E-02 -2.260740E-03 -1.050730E-02  3.895660E-03  1.000000E+00  0.000000E+00  1.000000E+00  0.000000E+00
  0.000335125  3.960810E-02 -1.250510E-03 -9.719270E-03  5.318520E-03  1.000000E+00  0.000000E+00  1.000000E+00  0.000000E+00
  0.000337600  3.904520E-02 -1.741830E-03 -4.016110E-03 -8.065810E-04  1.000000E+00  0.000000E+00  1.000000E+00  0.000000E+00
  0.000340075  3.994460E-02 -1.890620E-03 -5.405690E-03  9.809569E-04  1.000000E+00  0.000000E+00  1.000000E+00  0.000000E+00
  0.000342550  3.957780E-02 -1.410440E-03 -5.002000E-03  4.954280E-03  1.000000E+00  0.000000E+00  1.000000E+00  0.000000E+00
  0.000345025  4.121340E-02 -3.411740E-03 -4.852210E-03  1.344220E-02  1.000000E+00  0.000000E+00  1.000000E+00  0.000000E+00
  0.000347500  3.872160E-02 -3.374110E-03 -5.743100E-03  2.833800E-04  1.000000E+00  0.000000E+00  1.000000E+00  0.000000E+00
  0.000349975  4.142280E-02 -4.781160E-04 -5.343150E-03  1.679280E-03  1.000000E+00  0.000000E+00  1.000000E+00  0.000000E+00
  0.000352450  4.155090E-02 -1.646030E-03 -6.713640E-03  3.100200E-03  1.000000E+00  0.000000E+00  1.000000E+00  0.000000E+00
  0.000354925  4.103050E-02 -1.993920E-03  1.190630E-03  9.526310E-03  1.000000E+00  0.000000E+00  1.000000E+00  0.000000E+00
  0.000357400  4.076430E-02 -3.241550E-04 -5.674540E-03  3.041860E-03  1.000000E+00  0.000000E+00  1.000000E+00  0.000000E+00
  0.000359875  4.159870E-02  3.887070E-04 -7.118220E-03  5.331380E-04  1.000000E+00  0.000000E+00  1.000000E+00  0.000000E+00
  0.000362350  4.119300E-02 -4.227430E-04 -5.760650E-03  3.709450E-03  1.000000E+00  0.000000E+00  1.000000E+00  0.000000E+00
  0.000364825  4.124060E-02 -1.083140E-03 -1.006230E-04  7.398980E-03  1.000000E+00  0.000000E+00  1.000000E+00  0.000000E+00
  0.000367300  4.244000E-02 -1.531980E-03 -2.608830E-03  5.922510E-03  1.000000E+00  0.000000E+00  1.000000E+00  0.000000E+00
  0.000369775  4.308170E-02 -3.193050E-04 -6.781740E-03  3.566250E-03  1.000000E+00  0.000000E+00  1.000000E+00  0.000000E+00
  0.000372250  4.278460E-02 -1.066490E-03 -5.411710E-03  5.234590E-03  1.000000E+00  0.000000E+00  1.000000E+00  0.000000E+00
  0.000374725  4.299610E-02 -3.226990E-04  5.987340E-04  6.667440E-03  1.000000E+00  0.000000E+00  1.000000E+00  0.000000E+00
  0.000377200  4.192030E-02 -3.255480E-04  5.501040E-04  5.790390E-03  1.000000E+00  0.000000E+00  1.000000E+00  0.000000E+00
  0.000379675  4.482070E-02 -9.615500E-04 -4.969850E-03  5.435130E-03  1.000000E+00  0.000000E+00  1.000000E+00  0.000000E+00
  0.000382150  4.257610E-02 -1.427470E-03 -4.353960E-03  7.697320E-03  1.000000E+00  0.000000E+00  1.000000E+00  0.000000E+00
  0.000384625  4.396340E-02 -1.338650E-03 -2.239410E-04  8.340820E-03  1.000000E+00  0.000000E+00  1.000000E+00  0.000000E+00
  0.000387100  4.293050E-02 -2.080510E-03  1.801790E-03  5.339220E-03  1.000000E+00  0.000000E+00  1.000000E+00  0.000000E+00
  0.000389575  4.334700E-02 -2.450690E-03 -2.424510E-03  8.937940E-03  1.000000E+00  0.000000E+00  1.000000E+00  0.000000E+00
  0.000392050  4.456080E-02 -2.864540E-04  1.980060E-04  1.000760E-02  1.000000E+00  0.000000E+00  1.000000E+00  0.000000E+00
  0.000394525  4.480270E-02 -3.264580E-03  1.499850E-03  7.452750E-03  1.000000E+00  0.000000E+00  1.000000E+00  0.000000E+00
  0.000397000  4.389980E-02 -1.459200E-03  3.536030E-03  3.080650E-03  1.000000E+00  0.000000E+00  1.000000E+00  0.000000E+00
  0.000399475  4.546630E-02 -1.359850E-03  2.263400E-03  7.105220E-03  1.000000E+00  0.000000E+00  1.000000E+00  0.000000E+00
  0.000401950  4.534750E-02 -2.274590E-03  3.313500E-03  7.326440E-03  1.000000E+00  0.000000E+00  1.000000E+00  0.000000E+00
  0.000404425  4.590200E-02 -1.572160E-03  3.984150E-03  5.939370E-03  1.000000E+00  0.000000E+00  1.000000E+00  0.000000E+00
  0.000406900  4.509590E-02 -2.873520E-03  4.516890E-03  4.321470E-03  1.000000E+00  0.000000E+00  1.000000E+00  0.000000E+00
  0.000409375  4.564660E-02 -2.270850E-03  3.654090E-03  3.358080E-03  1.000000E+00  0.000000E+00  1.000000E+00  0.000000E+00
  0.000411850  4.547540E-02 -3.313990E-03  3.743470E-03  6.506430E-03  1.000000E+00  0.000000E+00  1.000000E+00  0.000000E+00
  0.000414325  4.652030E-02 -5.842600E-04  6.736610E-03  2.972870E-03  1.000000E+00  0.000000E+00  1.000000E+00  0.000000E+00
  0.000416800  4.587740E-02 -1.504870E-03  5.449250E-03  1.962230E-03  1.000000E+00  0.000000E+00  1.000000E+00  0.000000E+00
  0.000419275  4.639850E-02 -3.778390E-03  2.714480E-03  1.388030E-03  1.000000E+00  0.000000E+00  1.000000E+00  0.000000E+00
  0.000421750  4.761560E-02 -1.952540E-03  5.440150E-03  1.949180E-03  1.000000E+00  0.000000E+00  1.000000E+00  0.000000E+00
  0.000424225  4.598920E-02 -1.012810E-03  5.501610E-03  2.336730E-03  1.000000E+00  0.000000E+00  1.000000E+00  0.000000E+00
  0.000426700  4.558130E-02 -1.935370E-03  4.797460E-03  1.508070E-03  1.000000E+00  0.000000E+00  1.000000E+00  0.000000E+00
  0.000429175  4.459480E-02 -3.744870E-03  1.970580E-03  1.977970E-03  1.000000E+00  0.000000E+00  1.000000E+00  0.000000E+00
  0.000431650  4.554020E-02 -2.028450E-03  5.890950E-03  3.942980E-04  1.000000E+00  0.000000E+00  1.000000E+00  0.000000E+00
  0.000434125  4.679460E-02 -2.680150E-03  6.056180E-03  4.322130E-04  1.000000E+00  0.000000E+00  1.000000E+00  0.000000E+00
  0.000436600  4.530950E-02 -2.580580E-03  5.356670E-03 -1.077170E-03  1.000000E+00  0.000000E+00  1.000000E+00  0.000000E+00
  0.000439075  4.620900E-02 -2.060250E-03  2.730100E-03 -4.084800E-05  1.000000E+00  0.000000E+00  1.000000E+00  0.000000E+00
  0.000441550  4.603730E-02 -3.089260E-03  3.703630E-03 -1.186850E-03  1.000000E+00  0.000000E+00  1.000000E+00  0.000000E+00
  0.000444025  4.731300E-02 -2.826720E-03  4.313920E-03 -1.169370E-03  1.000000E+00  0.000000E+00  1.000000E+00  0.000000E+00
  0.000446500  4.696390E-02 -2.483570E-03  3.675970E-03 -2.440280E-03  1.000000E+00  0.000000E+00  1.000000E+00  0.000000E+00
  0.000448975  4.745650E-02 -2.902120E-03  2.328930E-03 -2.700320E-03  1.000000E+00  0.000000E+00  1.000000E+00  0.000000E+00
  0.000451450  4.602320E-02 -4.094540E-03  2.329680E-03 -8.229280E-04  1.000000E+00  0.000000E+00  1.000000E+00  0.000000E+00
  0.000453925  4.542660E-02 -3.054000E-03  1.473140E-03 -2.610060E-03  1.000000E+00  0.000000E+00  1.000000E+00  0.000000E+00
