! Anritsu VNA Master:                        Model: MS2026C/19
! SN:                                  1815009
! /card0/usr/20180902_0.s2p
! Existing Calibration Information:
! TYPE:                         Current Settings,       Active Cal Settings
! TIME:             	   09/02/2018 12:25:52 PM,    09/02/2018 11:58:48 AM
! INTERNAL TEMP:    	                   52.0 C,                    48.8 C
! # POINTS:         	                     4001,                      4001
! START FREQ:       	              100.000 kHz,               100.000 kHz
! STOP FREQ:        	               10.000 MHz,                10.000 MHz
! SOURCE POWER:     	                      Low,                       Low
! IFBW:             	                   500 Hz,                    500 Hz
! AVG FACTOR:       	                       5 ,                        1 
! REF PLANE 1:      	                     0 mm,                      0 mm
! REF PLANE 2:      	                     0 mm,                      0 mm
! CAL TYPE:         	             1P2P S11,S21,              1P2P S11,S21
! CAL METHOD:       	                     SOLT,                      SOLT
! CAL LINE TYPE:    	                     Coax,                      Coax
! DUT PORT 1:       	                N-Conn(M),                 N-Conn(M)
! DUT PORT 2:       	                N-Conn(M),                 N-Conn(M)
! CAL STATUS:       	        OK: Accuracy High,                        --
# GHZ S RI R 50.0
! FREQ.GHZ      S11RE         S11IM         S21RE         S21IM         S12RE         S12IM         S22RE         S22IM
  0.000100000  2.947330E-03 -5.774270E-02  1.680810E+00  4.474740E+00  1.000000E+00  0.000000E+00  1.000000E+00  0.000000E+00
  0.000102475  4.869690E-03 -5.501960E-02  1.830020E+00  4.429900E+00  1.000000E+00  0.000000E+00  1.000000E+00  0.000000E+00
  0.000104950  5.177940E-03 -5.255530E-02  1.982950E+00  4.382270E+00  1.000000E+00  0.000000E+00  1.000000E+00  0.000000E+00
  0.000107425  7.387470E-03 -5.040720E-02  2.119050E+00  4.320060E+00  1.000000E+00  0.000000E+00  1.000000E+00  0.000000E+00
  0.000109900  8.548530E-03 -4.835200E-02  2.254310E+00  4.270740E+00  1.000000E+00  0.000000E+00  1.000000E+00  0.000000E+00
  0.000112375  9.736570E-03 -4.687880E-02  2.388610E+00  4.206200E+00  1.000000E+00  0.000000E+00  1.000000E+00  0.000000E+00
  0.000114850  1.074350E-02 -4.528520E-02  2.505280E+00  4.147960E+00  1.000000E+00  0.000000E+00  1.000000E+00  0.000000E+00
  0.000117325  1.249920E-02 -4.344760E-02  2.611470E+00  4.071010E+00  1.000000E+00  0.000000E+00  1.000000E+00  0.000000E+00
  0.000119800  1.332710E-02 -4.165310E-02  2.723080E+00  4.011050E+00  1.000000E+00  0.000000E+00  1.000000E+00  0.000000E+00
  0.000122275  1.414030E-02 -3.910590E-02  2.828400E+00  3.951670E+00  1.000000E+00  0.000000E+00  1.000000E+00  0.000000E+00
  0.000124750  1.460350E-02 -3.872370E-02  2.929420E+00  3.880180E+00  1.000000E+00  0.000000E+00  1.000000E+00  0.000000E+00
  0.000127225  1.530490E-02 -3.795290E-02  3.026790E+00  3.822310E+00  1.000000E+00  0.000000E+00  1.000000E+00  0.000000E+00
  0.000129700  1.564210E-02 -3.491760E-02  3.119080E+00  3.752080E+00  1.000000E+00  0.000000E+00  1.000000E+00  0.000000E+00
  0.000132175  1.811070E-02 -3.501540E-02  3.208560E+00  3.699930E+00  1.000000E+00  0.000000E+00  1.000000E+00  0.000000E+00
  0.000134650  1.825180E-02 -3.497440E-02  3.281500E+00  3.622870E+00  1.000000E+00  0.000000E+00  1.000000E+00  0.000000E+00
  0.000137125  1.907210E-02 -3.290790E-02  3.359300E+00  3.563020E+00  1.000000E+00  0.000000E+00  1.000000E+00  0.000000E+00
  0.000139600  2.032800E-02 -3.207470E-02  3.438140E+00  3.496530E+00  1.000000E+00  0.000000E+00  1.000000E+00  0.000000E+00
  0.000142075  2.155210E-02 -3.157450E-02  3.506490E+00  3.429290E+00  1.000000E+00  0.000000E+00  1.000000E+00  0.000000E+00
  0.000144550  2.169820E-02 -3.014200E-02  3.563750E+00  3.352710E+00  1.000000E+00  0.000000E+00  1.000000E+00  0.000000E+00
  0.000147025  2.218240E-02 -2.889040E-02  3.626400E+00  3.291340E+00  1.000000E+00  0.000000E+00  1.000000E+00  0.000000E+00
  0.000149500  2.398750E-02 -2.825690E-02  3.684640E+00  3.221250E+00  1.000000E+00  0.000000E+00  1.000000E+00  0.000000E+00
  0.000151975  2.337380E-02 -2.861960E-02  3.729700E+00  3.162360E+00  1.000000E+00  0.000000E+00  1.000000E+00  0.000000E+00
  0.000154450  2.384330E-02 -2.595830E-02  3.779210E+00  3.097410E+00  1.000000E+00  0.000000E+00  1.000000E+00  0.000000E+00
  0.000156925  2.530190E-02 -2.565250E-02  3.850990E+00  3.045270E+00  1.000000E+00  0.000000E+00  1.000000E+00  0.000000E+00
  0.000159400  2.444330E-02 -2.480990E-02  3.883550E+00  2.976870E+00  1.000000E+00  0.000000E+00  1.000000E+00  0.000000E+00
  0.000161875  2.574220E-02 -2.544250E-02  3.932820E+00  2.924610E+00  1.000000E+00  0.000000E+00  1.000000E+00  0.000000E+00
  0.000164350  2.687580E-02 -2.487840E-02  3.982310E+00  2.861820E+00  1.000000E+00  0.000000E+00  1.000000E+00  0.000000E+00
  0.000166825  2.660620E-02 -2.359880E-02  4.025000E+00  2.790720E+00  1.000000E+00  0.000000E+00  1.000000E+00  0.000000E+00
  0.000169300  2.770360E-02 -2.372320E-02  4.060590E+00  2.750970E+00  1.000000E+00  0.000000E+00  1.000000E+00  0.000000E+00
  0.000171775  2.788350E-02 -2.237950E-02  4.101780E+00  2.684220E+00  1.000000E+00  0.000000E+00  1.000000E+00  0.000000E+00
  0.000174250  2.758800E-02 -2.149780E-02  4.132060E+00  2.639790E+00  1.000000E+00  0.000000E+00  1.000000E+00  0.000000E+00
  0.000176725  2.896340E-02 -2.108370E-02  4.164400E+00  2.586650E+00  1.000000E+00  0.000000E+00  1.000000E+00  0.000000E+00
  0.000179200  2.909880E-02 -2.136760E-02  4.202100E+00  2.525530E+00  1.000000E+00  0.000000E+00  1.000000E+00  0.000000E+00
  0.000181675  2.887810E-02 -2.108180E-02  4.239640E+00  2.481750E+00  1.000000E+00  0.000000E+00  1.000000E+00  0.000000E+00
  0.000184150  2.954390E-02 -1.960650E-02  4.275160E+00  2.416230E+00  1.000000E+00  0.000000E+00  1.000000E+00  0.000000E+00
  0.000186625  3.044370E-02 -1.935450E-02  4.291900E+00  2.382770E+00  1.000000E+00  0.000000E+00  1.000000E+00  0.000000E+00
  0.000189100  2.948360E-02 -1.893980E-02  4.322730E+00  2.316780E+00  1.000000E+00  0.000000E+00  1.000000E+00  0.000000E+00
  0.000191575  2.993090E-02 -1.910170E-02  4.340970E+00  2.267490E+00  1.000000E+00  0.000000E+00  1.000000E+00  0.000000E+00
  0.000194050  3.095970E-02 -1.865060E-02  4.377260E+00  2.219180E+00  1.000000E+00  0.000000E+00  1.000000E+00  0.000000E+00
  0.000196525  3.112670E-02 -1.779120E-02  4.398470E+00  2.175450E+00  1.000000E+00  0.000000E+00  1.000000E+00  0.000000E+00
  0.000199000  3.189200E-02 -1.782060E-02  4.417120E+00  2.120030E+00  1.000000E+00  0.000000E+00  1.000000E+00  0.000000E+00
  0.000201475  3.173870E-02 -1.690140E-02  4.442840E+00  2.067070E+00  1.000000E+00  0.000000E+00  1.000000E+00  0.000000E+00
  0.000203950  3.109620E-02 -1.665210E-02  4.459230E+00  2.031130E+00  1.000000E+00  0.000000E+00  1.000000E+00  0.000000E+00
  0.000206425  3.299370E-02 -1.644530E-02  4.485130E+00  1.990570E+00  1.000000E+00  0.000000E+00  1.000000E+00  0.000000E+00
  0.000208900  3.247220E-02 -1.674840E-02  4.498670E+00  1.932760E+00  1.000000E+00  0.000000E+00  1.000000E+00  0.000000E+00
  0.000211375  3.424790E-02 -1.616160E-02  4.515890E+00  1.898700E+00  1.000000E+00  0.000000E+00  1.000000E+00  0.000000E+00
  0.000213850  3.250740E-02 -1.499480E-02  4.536870E+00  1.842740E+00  1.000000E+00  0.000000E+00  1.000000E+00  0.000000E+00
  0.000216325  3.277580E-02 -1.560990E-02  4.543750E+00  1.807970E+00  1.000000E+00  0.000000E+00  1.000000E+00  0.000000E+00
  0.000218800  3.347870E-02 -1.518820E-02  4.568680E+00  1.758660E+00  1.000000E+00  0.000000E+00  1.000000E+00  0.000000E+00
  0.000221275  3.517070E-02 -1.424010E-02  4.583390E+00  1.713610E+00  1.000000E+00  0.000000E+00  1.000000E+00  0.000000E+00
  0.000223750  3.406060E-02 -1.479050E-02  4.598900E+00  1.677320E+00  1.000000E+00  0.000000E+00  1.000000E+00  0.000000E+00
  0.000226225  3.518270E-02 -1.326030E-02  4.620650E+00  1.636470E+00  1.000000E+00  0.000000E+00  1.000000E+00  0.000000E+00
  0.000228700  3.478200E-02 -1.403060E-02  4.621570E+00  1.596890E+00  1.000000E+00  0.000000E+00  1.000000E+00  0.000000E+00
  0.000231175  3.463520E-02 -1.375780E-02  4.634850E+00  1.554520E+00  1.000000E+00  0.000000E+00  1.000000E+00  0.000000E+00
  0.000233650  3.443690E-02 -1.305700E-02  4.655170E+00  1.513720E+00  1.000000E+00  0.000000E+00  1.000000E+00  0.000000E+00
  0.000236125  3.490140E-02 -1.217820E-02  4.656210E+00  1.475940E+00  1.000000E+00  0.000000E+00  1.000000E+00  0.000000E+00
  0.000238600  3.519820E-02 -1.198170E-02  4.664650E+00  1.429990E+00  1.000000E+00  0.000000E+00  1.000000E+00  0.000000E+00
  0.000241075  3.550680E-02 -1.225420E-02  4.686060E+00  1.397770E+00  1.000000E+00  0.000000E+00  1.000000E+00  0.000000E+00
  0.000243550  3.526430E-02 -1.210650E-02  4.689620E+00  1.345740E+00  1.000000E+00  0.000000E+00  1.000000E+00  0.000000E+00
  0.000246025  3.656310E-02 -1.197620E-02  4.685740E+00  1.317430E+00  1.000000E+00  0.000000E+00  1.000000E+00  0.000000E+00
  0.000248500  3.582900E-02 -1.127760E-02  4.716150E+00  1.278150E+00  1.000000E+00  0.000000E+00  1.000000E+00  0.000000E+00
  0.000250975  3.660650E-02 -1.209330E-02  4.709630E+00  1.240360E+00  1.000000E+00  0.000000E+00  1.000000E+00  0.000000E+00
  0.000253450  3.646520E-02 -1.038170E-02  4.720590E+00  1.201000E+00  1.000000E+00  0.000000E+00  1.000000E+00  0.000000E+00
  0.000255925  3.591060E-02 -9.512100E-03  4.719040E+00  1.171320E+00  1.000000E+00  0.000000E+00  1.000000E+00  0.000000E+00
  0.000258400  3.680340E-02 -9.717200E-03  4.731120E+00  1.125990E+00  1.000000E+00  0.000000E+00  1.000000E+00  0.000000E+00
  0.000260875  3.736090E-02 -9.922880E-03  4.740380E+00  1.094520E+00  1.000000E+00  0.000000E+00  1.000000E+00  0.000000E+00
  0.000263350  3.636640E-02 -9.247600E-03  4.753050E+00  1.048460E+00  1.000000E+00  0.000000E+00  1.000000E+00  0.000000E+00
  0.000265825  3.674510E-02 -1.010770E-02  4.753190E+00  1.033230E+00  1.000000E+00  0.000000E+00  1.000000E+00  0.000000E+00
  0.000268300  3.763710E-02 -9.488220E-03  4.751180E+00  9.957110E-01  1.000000E+00  0.000000E+00  1.000000E+00  0.000000E+00
  0.000270775  3.693330E-02 -9.253110E-03  4.756990E+00  9.563600E-01  1.000000E+00  0.000000E+00  1.000000E+00  0.000000E+00
  0.000273250  3.862740E-02 -8.539510E-03  4.760260E+00  9.211040E-01  1.000000E+00  0.000000E+00  1.000000E+00  0.000000E+00
  0.000275725  3.832450E-02 -8.224290E-03  4.767320E+00  8.855280E-01  1.000000E+00  0.000000E+00  1.000000E+00  0.000000E+00
  0.000278200  3.840890E-02 -7.887330E-03  4.770710E+00  8.516620E-01  1.000000E+00  0.000000E+00  1.000000E+00  0.000000E+00
  0.000280675  3.883640E-02 -7.933740E-03  4.774600E+00  8.279130E-01  1.000000E+00  0.000000E+00  1.000000E+00  0.000000E+00
  0.000283150  3.895030E-02 -8.242370E-03  4.774790E+00  7.863170E-01  1.000000E+00  0.000000E+00  1.000000E+00  0.000000E+00
  0.000285625  3.915590E-02 -7.470000E-03  4.775880E+00  7.720920E-01  1.000000E+00  0.000000E+00  1.000000E+00  0.000000E+00
  0.000288100  3.886460E-02 -7.244040E-03  4.778840E+00  7.264620E-01  1.000000E+00  0.000000E+00  1.000000E+00  0.000000E+00
  0.000290575  3.851250E-02 -6.222330E-03  4.777050E+00  7.061020E-01  1.000000E+00  0.000000E+00  1.000000E+00  0.000000E+00
  0.000293050  3.925790E-02 -6.494110E-03  4.786060E+00  6.674740E-01  1.000000E+00  0.000000E+00  1.000000E+00  0.000000E+00
  0.000295525  3.948730E-02 -5.363180E-03  4.788320E+00  6.441930E-01  1.000000E+00  0.000000E+00  1.000000E+00  0.000000E+00
  0.000298000  3.925890E-02 -7.156470E-03  4.790340E+00  6.150470E-01  1.000000E+00  0.000000E+00  1.000000E+00  0.000000E+00
  0.000300475  4.063330E-02 -6.706990E-03  4.790580E+00  5.865900E-01  1.000000E+00  0.000000E+00  1.000000E+00  0.000000E+00
  0.000302950  3.991260E-02 -6.173890E-03  4.788230E+00  5.508970E-01  1.000000E+00  0.000000E+00  1.000000E+00  0.000000E+00
  0.000305425  4.041740E-02 -5.681770E-03  4.785380E+00  5.165340E-01  1.000000E+00  0.000000E+00  1.000000E+00  0.000000E+00
  0.000307900  4.004010E-02 -6.572960E-03  4.784360E+00  4.943680E-01  1.000000E+00  0.000000E+00  1.000000E+00  0.000000E+00
  0.000310375  4.185810E-02 -7.061080E-03  4.794110E+00  4.639930E-01  1.000000E+00  0.000000E+00  1.000000E+00  0.000000E+00
  0.000312850  4.099920E-02 -5.592120E-03  4.789340E+00  4.405670E-01  1.000000E+00  0.000000E+00  1.000000E+00  0.000000E+00
  0.000315325  4.139530E-02 -5.571550E-03  4.788800E+00  4.152850E-01  1.000000E+00  0.000000E+00  1.000000E+00  0.000000E+00
  0.000317800  4.179060E-02 -4.549580E-03  4.794480E+00  3.788180E-01  1.000000E+00  0.000000E+00  1.000000E+00  0.000000E+00
  0.000320275  4.080950E-02 -4.533930E-03  4.795710E+00  3.549760E-01  1.000000E+00  0.000000E+00  1.000000E+00  0.000000E+00
  0.000322750  4.114600E-02 -5.213740E-03  4.784700E+00  3.331790E-01  1.000000E+00  0.000000E+00  1.000000E+00  0.000000E+00
  0.000325225  4.167680E-02 -5.640810E-03  4.776380E+00  3.150470E-01  1.000000E+00  0.000000E+00  1.000000E+00  0.000000E+00
  0.000327700  4.278560E-02 -3.527730E-03  4.781320E+00  2.685350E-01  1.000000E+00  0.000000E+00  1.000000E+00  0.000000E+00
  0.000330175  4.207590E-02 -4.488960E-03  4.781830E+00  2.466890E-01  1.000000E+00  0.000000E+00  1.000000E+00  0.000000E+00
  0.000332650  4.150240E-02 -4.274130E-03  4.780140E+00  2.183240E-01  1.000000E+00  0.000000E+00  1.000000E+00  0.000000E+00
  0.000335125  4.235010E-02 -4.710370E-03  4.780640E+00  2.068450E-01  1.000000E+00  0.000000E+00  1.000000E+00  0.000000E+00
  0.000337600  4.312690E-02 -4.249710E-03  4.774450E+00  1.843400E-01  1.000000E+00  0.000000E+00  1.000000E+00  0.000000E+00
  0.000340075  4.393080E-02 -4.438400E-03  4.789270E+00  1.502430E-01  1.000000E+00  0.000000E+00  1.000000E+00  0.000000E+00
  0.000342550  4.317600E-02 -4.068110E-03  4.779270E+00  1.218470E-01  1.000000E+00  0.000000E+00  1.000000E+00  0.000000E+00
  0.000345025  4.340110E-02 -4.778360E-03  4.781400E+00  1.087240E-01  1.000000E+00  0.000000E+00  1.000000E+00  0.000000E+00
  0.000347500  4.402390E-02 -5.484590E-03  4.779070E+00  8.054340E-02  1.000000E+00  0.000000E+00  1.000000E+00  0.000000E+00
  0.000349975  4.384210E-02 -4.398850E-03  4.781900E+00  3.795510E-02  1.000000E+00  0.000000E+00  1.000000E+00  0.000000E+00
  0.000352450  4.476890E-02 -4.339160E-03  4.776780E+00  1.838300E-02  1.000000E+00  0.000000E+00  1.000000E+00  0.000000E+00
  0.000354925  4.415520E-02 -4.383220E-03  4.770250E+00  2.253220E-03  1.000000E+00  0.000000E+00  1.000000E+00  0.000000E+00
  0.000357400  4.363720E-02 -4.780840E-03  4.773350E+00 -2.413090E-02  1.000000E+00  0.000000E+00  1.000000E+00  0.000000E+00
  0.000359875  4.471730E-02 -4.011220E-03  4.773640E+00 -3.817590E-02  1.000000E+00  0.000000E+00  1.000000E+00  0.000000E+00
  0.000362350  4.487810E-02 -4.706880E-03  4.755330E+00 -6.476660E-02  1.000000E+00  0.000000E+00  1.000000E+00  0.000000E+00
  0.000364825  4.563580E-02 -3.248440E-03  4.755910E+00 -7.951110E-02  1.000000E+00  0.000000E+00  1.000000E+00  0.000000E+00
  0.000367300  4.526630E-02 -5.412860E-03  4.751880E+00 -1.169770E-01  1.000000E+00  0.000000E+00  1.000000E+00  0.000000E+00
  0.000369775  4.473900E-02 -3.412910E-03  4.747410E+00 -1.359430E-01  1.000000E+00  0.000000E+00  1.000000E+00  0.000000E+00
  0.000372250  4.521640E-02 -4.983730E-03  4.742010E+00 -1.503370E-01  1.000000E+00  0.000000E+00  1.000000E+00  0.000000E+00
  0.000374725  4.549040E-02 -4.308100E-03  4.749710E+00 -1.791740E-01  1.000000E+00  0.000000E+00  1.000000E+00  0.000000E+00
  0.000377200  4.482340E-02 -4.401720E-03  4.741830E+00 -2.031250E-01  1.000000E+00  0.000000E+00  1.000000E+00  0.000000E+00
  0.000379675  4.625780E-02 -5.532180E-03  4.735350E+00 -2.187850E-01  1.000000E+00  0.000000E+00  1.000000E+00  0.000000E+00
  0.000382150  4.551210E-02 -4.987850E-03  4.727960E+00 -2.458910E-01  1.000000E+00  0.000000E+00  1.000000E+00  0.000000E+00
  0.000384625  4.691090E-02 -4.880070E-03  4.720500E+00 -2.685870E-01  1.000000E+00  0.000000E+00  1.000000E+00  0.000000E+00
  0.000387100  4.545840E-02 -5.328110E-03  4.720130E+00 -2.832430E-01  1.000000E+00  0.000000E+00  1.000000E+00  0.000000E+00
  0.000389575  4.587450E-02 -5.202280E-03  4.721700E+00 -3.011900E-01  1.000000E+00  0.000000E+00  1.000000E+00  0.000000E+00
  0.000392050  4.613950E-02 -4.261100E-03  4.713650E+00 -3.265550E-01  1.000000E+00  0.000000E+00  1.000000E+00  0.000000E+00
  0.000394525  4.703440E-02 -3.906350E-03  4.707910E+00 -3.430460E-01  1.000000E+00  0.000000E+00  1.000000E+00  0.000000E+00
  0.000397000  4.597730E-02 -5.144550E-03  4.701090E+00 -3.579750E-01  1.000000E+00  0.000000E+00  1.000000E+00  0.000000E+00
  0.000399475  4.703740E-02 -5.553840E-03  4.699940E+00 -3.885820E-01  1.000000E+00  0.000000E+00  1.000000E+00  0.000000E+00
  0.000401950  4.611980E-02 -5.819250E-03  4.699110E+00 -4.167410E-01  1.000000E+00  0.000000E+00  1.000000E+00  0.000000E+00
  0.000404425  4.714530E-02 -5.091540E-03  4.688640E+00 -4.349260E-01  1.000000E+00  0.000000E+00  1.000000E+00  0.000000E+00
  0.000406900  4.705060E-02 -5.593930E-03  4.680200E+00 -4.518680E-01  1.000000E+00  0.000000E+00  1.000000E+00  0.000000E+00
  0.000409375  4.673730E-02 -5.235550E-03  4.678520E+00 -4.675180E-01  1.000000E+00  0.000000E+00  1.000000E+00  0.000000E+00
  0.000411850  4.649810E-02 -6.811350E-03  4.669050E+00 -4.890540E-01  1.000000E+00  0.000000E+00  1.000000E+00  0.000000E+00
  0.000414325  4.676370E-02 -4.944660E-03  4.660120E+00 -5.155460E-01  1.000000E+00  0.000000E+00  1.000000E+00  0.000000E+00
  0.000416800  4.634610E-02 -5.647230E-03  4.664310E+00 -5.281160E-01  1.000000E+00  0.000000E+00  1.000000E+00  0.000000E+00
  0.000419275  4.661180E-02 -5.572100E-03  4.643300E+00 -5.532930E-01  1.000000E+00  0.000000E+00  1.000000E+00  0.000000E+00
  0.000421750  4.789090E-02 -5.229550E-03  4.639800E+00 -5.648050E-01  1.000000E+00  0.000000E+00  1.000000E+00  0.000000E+00
  0.000424225  4.774900E-02 -4.902680E-03  4.630200E+00 -5.951800E-01  1.000000E+00  0.000000E+00  1.000000E+00  0.000000E+00
  0.000426700  4.688120E-02 -6.348230E-03  4.616530E+00 -6.115440E-01  1.000000E+00  0.000000E+00  1.000000E+00  0.000000E+00
  0.000429175  4.650200E-02 -6.209150E-03  4.614170E+00 -6.185080E-01  1.000000E+00  0.000000E+00  1.000000E+00  0.000000E+00
  0.000431650  4.669340E-02 -5.983060E-03  4.594390E+00 -6.321740E-01  1.000000E+00  0.000000E+00  1.000000E+00  0.000000E+00
  0.000434125  4.738520E-02 -5.913520E-03  4.594180E+00 -6.543810E-01  1.000000E+00  0.000000E+00  1.000000E+00  0.000000E+00
  0.000436600  4.590020E-02 -5.725080E-03  4.569150E+00 -6.653360E-01  1.000000E+00  0.000000E+00  1.000000E+00  0.000000E+00
  0.000439075  4.725580E-02 -6.009870E-03  4.567220E+00 -6.794620E-01  1.000000E+00  0.000000E+00  1.000000E+00  0.000000E+00
  0.000441550  4.708220E-02 -4.998060E-03  4.575680E+00 -6.953010E-01  1.000000E+00  0.000000E+00  1.000000E+00  0.000000E+00
  0.000444025  4.580520E-02 -5.383900E-03  4.557140E+00 -7.062490E-01  1.000000E+00  0.000000E+00  1.000000E+00  0.000000E+00
  0.000446500  4.656480E-02 -6.135120E-03  4.557230E+00 -7.180380E-01  1.000000E+00  0.000000E+00  1.000000E+00  0.000000E+00
  0.000448975  4.735280E-02 -5.282880E-03  4.546560E+00 -7.309280E-01  1.000000E+00  0.000000E+00  1.000000E+00  0.000000E+00
  0.000451450  4.624870E-02 -6.112760E-03  4.538300E+00 -7.311230E-01  1.000000E+00  0.000000E+00  1.000000E+00  0.000000E+00
  0.000453925  4.631590E-02 -5.960420E-03  4.527690E+00 -7.382960E-01  1.000000E+00  0.000000E+00  1.000000E+00  0.000000E+00
