! Anritsu VNA Master:                        Model: MS2026C/19
! SN:                                  1815009
! /card0/usr/20180902_18.s2p
! Existing Calibration Information:
! TYPE:                         Current Settings,       Active Cal Settings
! TIME:             	   09/02/2018 12:54:06 PM,    09/02/2018 11:58:48 AM
! INTERNAL TEMP:    	                   54.0 C,                    48.8 C
! # POINTS:         	                     4001,                      4001
! START FREQ:       	              100.000 kHz,               100.000 kHz
! STOP FREQ:        	               10.000 MHz,                10.000 MHz
! SOURCE POWER:     	                      Low,                       Low
! IFBW:             	                   500 Hz,                    500 Hz
! AVG FACTOR:       	                       5 ,                        1 
! REF PLANE 1:      	                     0 mm,                      0 mm
! REF PLANE 2:      	                     0 mm,                      0 mm
! CAL TYPE:         	             1P2P S11,S21,              1P2P S11,S21
! CAL METHOD:       	                     SOLT,                      SOLT
! CAL LINE TYPE:    	                     Coax,                      Coax
! DUT PORT 1:       	                N-Conn(M),                 N-Conn(M)
! DUT PORT 2:       	                N-Conn(M),                 N-Conn(M)
! CAL STATUS:       	?T: Accuracy moderate (|Temp diff| > 5.0 C),                        --
# GHZ S RI R 50.0
! FREQ.GHZ      S11RE         S11IM         S21RE         S21IM         S12RE         S12IM         S22RE         S22IM
  0.000100000  4.944200E-03 -5.911970E-02  1.049330E-03  4.085810E-03  1.000000E+00  0.000000E+00  1.000000E+00  0.000000E+00
  0.000102475  6.387890E-03 -5.710680E-02  1.212160E-03  4.399080E-03  1.000000E+00  0.000000E+00  1.000000E+00  0.000000E+00
  0.000104950  6.795900E-03 -5.445430E-02  1.228800E-03  4.046160E-03  1.000000E+00  0.000000E+00  1.000000E+00  0.000000E+00
  0.000107425  8.332300E-03 -5.268320E-02  1.369370E-03  4.162870E-03  1.000000E+00  0.000000E+00  1.000000E+00  0.000000E+00
  0.000109900  9.988070E-03 -4.998510E-02  1.631340E-03  4.120540E-03  1.000000E+00  0.000000E+00  1.000000E+00  0.000000E+00
  0.000112375  1.102650E-02 -4.915850E-02  1.917650E-03  4.376550E-03  1.000000E+00  0.000000E+00  1.000000E+00  0.000000E+00
  0.000114850  1.144630E-02 -4.758610E-02  2.013530E-03  3.956550E-03  1.000000E+00  0.000000E+00  1.000000E+00  0.000000E+00
  0.000117325  1.442720E-02 -4.555090E-02  1.955350E-03  3.727950E-03  1.000000E+00  0.000000E+00  1.000000E+00  0.000000E+00
  0.000119800  1.448940E-02 -4.340880E-02  1.727880E-03  4.326800E-03  1.000000E+00  0.000000E+00  1.000000E+00  0.000000E+00
  0.000122275  1.564150E-02 -4.168970E-02  2.186970E-03  4.164590E-03  1.000000E+00  0.000000E+00  1.000000E+00  0.000000E+00
  0.000124750  1.691930E-02 -4.106210E-02  2.549930E-03  4.223540E-03  1.000000E+00  0.000000E+00  1.000000E+00  0.000000E+00
  0.000127225  1.665570E-02 -3.915800E-02  2.843300E-03  3.874810E-03  1.000000E+00  0.000000E+00  1.000000E+00  0.000000E+00
  0.000129700  1.777790E-02 -3.662760E-02  3.073800E-03  3.842330E-03  1.000000E+00  0.000000E+00  1.000000E+00  0.000000E+00
  0.000132175  1.964330E-02 -3.682340E-02  2.538220E-03  3.743610E-03  1.000000E+00  0.000000E+00  1.000000E+00  0.000000E+00
  0.000134650  1.927450E-02 -3.634350E-02  2.813210E-03  3.808480E-03  1.000000E+00  0.000000E+00  1.000000E+00  0.000000E+00
  0.000137125  2.034220E-02 -3.476080E-02  3.039490E-03  3.208430E-03  1.000000E+00  0.000000E+00  1.000000E+00  0.000000E+00
  0.000139600  2.131200E-02 -3.383820E-02  3.006250E-03  3.281700E-03  1.000000E+00  0.000000E+00  1.000000E+00  0.000000E+00
  0.000142075  2.231460E-02 -3.333150E-02  3.059770E-03  3.738530E-03  1.000000E+00  0.000000E+00  1.000000E+00  0.000000E+00
  0.000144550  2.317460E-02 -3.257770E-02  3.335550E-03  3.403790E-03  1.000000E+00  0.000000E+00  1.000000E+00  0.000000E+00
  0.000147025  2.362370E-02 -3.056350E-02  3.396500E-03  3.750490E-03  1.000000E+00  0.000000E+00  1.000000E+00  0.000000E+00
  0.000149500  2.433540E-02 -3.025650E-02  3.050740E-03  3.241610E-03  1.000000E+00  0.000000E+00  1.000000E+00  0.000000E+00
  0.000151975  2.434310E-02 -2.960630E-02  3.475890E-03  3.019940E-03  1.000000E+00  0.000000E+00  1.000000E+00  0.000000E+00
  0.000154450  2.564470E-02 -2.726790E-02  3.283930E-03  3.373710E-03  1.000000E+00  0.000000E+00  1.000000E+00  0.000000E+00
  0.000156925  2.620150E-02 -2.655120E-02  3.580180E-03  2.573950E-03  1.000000E+00  0.000000E+00  1.000000E+00  0.000000E+00
  0.000159400  2.613260E-02 -2.710470E-02  3.650000E-03  2.903250E-03  1.000000E+00  0.000000E+00  1.000000E+00  0.000000E+00
  0.000161875  2.685490E-02 -2.697270E-02  3.689160E-03  3.157970E-03  1.000000E+00  0.000000E+00  1.000000E+00  0.000000E+00
  0.000164350  2.805690E-02 -2.566940E-02  3.447670E-03  2.796920E-03  1.000000E+00  0.000000E+00  1.000000E+00  0.000000E+00
  0.000166825  2.823660E-02 -2.555440E-02  4.077090E-03  2.632030E-03  1.000000E+00  0.000000E+00  1.000000E+00  0.000000E+00
  0.000169300  2.892830E-02 -2.473400E-02  4.100320E-03  2.937110E-03  1.000000E+00  0.000000E+00  1.000000E+00  0.000000E+00
  0.000171775  2.897200E-02 -2.314970E-02  4.085640E-03  2.683540E-03  1.000000E+00  0.000000E+00  1.000000E+00  0.000000E+00
  0.000174250  2.933360E-02 -2.312290E-02  3.815030E-03  2.739840E-03  1.000000E+00  0.000000E+00  1.000000E+00  0.000000E+00
  0.000176725  3.031100E-02 -2.339830E-02  3.978010E-03  2.286600E-03  1.000000E+00  0.000000E+00  1.000000E+00  0.000000E+00
  0.000179200  3.047370E-02 -2.213420E-02  3.903050E-03  2.621710E-03  1.000000E+00  0.000000E+00  1.000000E+00  0.000000E+00
  0.000181675  2.984600E-02 -2.254120E-02  4.067390E-03  2.475680E-03  1.000000E+00  0.000000E+00  1.000000E+00  0.000000E+00
  0.000184150  3.178060E-02 -2.149840E-02  3.846930E-03  2.852550E-03  1.000000E+00  0.000000E+00  1.000000E+00  0.000000E+00
  0.000186625  3.139860E-02 -2.064550E-02  3.618810E-03  2.049930E-03  1.000000E+00  0.000000E+00  1.000000E+00  0.000000E+00
  0.000189100  3.189280E-02 -2.132830E-02  3.734300E-03  2.585240E-03  1.000000E+00  0.000000E+00  1.000000E+00  0.000000E+00
  0.000191575  3.099930E-02 -2.122650E-02  3.944660E-03  2.432830E-03  1.000000E+00  0.000000E+00  1.000000E+00  0.000000E+00
  0.000194050  3.210840E-02 -2.053820E-02  3.911910E-03  2.424360E-03  1.000000E+00  0.000000E+00  1.000000E+00  0.000000E+00
  0.000196525  3.245730E-02 -1.981840E-02  3.881290E-03  2.225300E-03  1.000000E+00  0.000000E+00  1.000000E+00  0.000000E+00
  0.000199000  3.351370E-02 -1.962840E-02  4.368790E-03  2.445930E-03  1.000000E+00  0.000000E+00  1.000000E+00  0.000000E+00
  0.000201475  3.294190E-02 -1.935110E-02  4.610120E-03  1.934610E-03  1.000000E+00  0.000000E+00  1.000000E+00  0.000000E+00
  0.000203950  3.281500E-02 -1.852800E-02  4.854260E-03  1.994010E-03  1.000000E+00  0.000000E+00  1.000000E+00  0.000000E+00
  0.000206425  3.405220E-02 -1.812420E-02  3.994320E-03  1.680850E-03  1.000000E+00  0.000000E+00  1.000000E+00  0.000000E+00
  0.000208900  3.373020E-02 -1.817810E-02  4.180950E-03  1.916640E-03  1.000000E+00  0.000000E+00  1.000000E+00  0.000000E+00
  0.000211375  3.522720E-02 -1.799270E-02  4.266020E-03  1.614760E-03  1.000000E+00  0.000000E+00  1.000000E+00  0.000000E+00
  0.000213850  3.445710E-02 -1.726660E-02  4.084710E-03  2.313520E-03  1.000000E+00  0.000000E+00  1.000000E+00  0.000000E+00
  0.000216325  3.449460E-02 -1.790020E-02  3.910190E-03  1.798720E-03  1.000000E+00  0.000000E+00  1.000000E+00  0.000000E+00
  0.000218800  3.445740E-02 -1.722120E-02  3.985090E-03  1.137280E-03  1.000000E+00  0.000000E+00  1.000000E+00  0.000000E+00
  0.000221275  3.598090E-02 -1.601090E-02  4.260900E-03  1.296940E-03  1.000000E+00  0.000000E+00  1.000000E+00  0.000000E+00
  0.000223750  3.535380E-02 -1.612900E-02  4.861500E-03  1.458620E-03  1.000000E+00  0.000000E+00  1.000000E+00  0.000000E+00
  0.000226225  3.611760E-02 -1.561980E-02  4.367290E-03  1.616420E-03  1.000000E+00  0.000000E+00  1.000000E+00  0.000000E+00
  0.000228700  3.541420E-02 -1.627860E-02  4.748430E-03  1.350640E-03  1.000000E+00  0.000000E+00  1.000000E+00  0.000000E+00
  0.000231175  3.536220E-02 -1.600230E-02  4.214490E-03  1.428180E-03  1.000000E+00  0.000000E+00  1.000000E+00  0.000000E+00
  0.000233650  3.592220E-02 -1.512000E-02  4.181080E-03  1.707500E-03  1.000000E+00  0.000000E+00  1.000000E+00  0.000000E+00
  0.000236125  3.618710E-02 -1.472180E-02  4.332270E-03  1.154010E-03  1.000000E+00  0.000000E+00  1.000000E+00  0.000000E+00
  0.000238600  3.715740E-02 -1.484700E-02  3.967630E-03  1.276550E-03  1.000000E+00  0.000000E+00  1.000000E+00  0.000000E+00
  0.000241075  3.682090E-02 -1.422540E-02  4.580050E-03  1.224170E-03  1.000000E+00  0.000000E+00  1.000000E+00  0.000000E+00
  0.000243550  3.634860E-02 -1.448160E-02  4.639590E-03  1.099120E-03  1.000000E+00  0.000000E+00  1.000000E+00  0.000000E+00
  0.000246025  3.744260E-02 -1.415220E-02  3.575330E-03  1.221110E-03  1.000000E+00  0.000000E+00  1.000000E+00  0.000000E+00
  0.000248500  3.689410E-02 -1.368410E-02  4.914810E-03  9.250400E-04  1.000000E+00  0.000000E+00  1.000000E+00  0.000000E+00
  0.000250975  3.748660E-02 -1.397620E-02  4.312920E-03  1.467670E-03  1.000000E+00  0.000000E+00  1.000000E+00  0.000000E+00
  0.000253450  3.758670E-02 -1.346740E-02  3.899070E-03  1.000490E-03  1.000000E+00  0.000000E+00  1.000000E+00  0.000000E+00
  0.000255925  3.639440E-02 -1.196890E-02  4.580010E-03  6.444550E-04  1.000000E+00  0.000000E+00  1.000000E+00  0.000000E+00
  0.000258400  3.787570E-02 -1.253580E-02  3.968850E-03  1.125280E-03  1.000000E+00  0.000000E+00  1.000000E+00  0.000000E+00
  0.000260875  3.816280E-02 -1.216530E-02  4.230330E-03  5.095390E-04  1.000000E+00  0.000000E+00  1.000000E+00  0.000000E+00
  0.000263350  3.792750E-02 -1.196600E-02  4.219560E-03  8.849480E-04  1.000000E+00  0.000000E+00  1.000000E+00  0.000000E+00
  0.000265825  3.736490E-02 -1.199170E-02  3.961840E-03  1.087320E-03  1.000000E+00  0.000000E+00  1.000000E+00  0.000000E+00
  0.000268300  3.888130E-02 -1.226670E-02  3.624820E-03  4.684580E-04  1.000000E+00  0.000000E+00  1.000000E+00  0.000000E+00
  0.000270775  3.777350E-02 -1.111330E-02  3.940950E-03  5.670950E-04  1.000000E+00  0.000000E+00  1.000000E+00  0.000000E+00
  0.000273250  3.812290E-02 -1.170570E-02  3.871090E-03  6.279050E-04  1.000000E+00  0.000000E+00  1.000000E+00  0.000000E+00
  0.000275725  3.896610E-02 -1.135940E-02  4.246710E-03  4.584230E-04  1.000000E+00  0.000000E+00  1.000000E+00  0.000000E+00
  0.000278200  3.915360E-02 -1.071480E-02  4.061010E-03  8.078780E-04  1.000000E+00  0.000000E+00  1.000000E+00  0.000000E+00
  0.000280675  3.925370E-02 -1.007660E-02  4.078240E-03  3.036740E-04  1.000000E+00  0.000000E+00  1.000000E+00  0.000000E+00
  0.000283150  3.945280E-02 -1.068730E-02  4.149210E-03  4.446180E-04  1.000000E+00  0.000000E+00  1.000000E+00  0.000000E+00
  0.000285625  3.960150E-02 -1.046540E-02  4.638760E-03  6.480590E-04  1.000000E+00  0.000000E+00  1.000000E+00  0.000000E+00
  0.000288100  3.933580E-02 -1.019150E-02  4.319110E-03  2.706870E-04  1.000000E+00  0.000000E+00  1.000000E+00  0.000000E+00
  0.000290575  3.874680E-02 -9.220610E-03  3.127410E-03  8.972850E-04  1.000000E+00  0.000000E+00  1.000000E+00  0.000000E+00
  0.000293050  4.036060E-02 -9.272700E-03  3.569160E-03  5.878900E-04  1.000000E+00  0.000000E+00  1.000000E+00  0.000000E+00
  0.000295525  3.991910E-02 -8.195680E-03  3.844130E-03  5.573670E-04  1.000000E+00  0.000000E+00  1.000000E+00  0.000000E+00
  0.000298000  3.989780E-02 -9.959240E-03  4.359850E-03  1.131490E-04  1.000000E+00  0.000000E+00  1.000000E+00  0.000000E+00
  0.000300475  4.042290E-02 -9.077190E-03  3.385700E-03  8.882710E-04  1.000000E+00  0.000000E+00  1.000000E+00  0.000000E+00
  0.000302950  3.976310E-02 -7.935320E-03  3.426250E-03  7.648090E-04  1.000000E+00  0.000000E+00  1.000000E+00  0.000000E+00
  0.000305425  4.084100E-02 -7.807380E-03  3.459700E-03 -1.035940E-04  1.000000E+00  0.000000E+00  1.000000E+00  0.000000E+00
  0.000307900  4.059480E-02 -8.310980E-03  3.879710E-03  6.571860E-04  1.000000E+00  0.000000E+00  1.000000E+00  0.000000E+00
  0.000310375  4.235120E-02 -9.047230E-03  3.908990E-03  1.018770E-03  1.000000E+00  0.000000E+00  1.000000E+00  0.000000E+00
  0.000312850  4.120960E-02 -7.711590E-03  3.368790E-03  9.799181E-04  1.000000E+00  0.000000E+00  1.000000E+00  0.000000E+00
  0.000315325  4.078220E-02 -7.822650E-03  3.095040E-03  1.148960E-03  1.000000E+00  0.000000E+00  1.000000E+00  0.000000E+00
  0.000317800  4.189280E-02 -7.492080E-03  3.946690E-03  1.498780E-04  1.000000E+00  0.000000E+00  1.000000E+00  0.000000E+00
  0.000320275  4.147050E-02 -7.506630E-03  3.666100E-03  1.893730E-04  1.000000E+00  0.000000E+00  1.000000E+00  0.000000E+00
  0.000322750  4.143010E-02 -7.582760E-03  3.345970E-03  1.568360E-03  1.000000E+00  0.000000E+00  1.000000E+00  0.000000E+00
  0.000325225  4.186130E-02 -7.879100E-03  2.923630E-03  1.933160E-03  1.000000E+00  0.000000E+00  1.000000E+00  0.000000E+00
  0.000327700  4.203600E-02 -6.926070E-03  3.868370E-03  6.289750E-04  1.000000E+00  0.000000E+00  1.000000E+00  0.000000E+00
  0.000330175  4.148940E-02 -6.763710E-03  3.329670E-03  9.486700E-04  1.000000E+00  0.000000E+00  1.000000E+00  0.000000E+00
  0.000332650  4.178330E-02 -6.753900E-03  3.255530E-03  2.386280E-03  1.000000E+00  0.000000E+00  1.000000E+00  0.000000E+00
  0.000335125  4.317580E-02 -7.563350E-03  3.651550E-03  3.126640E-03  1.000000E+00  0.000000E+00  1.000000E+00  0.000000E+00
  0.000337600  4.280760E-02 -6.765170E-03  3.775750E-03  1.691440E-03  1.000000E+00  0.000000E+00  1.000000E+00  0.000000E+00
  0.000340075  4.376210E-02 -6.896510E-03  3.575580E-03  1.403790E-03  1.000000E+00  0.000000E+00  1.000000E+00  0.000000E+00
  0.000342550  4.333810E-02 -7.161500E-03  4.080830E-03  2.098640E-03  1.000000E+00  0.000000E+00  1.000000E+00  0.000000E+00
  0.000345025  4.376140E-02 -7.146910E-03  4.742660E-03  2.998410E-03  1.000000E+00  0.000000E+00  1.000000E+00  0.000000E+00
  0.000347500  4.362180E-02 -7.440330E-03  4.757450E-03  2.219310E-03  1.000000E+00  0.000000E+00  1.000000E+00  0.000000E+00
  0.000349975  4.393560E-02 -5.458170E-03  3.982970E-03  1.521470E-03  1.000000E+00  0.000000E+00  1.000000E+00  0.000000E+00
  0.000352450  4.426960E-02 -6.429940E-03  4.529970E-03  2.203900E-03  1.000000E+00  0.000000E+00  1.000000E+00  0.000000E+00
  0.000354925  4.438180E-02 -6.919480E-03  5.405610E-03  2.190310E-03  1.000000E+00  0.000000E+00  1.000000E+00  0.000000E+00
  0.000357400  4.375530E-02 -6.397160E-03  5.422050E-03  1.261410E-03  1.000000E+00  0.000000E+00  1.000000E+00  0.000000E+00
  0.000359875  4.478200E-02 -6.489170E-03  4.180220E-03  2.540080E-03  1.000000E+00  0.000000E+00  1.000000E+00  0.000000E+00
  0.000362350  4.445820E-02 -7.235710E-03  4.474530E-03  2.920450E-03  1.000000E+00  0.000000E+00  1.000000E+00  0.000000E+00
  0.000364825  4.477620E-02 -5.957390E-03  5.840880E-03  1.956860E-03  1.000000E+00  0.000000E+00  1.000000E+00  0.000000E+00
  0.000367300  4.526940E-02 -7.303330E-03  5.893120E-03  1.293080E-03  1.000000E+00  0.000000E+00  1.000000E+00  0.000000E+00
  0.000369775  4.490850E-02 -5.632420E-03  4.967140E-03  1.759220E-03  1.000000E+00  0.000000E+00  1.000000E+00  0.000000E+00
  0.000372250  4.613860E-02 -7.158210E-03  5.378530E-03  2.312940E-03  1.000000E+00  0.000000E+00  1.000000E+00  0.000000E+00
  0.000374725  4.471320E-02 -6.686840E-03  6.008050E-03  1.754460E-03  1.000000E+00  0.000000E+00  1.000000E+00  0.000000E+00
  0.000377200  4.493590E-02 -6.582320E-03  6.443830E-03  1.303020E-03  1.000000E+00  0.000000E+00  1.000000E+00  0.000000E+00
  0.000379675  4.607090E-02 -7.057040E-03  6.142120E-03  2.109000E-03  1.000000E+00  0.000000E+00  1.000000E+00  0.000000E+00
  0.000382150  4.578430E-02 -6.406530E-03  6.586420E-03  2.844320E-03  1.000000E+00  0.000000E+00  1.000000E+00  0.000000E+00
  0.000384625  4.639700E-02 -7.244500E-03  7.276200E-03  2.176360E-03  1.000000E+00  0.000000E+00  1.000000E+00  0.000000E+00
  0.000387100  4.517610E-02 -7.286930E-03  7.454960E-03  8.557470E-04  1.000000E+00  0.000000E+00  1.000000E+00  0.000000E+00
  0.000389575  4.600020E-02 -6.795830E-03  6.403700E-03  1.149710E-03  1.000000E+00  0.000000E+00  1.000000E+00  0.000000E+00
  0.000392050  4.592670E-02 -5.119080E-03  7.587620E-03  2.151320E-03  1.000000E+00  0.000000E+00  1.000000E+00  0.000000E+00
  0.000394525  4.629480E-02 -6.385980E-03  8.038250E-03  1.400180E-03  1.000000E+00  0.000000E+00  1.000000E+00  0.000000E+00
  0.000397000  4.524750E-02 -6.335080E-03  7.403510E-03 -4.726770E-05  1.000000E+00  0.000000E+00  1.000000E+00  0.000000E+00
  0.000399475  4.724980E-02 -7.439500E-03  7.000190E-03 -3.150830E-04  1.000000E+00  0.000000E+00  1.000000E+00  0.000000E+00
  0.000401950  4.639400E-02 -6.776630E-03  8.393980E-03  8.199970E-04  1.000000E+00  0.000000E+00  1.000000E+00  0.000000E+00
  0.000404425  4.679240E-02 -6.375300E-03  8.196420E-03  5.286860E-05  1.000000E+00  0.000000E+00  1.000000E+00  0.000000E+00
  0.000406900  4.635760E-02 -7.374370E-03  7.230050E-03 -7.699850E-04  1.000000E+00  0.000000E+00  1.000000E+00  0.000000E+00
  0.000409375  4.654400E-02 -7.358940E-03  7.874810E-03 -4.223460E-04  1.000000E+00  0.000000E+00  1.000000E+00  0.000000E+00
  0.000411850  4.586480E-02 -7.651770E-03  7.846690E-03 -3.378600E-04  1.000000E+00  0.000000E+00  1.000000E+00  0.000000E+00
  0.000414325  4.687560E-02 -6.498950E-03  8.483740E-03 -7.718330E-04  1.000000E+00  0.000000E+00  1.000000E+00  0.000000E+00
  0.000416800  4.592730E-02 -7.433870E-03  7.619220E-03 -6.606230E-04  1.000000E+00  0.000000E+00  1.000000E+00  0.000000E+00
  0.000419275  4.654160E-02 -7.929440E-03  6.777470E-03 -1.216870E-03  1.000000E+00  0.000000E+00  1.000000E+00  0.000000E+00
  0.000421750  4.701310E-02 -7.288240E-03  7.089940E-03 -1.186180E-03  1.000000E+00  0.000000E+00  1.000000E+00  0.000000E+00
  0.000424225  4.744140E-02 -7.321680E-03  7.766000E-03 -1.872140E-03  1.000000E+00  0.000000E+00  1.000000E+00  0.000000E+00
  0.000426700  4.612480E-02 -8.121910E-03  7.172500E-03 -2.607590E-03  1.000000E+00  0.000000E+00  1.000000E+00  0.000000E+00
  0.000429175  4.678110E-02 -7.983870E-03  7.115460E-03 -1.947660E-03  1.000000E+00  0.000000E+00  1.000000E+00  0.000000E+00
  0.000431650  4.617730E-02 -7.750900E-03  6.939430E-03 -1.652620E-03  1.000000E+00  0.000000E+00  1.000000E+00  0.000000E+00
  0.000434125  4.723650E-02 -7.954980E-03  7.171740E-03 -2.699870E-03  1.000000E+00  0.000000E+00  1.000000E+00  0.000000E+00
  0.000436600  4.616240E-02 -7.037320E-03  7.179810E-03 -2.936300E-03  1.000000E+00  0.000000E+00  1.000000E+00  0.000000E+00
  0.000439075  4.728580E-02 -7.512000E-03  6.615240E-03 -2.767920E-03  1.000000E+00  0.000000E+00  1.000000E+00  0.000000E+00
  0.000441550  4.709740E-02 -6.539830E-03  6.127390E-03 -2.563000E-03  1.000000E+00  0.000000E+00  1.000000E+00  0.000000E+00
  0.000444025  4.640030E-02 -7.161760E-03  6.326410E-03 -3.333750E-03  1.000000E+00  0.000000E+00  1.000000E+00  0.000000E+00
  0.000446500  4.642870E-02 -7.933770E-03  6.182680E-03 -3.873850E-03  1.000000E+00  0.000000E+00  1.000000E+00  0.000000E+00
  0.000448975  4.610230E-02 -7.249330E-03  6.013370E-03 -2.917060E-03  1.000000E+00  0.000000E+00  1.000000E+00  0.000000E+00
  0.000451450  4.693640E-02 -7.442810E-03  5.850630E-03 -3.115850E-03  1.000000E+00  0.000000E+00  1.000000E+00  0.000000E+00
  0.000453925  4.628430E-02 -7.243930E-03  5.317690E-03 -2.685000E-03  1.000000E+00  0.000000E+00  1.000000E+00  0.000000E+00
