! Anritsu VNA Master:                        Model: MS2026C/19
! SN:                                  1815009
! /card0/usr/20180902_17.s2p
! Existing Calibration Information:
! TYPE:                         Current Settings,       Active Cal Settings
! TIME:             	   09/02/2018 12:51:56 PM,    09/02/2018 11:58:48 AM
! INTERNAL TEMP:    	                   53.8 C,                    48.8 C
! # POINTS:         	                     4001,                      4001
! START FREQ:       	              100.000 kHz,               100.000 kHz
! STOP FREQ:        	               10.000 MHz,                10.000 MHz
! SOURCE POWER:     	                      Low,                       Low
! IFBW:             	                   500 Hz,                    500 Hz
! AVG FACTOR:       	                       1 ,                        1 
! REF PLANE 1:      	                     0 mm,                      0 mm
! REF PLANE 2:      	                     0 mm,                      0 mm
! CAL TYPE:         	             1P2P S11,S21,              1P2P S11,S21
! CAL METHOD:       	                     SOLT,                      SOLT
! CAL LINE TYPE:    	                     Coax,                      Coax
! DUT PORT 1:       	                N-Conn(M),                 N-Conn(M)
! DUT PORT 2:       	                N-Conn(M),                 N-Conn(M)
! CAL STATUS:       	?T: Accuracy moderate (|Temp diff| > 5.0 C),                        --
# GHZ S RI R 50.0
! FREQ.GHZ      S11RE         S11IM         S21RE         S21IM         S12RE         S12IM         S22RE         S22IM
  0.000100000  6.955940E-04 -5.996430E-02  7.943430E-04 -2.613270E-03  1.000000E+00  0.000000E+00  1.000000E+00  0.000000E+00
  0.000102475  4.042370E-03 -5.737790E-02  4.272580E-04 -1.871500E-03  1.000000E+00  0.000000E+00  1.000000E+00  0.000000E+00
  0.000104950  2.853100E-03 -5.665290E-02  6.998230E-05 -1.576600E-03  1.000000E+00  0.000000E+00  1.000000E+00  0.000000E+00
  0.000107425  5.861110E-03 -5.303780E-02 -5.736560E-04 -1.997610E-03  1.000000E+00  0.000000E+00  1.000000E+00  0.000000E+00
  0.000109900  8.486660E-03 -5.169600E-02 -1.659010E-03 -3.140060E-03  1.000000E+00  0.000000E+00  1.000000E+00  0.000000E+00
  0.000112375  7.671730E-03 -4.979740E-02 -7.311560E-04 -2.276190E-03  1.000000E+00  0.000000E+00  1.000000E+00  0.000000E+00
  0.000114850  8.514740E-03 -4.756500E-02 -5.884150E-05 -2.024270E-03  1.000000E+00  0.000000E+00  1.000000E+00  0.000000E+00
  0.000117325  1.042560E-02 -4.597100E-02 -1.498790E-03 -1.919740E-03  1.000000E+00  0.000000E+00  1.000000E+00  0.000000E+00
  0.000119800  1.002220E-02 -4.444050E-02 -1.430610E-03 -2.503700E-03  1.000000E+00  0.000000E+00  1.000000E+00  0.000000E+00
  0.000122275  1.097740E-02 -4.112690E-02 -9.233120E-04 -2.247420E-03  1.000000E+00  0.000000E+00  1.000000E+00  0.000000E+00
  0.000124750  1.325420E-02 -4.214460E-02 -1.217660E-03 -2.524120E-03  1.000000E+00  0.000000E+00  1.000000E+00  0.000000E+00
  0.000127225  1.230600E-02 -4.102740E-02 -1.123790E-03 -1.864750E-04  1.000000E+00  0.000000E+00  1.000000E+00  0.000000E+00
  0.000129700  1.499100E-02 -3.895730E-02 -1.264100E-03 -1.422700E-03  1.000000E+00  0.000000E+00  1.000000E+00  0.000000E+00
  0.000132175  1.548500E-02 -3.736900E-02 -2.079090E-03 -1.759730E-03  1.000000E+00  0.000000E+00  1.000000E+00  0.000000E+00
  0.000134650  1.686010E-02 -3.728820E-02 -6.238060E-04 -7.130910E-04  1.000000E+00  0.000000E+00  1.000000E+00  0.000000E+00
  0.000137125  1.758650E-02 -3.595560E-02 -2.153870E-03 -5.441890E-04  1.000000E+00  0.000000E+00  1.000000E+00  0.000000E+00
  0.000139600  1.658360E-02 -3.462800E-02 -1.208810E-03 -1.101700E-04  1.000000E+00  0.000000E+00  1.000000E+00  0.000000E+00
  0.000142075  1.920860E-02 -3.264730E-02 -1.755920E-03 -1.602710E-03  1.000000E+00  0.000000E+00  1.000000E+00  0.000000E+00
  0.000144550  1.859280E-02 -3.251140E-02 -1.725870E-03 -2.616960E-04  1.000000E+00  0.000000E+00  1.000000E+00  0.000000E+00
  0.000147025  1.999160E-02 -3.042160E-02 -1.313380E-03 -7.860480E-04  1.000000E+00  0.000000E+00  1.000000E+00  0.000000E+00
  0.000149500  2.161270E-02 -3.085330E-02 -8.110980E-04  2.110720E-04  1.000000E+00  0.000000E+00  1.000000E+00  0.000000E+00
  0.000151975  2.155720E-02 -2.972620E-02 -1.670660E-03 -1.625890E-03  1.000000E+00  0.000000E+00  1.000000E+00  0.000000E+00
  0.000154450  2.320640E-02 -2.752360E-02 -1.604190E-03  8.472230E-05  1.000000E+00  0.000000E+00  1.000000E+00  0.000000E+00
  0.000156925  2.293980E-02 -2.803210E-02 -2.329140E-04 -4.370170E-04  1.000000E+00  0.000000E+00  1.000000E+00  0.000000E+00
  0.000159400  2.218740E-02 -2.610520E-02 -1.799180E-03  4.323050E-04  1.000000E+00  0.000000E+00  1.000000E+00  0.000000E+00
  0.000161875  2.314480E-02 -2.855970E-02 -1.760440E-03  6.805610E-05  1.000000E+00  0.000000E+00  1.000000E+00  0.000000E+00
  0.000164350  2.381600E-02 -2.618240E-02 -2.229610E-03 -4.195370E-04  1.000000E+00  0.000000E+00  1.000000E+00  0.000000E+00
  0.000166825  2.490100E-02 -2.477150E-02 -4.918360E-04 -4.321090E-04  1.000000E+00  0.000000E+00  1.000000E+00  0.000000E+00
  0.000169300  2.412150E-02 -2.580310E-02 -1.002740E-03  3.437800E-04  1.000000E+00  0.000000E+00  1.000000E+00  0.000000E+00
  0.000171775  2.510620E-02 -2.334340E-02 -9.524040E-04 -1.296840E-03  1.000000E+00  0.000000E+00  1.000000E+00  0.000000E+00
  0.000174250  2.558070E-02 -2.293270E-02 -3.242270E-03  1.369460E-05  1.000000E+00  0.000000E+00  1.000000E+00  0.000000E+00
  0.000176725  2.718250E-02 -2.315240E-02 -7.582420E-04 -1.067430E-03  1.000000E+00  0.000000E+00  1.000000E+00  0.000000E+00
  0.000179200  2.670630E-02 -2.225530E-02 -3.166440E-03 -3.139160E-04  1.000000E+00  0.000000E+00  1.000000E+00  0.000000E+00
  0.000181675  2.709350E-02 -2.186210E-02  1.581980E-04 -1.629660E-03  1.000000E+00  0.000000E+00  1.000000E+00  0.000000E+00
  0.000184150  2.731610E-02 -2.073040E-02 -5.458970E-04 -3.917210E-05  1.000000E+00  0.000000E+00  1.000000E+00  0.000000E+00
  0.000186625  2.795000E-02 -2.119040E-02 -1.174200E-03 -4.963500E-04  1.000000E+00  0.000000E+00  1.000000E+00  0.000000E+00
  0.000189100  2.809860E-02 -2.115450E-02 -1.806970E-03 -8.244990E-04  1.000000E+00  0.000000E+00  1.000000E+00  0.000000E+00
  0.000191575  2.715700E-02 -1.964110E-02  8.391120E-04  5.642920E-04  1.000000E+00  0.000000E+00  1.000000E+00  0.000000E+00
  0.000194050  2.732370E-02 -2.083330E-02 -2.033870E-03 -1.105970E-03  1.000000E+00  0.000000E+00  1.000000E+00  0.000000E+00
  0.000196525  2.840740E-02 -1.996520E-02 -2.499350E-03 -2.762960E-04  1.000000E+00  0.000000E+00  1.000000E+00  0.000000E+00
  0.000199000  2.926960E-02 -1.888880E-02 -1.068700E-03  2.406360E-04  1.000000E+00  0.000000E+00  1.000000E+00  0.000000E+00
  0.000201475  2.884340E-02 -1.931890E-02 -2.185320E-03 -9.954670E-04  1.000000E+00  0.000000E+00  1.000000E+00  0.000000E+00
  0.000203950  2.818160E-02 -1.686400E-02 -1.498980E-03 -7.386170E-04  1.000000E+00  0.000000E+00  1.000000E+00  0.000000E+00
  0.000206425  2.909510E-02 -1.798240E-02 -1.689100E-03 -8.641760E-04  1.000000E+00  0.000000E+00  1.000000E+00  0.000000E+00
  0.000208900  2.951800E-02 -1.882860E-02 -1.128070E-03  1.457080E-03  1.000000E+00  0.000000E+00  1.000000E+00  0.000000E+00
  0.000211375  3.082330E-02 -1.776000E-02 -8.663610E-05 -1.094120E-03  1.000000E+00  0.000000E+00  1.000000E+00  0.000000E+00
  0.000213850  3.088910E-02 -1.624800E-02 -1.992570E-03 -1.364980E-03  1.000000E+00  0.000000E+00  1.000000E+00  0.000000E+00
  0.000216325  2.991010E-02 -1.732720E-02 -7.929330E-04  2.734000E-04  1.000000E+00  0.000000E+00  1.000000E+00  0.000000E+00
  0.000218800  3.073910E-02 -1.641460E-02 -9.814620E-04 -1.238520E-03  1.000000E+00  0.000000E+00  1.000000E+00  0.000000E+00
  0.000221275  3.150980E-02 -1.596620E-02 -1.831140E-03 -6.285240E-04  1.000000E+00  0.000000E+00  1.000000E+00  0.000000E+00
  0.000223750  3.074640E-02 -1.512520E-02 -1.714280E-03 -9.994810E-04  1.000000E+00  0.000000E+00  1.000000E+00  0.000000E+00
  0.000226225  3.101560E-02 -1.552330E-02 -7.763030E-04 -3.246460E-04  1.000000E+00  0.000000E+00  1.000000E+00  0.000000E+00
  0.000228700  3.113800E-02 -1.552750E-02 -6.107840E-04 -1.999440E-03  1.000000E+00  0.000000E+00  1.000000E+00  0.000000E+00
  0.000231175  3.213190E-02 -1.584340E-02 -1.677960E-03  1.108190E-04  1.000000E+00  0.000000E+00  1.000000E+00  0.000000E+00
  0.000233650  3.168170E-02 -1.504370E-02 -1.040240E-03 -1.469400E-03  1.000000E+00  0.000000E+00  1.000000E+00  0.000000E+00
  0.000236125  3.186550E-02 -1.347580E-02 -2.126400E-03 -5.164650E-04  1.000000E+00  0.000000E+00  1.000000E+00  0.000000E+00
  0.000238600  3.303770E-02 -1.452110E-02 -8.009480E-04 -1.627230E-03  1.000000E+00  0.000000E+00  1.000000E+00  0.000000E+00
  0.000241075  3.230410E-02 -1.397780E-02  2.670970E-04 -3.237500E-04  1.000000E+00  0.000000E+00  1.000000E+00  0.000000E+00
  0.000243550  3.223470E-02 -1.374320E-02 -1.303220E-03 -2.210160E-03  1.000000E+00  0.000000E+00  1.000000E+00  0.000000E+00
  0.000246025  3.415810E-02 -1.343390E-02 -2.272850E-03  3.671570E-04  1.000000E+00  0.000000E+00  1.000000E+00  0.000000E+00
  0.000248500  3.164380E-02 -1.308750E-02 -2.451880E-03 -6.632790E-04  1.000000E+00  0.000000E+00  1.000000E+00  0.000000E+00
  0.000250975  3.215210E-02 -1.411950E-02 -8.556660E-04 -1.078910E-03  1.000000E+00  0.000000E+00  1.000000E+00  0.000000E+00
  0.000253450  3.271650E-02 -1.185770E-02 -1.096330E-03 -7.210560E-04  1.000000E+00  0.000000E+00  1.000000E+00  0.000000E+00
  0.000255925  3.115130E-02 -1.273130E-02 -7.156050E-04 -1.521230E-03  1.000000E+00  0.000000E+00  1.000000E+00  0.000000E+00
  0.000258400  3.253120E-02 -1.078320E-02 -2.045750E-03 -1.114590E-03  1.000000E+00  0.000000E+00  1.000000E+00  0.000000E+00
  0.000260875  3.235940E-02 -1.174720E-02 -2.289160E-03 -1.727980E-03  1.000000E+00  0.000000E+00  1.000000E+00  0.000000E+00
  0.000263350  3.336490E-02 -1.017650E-02 -1.219920E-03 -2.259450E-03  1.000000E+00  0.000000E+00  1.000000E+00  0.000000E+00
  0.000265825  3.327790E-02 -1.056150E-02 -2.294940E-03 -8.784850E-04  1.000000E+00  0.000000E+00  1.000000E+00  0.000000E+00
  0.000268300  3.373810E-02 -1.014220E-02 -2.083620E-03 -1.331260E-03  1.000000E+00  0.000000E+00  1.000000E+00  0.000000E+00
  0.000270775  3.316730E-02 -9.443040E-03 -2.992800E-03 -2.797370E-03  1.000000E+00  0.000000E+00  1.000000E+00  0.000000E+00
  0.000273250  3.422990E-02 -9.942840E-03 -6.579050E-04 -7.970200E-04  1.000000E+00  0.000000E+00  1.000000E+00  0.000000E+00
  0.000275725  3.406150E-02 -9.964620E-03 -3.021530E-03 -2.078680E-03  1.000000E+00  0.000000E+00  1.000000E+00  0.000000E+00
  0.000278200  3.515990E-02 -1.016500E-02 -1.347480E-03 -1.559800E-03  1.000000E+00  0.000000E+00  1.000000E+00  0.000000E+00
  0.000280675  3.477550E-02 -8.116730E-03 -4.391250E-03 -1.914450E-03  1.000000E+00  0.000000E+00  1.000000E+00  0.000000E+00
  0.000283150  3.451870E-02 -9.149280E-03 -1.866070E-03 -5.338660E-04  1.000000E+00  0.000000E+00  1.000000E+00  0.000000E+00
  0.000285625  3.485050E-02 -9.810910E-03 -2.498560E-03 -1.451840E-03  1.000000E+00  0.000000E+00  1.000000E+00  0.000000E+00
  0.000288100  3.443570E-02 -9.403150E-03 -2.393930E-03 -5.848460E-04  1.000000E+00  0.000000E+00  1.000000E+00  0.000000E+00
  0.000290575  3.401560E-02 -6.058060E-03 -4.772730E-03 -2.498870E-03  1.000000E+00  0.000000E+00  1.000000E+00  0.000000E+00
  0.000293050  3.499650E-02 -7.745850E-03 -3.377800E-03 -7.609880E-04  1.000000E+00  0.000000E+00  1.000000E+00  0.000000E+00
  0.000295525  3.531070E-02 -4.422260E-03 -2.692050E-03 -3.409390E-04  1.000000E+00  0.000000E+00  1.000000E+00  0.000000E+00
  0.000298000  3.365040E-02 -7.602710E-03 -2.209130E-03  1.188970E-04  1.000000E+00  0.000000E+00  1.000000E+00  0.000000E+00
  0.000300475  3.565470E-02 -7.229600E-03 -5.209400E-03 -7.184670E-04  1.000000E+00  0.000000E+00  1.000000E+00  0.000000E+00
  0.000302950  3.450700E-02 -5.828920E-03 -2.864230E-03 -2.035780E-03  1.000000E+00  0.000000E+00  1.000000E+00  0.000000E+00
  0.000305425  3.484750E-02 -4.773250E-03 -2.066740E-03 -4.255230E-04  1.000000E+00  0.000000E+00  1.000000E+00  0.000000E+00
  0.000307900  3.631060E-02 -5.468950E-03 -1.258350E-03 -1.428330E-03  1.000000E+00  0.000000E+00  1.000000E+00  0.000000E+00
  0.000310375  3.677080E-02 -5.398820E-03 -4.140040E-03 -5.949920E-04  1.000000E+00  0.000000E+00  1.000000E+00  0.000000E+00
  0.000312850  3.846910E-02 -4.726740E-03 -7.356050E-03 -1.374670E-03  1.000000E+00  0.000000E+00  1.000000E+00  0.000000E+00
  0.000315325  3.637070E-02 -4.540480E-03 -3.376800E-03 -1.385990E-03  1.000000E+00  0.000000E+00  1.000000E+00  0.000000E+00
  0.000317800  3.591960E-02 -2.439440E-03 -3.278220E-03 -6.332830E-04  1.000000E+00  0.000000E+00  1.000000E+00  0.000000E+00
  0.000320275  3.657200E-02 -4.216840E-03 -4.287660E-03 -3.504580E-04  1.000000E+00  0.000000E+00  1.000000E+00  0.000000E+00
  0.000322750  3.822870E-02 -3.411020E-03 -1.190160E-02  1.938250E-03  1.000000E+00  0.000000E+00  1.000000E+00  0.000000E+00
  0.000325225  3.784970E-02 -3.813650E-03 -3.501410E-03 -8.268510E-04  1.000000E+00  0.000000E+00  1.000000E+00  0.000000E+00
  0.000327700  3.726500E-02 -3.355460E-03 -3.286760E-03 -5.346830E-04  1.000000E+00  0.000000E+00  1.000000E+00  0.000000E+00
  0.000330175  3.866780E-02 -3.382380E-03 -4.026090E-03 -8.295470E-05  1.000000E+00  0.000000E+00  1.000000E+00  0.000000E+00
  0.000332650  3.921550E-02 -3.737180E-03 -1.015580E-02  6.206550E-03  1.000000E+00  0.000000E+00  1.000000E+00  0.000000E+00
  0.000335125  3.794140E-02 -3.137430E-03 -6.570040E-03  4.423120E-03  1.000000E+00  0.000000E+00  1.000000E+00  0.000000E+00
  0.000337600  3.851280E-02 -1.880030E-03 -4.743710E-03  4.967790E-04  1.000000E+00  0.000000E+00  1.000000E+00  0.000000E+00
  0.000340075  3.997790E-02 -2.586680E-03 -4.277630E-03  5.685470E-05  1.000000E+00  0.000000E+00  1.000000E+00  0.000000E+00
  0.000342550  3.964750E-02 -2.972850E-03 -5.703440E-03  6.452700E-03  1.000000E+00  0.000000E+00  1.000000E+00  0.000000E+00
  0.000345025  4.063600E-02 -3.783780E-03 -3.918370E-03  9.300620E-03  1.000000E+00  0.000000E+00  1.000000E+00  0.000000E+00
  0.000347500  4.061280E-02 -1.733950E-03 -4.905780E-03  1.371970E-03  1.000000E+00  0.000000E+00  1.000000E+00  0.000000E+00
  0.000349975  4.073280E-02 -9.474000E-04 -5.109470E-03  5.475190E-04  1.000000E+00  0.000000E+00  1.000000E+00  0.000000E+00
  0.000352450  4.135350E-02 -2.899540E-03 -4.382850E-03  5.892030E-03  1.000000E+00  0.000000E+00  1.000000E+00  0.000000E+00
  0.000354925  4.066340E-02 -2.658300E-03  4.593320E-04  8.451220E-03  1.000000E+00  0.000000E+00  1.000000E+00  0.000000E+00
  0.000357400  4.022240E-02 -1.658330E-03 -5.766930E-03  1.305650E-03  1.000000E+00  0.000000E+00  1.000000E+00  0.000000E+00
  0.000359875  4.078120E-02 -1.876950E-03 -5.412440E-03  2.682870E-03  1.000000E+00  0.000000E+00  1.000000E+00  0.000000E+00
  0.000362350  4.182770E-02 -2.932130E-03 -2.001140E-03  4.586890E-03  1.000000E+00  0.000000E+00  1.000000E+00  0.000000E+00
  0.000364825  4.075980E-02 -1.612550E-03  2.900270E-03  6.185150E-03  1.000000E+00  0.000000E+00  1.000000E+00  0.000000E+00
  0.000367300  4.368110E-02 -7.098740E-04 -3.049680E-03  5.135250E-03  1.000000E+00  0.000000E+00  1.000000E+00  0.000000E+00
  0.000369775  4.187990E-02 -1.479700E-03 -6.914230E-03  5.607580E-03  1.000000E+00  0.000000E+00  1.000000E+00  0.000000E+00
  0.000372250  4.318350E-02 -1.047660E-03 -3.857900E-03  6.666320E-03  1.000000E+00  0.000000E+00  1.000000E+00  0.000000E+00
  0.000374725  4.237200E-02 -9.010500E-04 -1.558960E-04  5.564500E-03  1.000000E+00  0.000000E+00  1.000000E+00  0.000000E+00
  0.000377200  4.297440E-02 -2.150820E-03 -1.008320E-03  5.688900E-03  1.000000E+00  0.000000E+00  1.000000E+00  0.000000E+00
  0.000379675  4.331010E-02 -2.842520E-03 -4.008930E-03  6.958180E-03  1.000000E+00  0.000000E+00  1.000000E+00  0.000000E+00
  0.000382150  4.209960E-02 -2.588130E-03 -2.521840E-03  7.121520E-03  1.000000E+00  0.000000E+00  1.000000E+00  0.000000E+00
  0.000384625  4.439670E-02 -1.559440E-03  6.104150E-04  7.059420E-03  1.000000E+00  0.000000E+00  1.000000E+00  0.000000E+00
  0.000387100  4.292390E-02 -2.185810E-03  2.813510E-03  4.520310E-03  1.000000E+00  0.000000E+00  1.000000E+00  0.000000E+00
  0.000389575  4.544660E-02 -1.149160E-03 -1.214800E-03  8.113120E-03  1.000000E+00  0.000000E+00  1.000000E+00  0.000000E+00
  0.000392050  4.583170E-02 -8.489020E-04  1.955220E-03  7.420320E-03  1.000000E+00  0.000000E+00  1.000000E+00  0.000000E+00
  0.000394525  4.477710E-02 -1.790980E-03  3.099570E-03  6.126170E-03  1.000000E+00  0.000000E+00  1.000000E+00  0.000000E+00
  0.000397000  4.413750E-02 -1.881370E-03  1.991790E-03  3.066800E-03  1.000000E+00  0.000000E+00  1.000000E+00  0.000000E+00
  0.000399475  4.520580E-02 -2.149900E-03  1.123190E-03  5.298970E-03  1.000000E+00  0.000000E+00  1.000000E+00  0.000000E+00
  0.000401950  4.343750E-02 -3.329020E-03  1.731970E-03  6.374980E-03  1.000000E+00  0.000000E+00  1.000000E+00  0.000000E+00
  0.000404425  4.724540E-02 -2.294890E-03  3.473390E-03  3.338880E-03  1.000000E+00  0.000000E+00  1.000000E+00  0.000000E+00
  0.000406900  4.548440E-02 -2.592140E-03  2.599130E-03  3.949430E-03  1.000000E+00  0.000000E+00  1.000000E+00  0.000000E+00
  0.000409375  4.511320E-02 -3.728880E-03  2.827210E-03  2.182700E-03  1.000000E+00  0.000000E+00  1.000000E+00  0.000000E+00
  0.000411850  4.560280E-02 -3.516580E-03  2.607070E-03  4.001900E-03  1.000000E+00  0.000000E+00  1.000000E+00  0.000000E+00
  0.000414325  4.486550E-02 -1.926930E-03  4.076010E-03  1.464530E-03  1.000000E+00  0.000000E+00  1.000000E+00  0.000000E+00
  0.000416800  4.569650E-02 -2.215340E-03  2.267490E-03  2.127460E-03  1.000000E+00  0.000000E+00  1.000000E+00  0.000000E+00
  0.000419275  4.527110E-02 -4.338260E-03  2.290950E-03  2.628900E-03  1.000000E+00  0.000000E+00  1.000000E+00  0.000000E+00
  0.000421750  4.556680E-02 -2.967210E-03  2.962240E-03  3.503570E-03  1.000000E+00  0.000000E+00  1.000000E+00  0.000000E+00
  0.000424225  4.715250E-02 -2.910130E-03  2.247560E-03  3.425540E-04  1.000000E+00  0.000000E+00  1.000000E+00  0.000000E+00
  0.000426700  4.563550E-02 -2.806950E-03  5.020810E-03  1.021050E-03  1.000000E+00  0.000000E+00  1.000000E+00  0.000000E+00
  0.000429175  4.549510E-02 -4.178070E-03  2.021640E-03  1.794160E-03  1.000000E+00  0.000000E+00  1.000000E+00  0.000000E+00
  0.000431650  4.512710E-02 -3.257760E-03  3.291690E-03  6.583820E-04  1.000000E+00  0.000000E+00  1.000000E+00  0.000000E+00
  0.000434125  4.764550E-02 -3.707420E-03  3.750990E-03 -1.290190E-03  1.000000E+00  0.000000E+00  1.000000E+00  0.000000E+00
  0.000436600  4.557360E-02 -3.739570E-03  3.890160E-03 -4.586690E-04  1.000000E+00  0.000000E+00  1.000000E+00  0.000000E+00
  0.000439075  4.704710E-02 -3.197290E-03  7.910770E-04 -5.745650E-05  1.000000E+00  0.000000E+00  1.000000E+00  0.000000E+00
  0.000441550  4.617580E-02 -2.398060E-03  2.727430E-03  4.715650E-04  1.000000E+00  0.000000E+00  1.000000E+00  0.000000E+00
  0.000444025  4.725520E-02 -2.112260E-03  1.784490E-03 -2.784030E-04  1.000000E+00  0.000000E+00  1.000000E+00  0.000000E+00
  0.000446500  4.732980E-02 -3.205620E-03  3.814380E-03 -8.698450E-04  1.000000E+00  0.000000E+00  1.000000E+00  0.000000E+00
  0.000448975  4.631040E-02 -2.762870E-03  1.264870E-03 -1.872030E-03  1.000000E+00  0.000000E+00  1.000000E+00  0.000000E+00
  0.000451450  4.669430E-02 -3.642360E-03  7.781780E-04 -5.125110E-04  1.000000E+00  0.000000E+00  1.000000E+00  0.000000E+00
  0.000453925  4.704060E-02 -4.212780E-03  2.026350E-03 -1.375510E-03  1.000000E+00  0.000000E+00  1.000000E+00  0.000000E+00
