! Anritsu VNA Master:                        Model: MS2026C/19
! SN:                                  1815009
! /card0/usr/20180902_13.s2p
! Existing Calibration Information:
! TYPE:                         Current Settings,       Active Cal Settings
! TIME:             	   09/02/2018 12:47:11 PM,    09/02/2018 11:58:48 AM
! INTERNAL TEMP:    	                   53.5 C,                    48.8 C
! # POINTS:         	                     4001,                      4001
! START FREQ:       	              100.000 kHz,               100.000 kHz
! STOP FREQ:        	               10.000 MHz,                10.000 MHz
! SOURCE POWER:     	                      Low,                       Low
! IFBW:             	                   500 Hz,                    500 Hz
! AVG FACTOR:       	                       1 ,                        1 
! REF PLANE 1:      	                     0 mm,                      0 mm
! REF PLANE 2:      	                     0 mm,                      0 mm
! CAL TYPE:         	             1P2P S11,S21,              1P2P S11,S21
! CAL METHOD:       	                     SOLT,                      SOLT
! CAL LINE TYPE:    	                     Coax,                      Coax
! DUT PORT 1:       	                N-Conn(M),                 N-Conn(M)
! DUT PORT 2:       	                N-Conn(M),                 N-Conn(M)
! CAL STATUS:       	        OK: Accuracy High,                        --
# GHZ S RI R 50.0
! FREQ.GHZ      S11RE         S11IM         S21RE         S21IM         S12RE         S12IM         S22RE         S22IM
  0.000100000 -3.192450E-06 -5.954240E-02 -1.009090E-03 -2.749780E-03  1.000000E+00  0.000000E+00  1.000000E+00  0.000000E+00
  0.000102475  2.532310E-03 -5.704250E-02  1.211000E-04 -1.755720E-03  1.000000E+00  0.000000E+00  1.000000E+00  0.000000E+00
  0.000104950  4.167710E-03 -5.504210E-02  3.503520E-06 -2.791210E-03  1.000000E+00  0.000000E+00  1.000000E+00  0.000000E+00
  0.000107425  5.408720E-03 -5.302440E-02 -2.755930E-04 -2.181220E-03  1.000000E+00  0.000000E+00  1.000000E+00  0.000000E+00
  0.000109900  6.605670E-03 -5.099740E-02  4.552250E-04 -2.751560E-03  1.000000E+00  0.000000E+00  1.000000E+00  0.000000E+00
  0.000112375  7.066720E-03 -5.012400E-02 -9.558090E-04 -2.492140E-03  1.000000E+00  0.000000E+00  1.000000E+00  0.000000E+00
  0.000114850  8.077020E-03 -4.760370E-02 -1.726660E-03 -1.920510E-03  1.000000E+00  0.000000E+00  1.000000E+00  0.000000E+00
  0.000117325  1.038180E-02 -4.585010E-02 -7.423500E-04 -2.100710E-03  1.000000E+00  0.000000E+00  1.000000E+00  0.000000E+00
  0.000119800  1.223630E-02 -4.441350E-02 -6.266890E-04 -2.149620E-03  1.000000E+00  0.000000E+00  1.000000E+00  0.000000E+00
  0.000122275  1.093820E-02 -4.178540E-02 -1.089910E-03 -1.925710E-03  1.000000E+00  0.000000E+00  1.000000E+00  0.000000E+00
  0.000124750  1.365220E-02 -4.252850E-02 -9.397240E-04 -2.130710E-03  1.000000E+00  0.000000E+00  1.000000E+00  0.000000E+00
  0.000127225  1.260720E-02 -4.018440E-02 -2.757060E-04 -1.103180E-03  1.000000E+00  0.000000E+00  1.000000E+00  0.000000E+00
  0.000129700  1.424020E-02 -3.626330E-02 -1.535240E-03 -9.050260E-04  1.000000E+00  0.000000E+00  1.000000E+00  0.000000E+00
  0.000132175  1.626200E-02 -3.671620E-02 -1.821420E-03 -2.069390E-03  1.000000E+00  0.000000E+00  1.000000E+00  0.000000E+00
  0.000134650  1.655010E-02 -3.638310E-02 -1.480410E-03 -1.121230E-03  1.000000E+00  0.000000E+00  1.000000E+00  0.000000E+00
  0.000137125  1.726530E-02 -3.464420E-02 -1.859650E-03 -6.182280E-04  1.000000E+00  0.000000E+00  1.000000E+00  0.000000E+00
  0.000139600  1.748430E-02 -3.388180E-02 -2.861270E-03 -1.023120E-04  1.000000E+00  0.000000E+00  1.000000E+00  0.000000E+00
  0.000142075  1.940740E-02 -3.317040E-02 -1.874460E-03 -7.248990E-04  1.000000E+00  0.000000E+00  1.000000E+00  0.000000E+00
  0.000144550  1.952010E-02 -3.175110E-02 -2.036530E-03 -2.063410E-03  1.000000E+00  0.000000E+00  1.000000E+00  0.000000E+00
  0.000147025  2.014900E-02 -3.044030E-02 -9.527320E-04 -1.100810E-03  1.000000E+00  0.000000E+00  1.000000E+00  0.000000E+00
  0.000149500  2.172590E-02 -3.080240E-02 -2.307620E-03 -6.310030E-04  1.000000E+00  0.000000E+00  1.000000E+00  0.000000E+00
  0.000151975  2.089160E-02 -2.860310E-02 -2.243300E-03 -1.045440E-03  1.000000E+00  0.000000E+00  1.000000E+00  0.000000E+00
  0.000154450  2.158800E-02 -2.717450E-02 -1.128770E-03 -1.365380E-03  1.000000E+00  0.000000E+00  1.000000E+00  0.000000E+00
  0.000156925  2.345730E-02 -2.736180E-02 -1.136080E-03 -4.755670E-04  1.000000E+00  0.000000E+00  1.000000E+00  0.000000E+00
  0.000159400  2.281920E-02 -2.634490E-02 -3.010640E-04  3.921840E-05  1.000000E+00  0.000000E+00  1.000000E+00  0.000000E+00
  0.000161875  2.372160E-02 -2.845810E-02 -8.009820E-04 -1.175310E-03  1.000000E+00  0.000000E+00  1.000000E+00  0.000000E+00
  0.000164350  2.307600E-02 -2.613530E-02 -1.797530E-03 -1.896530E-03  1.000000E+00  0.000000E+00  1.000000E+00  0.000000E+00
  0.000166825  2.476980E-02 -2.502010E-02 -1.243790E-03 -1.171180E-03  1.000000E+00  0.000000E+00  1.000000E+00  0.000000E+00
  0.000169300  2.461100E-02 -2.576100E-02 -7.963060E-04 -1.136480E-03  1.000000E+00  0.000000E+00  1.000000E+00  0.000000E+00
  0.000171775  2.543060E-02 -2.305880E-02 -1.652050E-03 -5.539110E-04  1.000000E+00  0.000000E+00  1.000000E+00  0.000000E+00
  0.000174250  2.576330E-02 -2.374320E-02 -4.259600E-04 -9.451320E-04  1.000000E+00  0.000000E+00  1.000000E+00  0.000000E+00
  0.000176725  2.794930E-02 -2.257710E-02 -1.487270E-03 -1.517860E-03  1.000000E+00  0.000000E+00  1.000000E+00  0.000000E+00
  0.000179200  2.643400E-02 -2.238590E-02  1.564860E-05 -2.283340E-03  1.000000E+00  0.000000E+00  1.000000E+00  0.000000E+00
  0.000181675  2.689140E-02 -2.220230E-02 -5.007220E-04  3.947140E-05  1.000000E+00  0.000000E+00  1.000000E+00  0.000000E+00
  0.000184150  2.712090E-02 -2.263470E-02 -1.583830E-03 -2.898470E-04  1.000000E+00  0.000000E+00  1.000000E+00  0.000000E+00
  0.000186625  2.832460E-02 -2.127400E-02 -2.110870E-03 -7.780730E-05  1.000000E+00  0.000000E+00  1.000000E+00  0.000000E+00
  0.000189100  2.857910E-02 -2.130060E-02 -7.083190E-04 -1.069340E-03  1.000000E+00  0.000000E+00  1.000000E+00  0.000000E+00
  0.000191575  2.682470E-02 -2.156970E-02 -9.646830E-04 -1.046170E-03  1.000000E+00  0.000000E+00  1.000000E+00  0.000000E+00
  0.000194050  2.778200E-02 -2.100720E-02 -2.235200E-03 -1.469220E-04  1.000000E+00  0.000000E+00  1.000000E+00  0.000000E+00
  0.000196525  2.852980E-02 -1.980260E-02 -4.170740E-04 -1.227230E-03  1.000000E+00  0.000000E+00  1.000000E+00  0.000000E+00
  0.000199000  2.890340E-02 -2.003350E-02  3.260380E-04  3.915110E-04  1.000000E+00  0.000000E+00  1.000000E+00  0.000000E+00
  0.000201475  2.947030E-02 -1.833370E-02 -8.948890E-04  4.201880E-04  1.000000E+00  0.000000E+00  1.000000E+00  0.000000E+00
  0.000203950  2.897790E-02 -1.728510E-02 -7.626540E-04 -1.928100E-03  1.000000E+00  0.000000E+00  1.000000E+00  0.000000E+00
  0.000206425  2.982590E-02 -1.881780E-02 -1.166950E-03 -9.166260E-04  1.000000E+00  0.000000E+00  1.000000E+00  0.000000E+00
  0.000208900  2.954010E-02 -1.774240E-02 -1.807750E-03 -1.272120E-03  1.000000E+00  0.000000E+00  1.000000E+00  0.000000E+00
  0.000211375  3.003130E-02 -1.792680E-02 -9.005600E-04 -1.879930E-03  1.000000E+00  0.000000E+00  1.000000E+00  0.000000E+00
  0.000213850  2.903640E-02 -1.713240E-02 -2.129150E-03  1.509270E-04  1.000000E+00  0.000000E+00  1.000000E+00  0.000000E+00
  0.000216325  3.070990E-02 -1.608900E-02 -1.863870E-03 -1.232040E-03  1.000000E+00  0.000000E+00  1.000000E+00  0.000000E+00
  0.000218800  2.970400E-02 -1.735850E-02  5.871520E-04 -2.210170E-04  1.000000E+00  0.000000E+00  1.000000E+00  0.000000E+00
  0.000221275  3.238100E-02 -1.685740E-02 -8.282750E-04 -2.535740E-05  1.000000E+00  0.000000E+00  1.000000E+00  0.000000E+00
  0.000223750  3.111930E-02 -1.546610E-02 -1.120310E-03 -5.600650E-04  1.000000E+00  0.000000E+00  1.000000E+00  0.000000E+00
  0.000226225  3.134710E-02 -1.473940E-02 -1.732990E-03 -6.354730E-04  1.000000E+00  0.000000E+00  1.000000E+00  0.000000E+00
  0.000228700  2.893300E-02 -1.566120E-02 -2.556540E-03 -1.541020E-03  1.000000E+00  0.000000E+00  1.000000E+00  0.000000E+00
  0.000231175  3.053750E-02 -1.581880E-02 -1.045260E-03  4.063740E-05  1.000000E+00  0.000000E+00  1.000000E+00  0.000000E+00
  0.000233650  3.122350E-02 -1.520570E-02 -1.488330E-03 -7.931600E-04  1.000000E+00  0.000000E+00  1.000000E+00  0.000000E+00
  0.000236125  3.092520E-02 -1.422710E-02 -2.459530E-03 -1.883310E-03  1.000000E+00  0.000000E+00  1.000000E+00  0.000000E+00
  0.000238600  3.250520E-02 -1.359320E-02 -2.047710E-03 -4.552310E-04  1.000000E+00  0.000000E+00  1.000000E+00  0.000000E+00
  0.000241075  3.134640E-02 -1.358970E-02 -1.821020E-03 -1.367670E-03  1.000000E+00  0.000000E+00  1.000000E+00  0.000000E+00
  0.000243550  3.126330E-02 -1.357490E-02 -1.407020E-03  4.106210E-05  1.000000E+00  0.000000E+00  1.000000E+00  0.000000E+00
  0.000246025  3.361580E-02 -1.353890E-02 -1.498570E-03 -6.400650E-04  1.000000E+00  0.000000E+00  1.000000E+00  0.000000E+00
  0.000248500  3.198270E-02 -1.258500E-02 -3.782610E-03 -1.561690E-03  1.000000E+00  0.000000E+00  1.000000E+00  0.000000E+00
  0.000250975  3.281970E-02 -1.160890E-02 -1.349250E-03  2.153790E-04  1.000000E+00  0.000000E+00  1.000000E+00  0.000000E+00
  0.000253450  3.541680E-02 -1.150270E-02 -1.996360E-03 -4.638370E-04  1.000000E+00  0.000000E+00  1.000000E+00  0.000000E+00
  0.000255925  3.317190E-02 -1.132720E-02 -7.191730E-04 -1.225140E-03  1.000000E+00  0.000000E+00  1.000000E+00  0.000000E+00
  0.000258400  3.219510E-02 -1.019400E-02 -1.675190E-03 -5.192540E-04  1.000000E+00  0.000000E+00  1.000000E+00  0.000000E+00
  0.000260875  3.343030E-02 -1.141010E-02 -3.130030E-03  1.930920E-04  1.000000E+00  0.000000E+00  1.000000E+00  0.000000E+00
  0.000263350  3.171610E-02 -1.083730E-02 -1.783330E-03 -1.875560E-03  1.000000E+00  0.000000E+00  1.000000E+00  0.000000E+00
  0.000265825  3.186400E-02 -1.267730E-02 -1.078230E-03 -4.059570E-04  1.000000E+00  0.000000E+00  1.000000E+00  0.000000E+00
  0.000268300  3.391880E-02 -1.062210E-02 -2.429760E-03 -1.704000E-03  1.000000E+00  0.000000E+00  1.000000E+00  0.000000E+00
  0.000270775  3.313650E-02 -8.454470E-03 -3.840970E-03 -1.566340E-03  1.000000E+00  0.000000E+00  1.000000E+00  0.000000E+00
  0.000273250  3.358310E-02 -9.818670E-03 -1.487030E-03 -8.502120E-04  1.000000E+00  0.000000E+00  1.000000E+00  0.000000E+00
  0.000275725  3.365860E-02 -9.020380E-03 -1.389680E-03 -1.013330E-03  1.000000E+00  0.000000E+00  1.000000E+00  0.000000E+00
  0.000278200  3.368210E-02 -9.909480E-03 -3.006280E-03  4.359370E-04  1.000000E+00  0.000000E+00  1.000000E+00  0.000000E+00
  0.000280675  3.368680E-02 -7.566420E-03 -3.118680E-03 -1.921130E-03  1.000000E+00  0.000000E+00  1.000000E+00  0.000000E+00
  0.000283150  3.415230E-02 -7.016000E-03 -1.345460E-03 -2.104800E-03  1.000000E+00  0.000000E+00  1.000000E+00  0.000000E+00
  0.000285625  3.284760E-02 -7.979610E-03 -3.114550E-03 -1.295300E-03  1.000000E+00  0.000000E+00  1.000000E+00  0.000000E+00
  0.000288100  3.527520E-02 -8.075960E-03 -8.726180E-04 -1.049300E-03  1.000000E+00  0.000000E+00  1.000000E+00  0.000000E+00
  0.000290575  3.318210E-02 -8.494170E-03 -3.599070E-03 -1.912980E-03  1.000000E+00  0.000000E+00  1.000000E+00  0.000000E+00
  0.000293050  3.499290E-02 -7.057700E-03 -1.719140E-03 -2.356930E-03  1.000000E+00  0.000000E+00  1.000000E+00  0.000000E+00
  0.000295525  3.454750E-02 -4.002240E-03 -3.133310E-03 -1.614200E-03  1.000000E+00  0.000000E+00  1.000000E+00  0.000000E+00
  0.000298000  3.361380E-02 -5.427610E-03 -1.520450E-03 -2.135260E-03  1.000000E+00  0.000000E+00  1.000000E+00  0.000000E+00
  0.000300475  3.523330E-02 -6.928000E-03 -4.316910E-03 -1.059940E-03  1.000000E+00  0.000000E+00  1.000000E+00  0.000000E+00
  0.000302950  3.459040E-02 -6.274850E-03 -4.022210E-03 -1.734460E-03  1.000000E+00  0.000000E+00  1.000000E+00  0.000000E+00
  0.000305425  3.457200E-02 -3.738370E-03 -1.556800E-03 -7.775440E-04  1.000000E+00  0.000000E+00  1.000000E+00  0.000000E+00
  0.000307900  3.510060E-02 -6.355290E-03 -1.357820E-03 -1.822470E-03  1.000000E+00  0.000000E+00  1.000000E+00  0.000000E+00
  0.000310375  3.675120E-02 -4.310370E-03 -3.924760E-03 -8.790950E-04  1.000000E+00  0.000000E+00  1.000000E+00  0.000000E+00
  0.000312850  3.735430E-02 -5.322760E-03 -8.291010E-03 -2.147000E-03  1.000000E+00  0.000000E+00  1.000000E+00  0.000000E+00
  0.000315325  3.649940E-02 -4.926670E-03 -2.872360E-03 -3.069540E-04  1.000000E+00  0.000000E+00  1.000000E+00  0.000000E+00
  0.000317800  3.614840E-02 -3.702080E-03 -2.358120E-03 -1.500730E-03  1.000000E+00  0.000000E+00  1.000000E+00  0.000000E+00
  0.000320275  3.729940E-02 -3.206610E-03 -3.548510E-03  1.640030E-04  1.000000E+00  0.000000E+00  1.000000E+00  0.000000E+00
  0.000322750  3.685700E-02 -2.305260E-03 -1.285770E-02  1.924270E-04  1.000000E+00  0.000000E+00  1.000000E+00  0.000000E+00
  0.000325225  3.708130E-02 -3.944880E-03 -3.956340E-03 -8.471000E-05  1.000000E+00  0.000000E+00  1.000000E+00  0.000000E+00
  0.000327700  3.777950E-02 -1.911390E-03 -2.608750E-03 -2.242590E-04  1.000000E+00  0.000000E+00  1.000000E+00  0.000000E+00
  0.000330175  3.864500E-02 -4.146500E-03 -5.650580E-03 -1.034840E-03  1.000000E+00  0.000000E+00  1.000000E+00  0.000000E+00
  0.000332650  3.976250E-02 -2.634350E-03 -8.857940E-03  4.369880E-03  1.000000E+00  0.000000E+00  1.000000E+00  0.000000E+00
  0.000335125  4.070470E-02 -2.154970E-03 -8.756030E-03  4.445280E-03  1.000000E+00  0.000000E+00  1.000000E+00  0.000000E+00
  0.000337600  3.903750E-02 -2.532330E-03 -4.157450E-03 -3.577940E-04  1.000000E+00  0.000000E+00  1.000000E+00  0.000000E+00
  0.000340075  3.898390E-02 -2.596790E-03 -4.405360E-03  5.268130E-04  1.000000E+00  0.000000E+00  1.000000E+00  0.000000E+00
  0.000342550  3.990550E-02 -2.634140E-03 -6.898780E-03  4.693480E-03  1.000000E+00  0.000000E+00  1.000000E+00  0.000000E+00
  0.000345025  3.967750E-02 -5.001580E-03 -4.482090E-03  1.281060E-02  1.000000E+00  0.000000E+00  1.000000E+00  0.000000E+00
  0.000347500  4.098080E-02 -2.746180E-03 -5.162000E-03  6.180970E-05  1.000000E+00  0.000000E+00  1.000000E+00  0.000000E+00
  0.000349975  4.013060E-02 -6.525960E-04 -6.175500E-03  1.229120E-03  1.000000E+00  0.000000E+00  1.000000E+00  0.000000E+00
  0.000352450  4.083950E-02 -1.746650E-03 -5.103580E-03  3.504160E-03  1.000000E+00  0.000000E+00  1.000000E+00  0.000000E+00
  0.000354925  4.073670E-02 -2.976380E-03  1.679890E-03  1.051440E-02  1.000000E+00  0.000000E+00  1.000000E+00  0.000000E+00
  0.000357400  4.119180E-02 -9.965980E-04 -4.382750E-03  1.357460E-03  1.000000E+00  0.000000E+00  1.000000E+00  0.000000E+00
  0.000359875  4.005480E-02  1.794510E-04 -5.621790E-03  2.259680E-03  1.000000E+00  0.000000E+00  1.000000E+00  0.000000E+00
  0.000362350  4.012900E-02 -9.275470E-04 -4.188120E-03  4.228220E-03  1.000000E+00  0.000000E+00  1.000000E+00  0.000000E+00
  0.000364825  4.103870E-02 -2.667020E-03  1.125620E-03  6.888410E-03  1.000000E+00  0.000000E+00  1.000000E+00  0.000000E+00
  0.000367300  4.270400E-02 -1.994770E-03 -3.580280E-03  4.869160E-03  1.000000E+00  0.000000E+00  1.000000E+00  0.000000E+00
  0.000369775  4.048980E-02  2.219540E-04 -5.431670E-03  1.676730E-03  1.000000E+00  0.000000E+00  1.000000E+00  0.000000E+00
  0.000372250  4.329720E-02 -2.648110E-03 -4.867990E-03  6.419760E-03  1.000000E+00  0.000000E+00  1.000000E+00  0.000000E+00
  0.000374725  4.248180E-02 -1.326930E-03  2.827260E-04  5.815080E-03  1.000000E+00  0.000000E+00  1.000000E+00  0.000000E+00
  0.000377200  4.139900E-02 -1.453500E-03  2.023820E-04  5.140180E-03  1.000000E+00  0.000000E+00  1.000000E+00  0.000000E+00
  0.000379675  4.408150E-02 -2.315900E-03 -4.898460E-03  5.362830E-03  1.000000E+00  0.000000E+00  1.000000E+00  0.000000E+00
  0.000382150  4.403090E-02 -2.005360E-03 -2.326580E-03  8.155520E-03  1.000000E+00  0.000000E+00  1.000000E+00  0.000000E+00
  0.000384625  4.540990E-02 -2.284440E-03 -1.242670E-03  7.031430E-03  1.000000E+00  0.000000E+00  1.000000E+00  0.000000E+00
  0.000387100  4.215700E-02 -2.371030E-03  2.300590E-03  3.284420E-03  1.000000E+00  0.000000E+00  1.000000E+00  0.000000E+00
  0.000389575  4.385020E-02 -1.105830E-03 -2.078470E-03  8.950720E-03  1.000000E+00  0.000000E+00  1.000000E+00  0.000000E+00
  0.000392050  4.444630E-02  1.247030E-03  1.322690E-03  8.778910E-03  1.000000E+00  0.000000E+00  1.000000E+00  0.000000E+00
  0.000394525  4.321350E-02 -2.326960E-03  1.801060E-03  8.414240E-03  1.000000E+00  0.000000E+00  1.000000E+00  0.000000E+00
  0.000397000  4.276010E-02 -3.717650E-04  2.530230E-03  4.254910E-03  1.000000E+00  0.000000E+00  1.000000E+00  0.000000E+00
  0.000399475  4.466650E-02 -2.932770E-03  1.977820E-03  7.368450E-03  1.000000E+00  0.000000E+00  1.000000E+00  0.000000E+00
  0.000401950  4.482120E-02 -1.601410E-03  1.318910E-03  7.808590E-03  1.000000E+00  0.000000E+00  1.000000E+00  0.000000E+00
  0.000404425  4.540920E-02 -3.393090E-03  2.435500E-03  6.944020E-03  1.000000E+00  0.000000E+00  1.000000E+00  0.000000E+00
  0.000406900  4.645060E-02 -3.833240E-03  3.251330E-03  3.215170E-03  1.000000E+00  0.000000E+00  1.000000E+00  0.000000E+00
  0.000409375  4.540140E-02 -3.819280E-03  3.450600E-03  3.558810E-03  1.000000E+00  0.000000E+00  1.000000E+00  0.000000E+00
  0.000411850  4.612610E-02 -3.553620E-03  4.380390E-03  5.442640E-03  1.000000E+00  0.000000E+00  1.000000E+00  0.000000E+00
  0.000414325  4.495850E-02 -1.638500E-03  5.543750E-03  4.182660E-03  1.000000E+00  0.000000E+00  1.000000E+00  0.000000E+00
  0.000416800  4.558010E-02 -1.272290E-03  4.394090E-03  3.729120E-03  1.000000E+00  0.000000E+00  1.000000E+00  0.000000E+00
  0.000419275  4.617770E-02 -2.641920E-03  2.353860E-03  2.125590E-03  1.000000E+00  0.000000E+00  1.000000E+00  0.000000E+00
  0.000421750  4.770470E-02 -3.442910E-03  3.819990E-03  3.036790E-03  1.000000E+00  0.000000E+00  1.000000E+00  0.000000E+00
  0.000424225  4.693090E-02 -1.725420E-03  4.744280E-03  1.382610E-03  1.000000E+00  0.000000E+00  1.000000E+00  0.000000E+00
  0.000426700  4.604990E-02 -3.937250E-03  4.311710E-03  1.635670E-03  1.000000E+00  0.000000E+00  1.000000E+00  0.000000E+00
  0.000429175  4.604620E-02 -2.989620E-03  2.956130E-03  2.685230E-03  1.000000E+00  0.000000E+00  1.000000E+00  0.000000E+00
  0.000431650  4.633270E-02 -3.920360E-03  5.057610E-03  2.272190E-03  1.000000E+00  0.000000E+00  1.000000E+00  0.000000E+00
  0.000434125  4.736040E-02 -3.387870E-03  5.377480E-03 -3.968780E-04  1.000000E+00  0.000000E+00  1.000000E+00  0.000000E+00
  0.000436600  4.505800E-02 -3.277740E-03  5.036310E-03 -7.228350E-04  1.000000E+00  0.000000E+00  1.000000E+00  0.000000E+00
  0.000439075  4.622810E-02 -4.182090E-03  2.987410E-03  3.959420E-04  1.000000E+00  0.000000E+00  1.000000E+00  0.000000E+00
  0.000441550  4.532820E-02 -3.688660E-03  4.111870E-03 -9.819060E-04  1.000000E+00  0.000000E+00  1.000000E+00  0.000000E+00
  0.000444025  4.706300E-02 -3.881570E-03  3.547130E-03 -3.369020E-04  1.000000E+00  0.000000E+00  1.000000E+00  0.000000E+00
  0.000446500  4.606120E-02 -2.185410E-03  4.393560E-03 -1.111670E-03  1.000000E+00  0.000000E+00  1.000000E+00  0.000000E+00
  0.000448975  4.626460E-02 -3.460900E-03  3.775080E-03 -8.315490E-04  1.000000E+00  0.000000E+00  1.000000E+00  0.000000E+00
  0.000451450  4.605810E-02 -2.862950E-03  2.771690E-03 -8.555760E-04  1.000000E+00  0.000000E+00  1.000000E+00  0.000000E+00
  0.000453925  4.584920E-02 -3.490610E-03  3.366530E-03 -2.209520E-03  1.000000E+00  0.000000E+00  1.000000E+00  0.000000E+00
