! Anritsu VNA Master:                        Model: MS2026C/19
! SN:                                  1815009
! /card0/usr/20180902_43.s2p
! Existing Calibration Information:
! TYPE:                         Current Settings,       Active Cal Settings
! TIME:             	   09/03/2018 12:03:21 AM,    09/02/2018 11:58:48 AM
! INTERNAL TEMP:    	                   47.0 C,                    48.8 C
! # POINTS:         	                     4001,                      4001
! START FREQ:       	              100.000 kHz,               100.000 kHz
! STOP FREQ:        	               10.000 MHz,                10.000 MHz
! SOURCE POWER:     	                      Low,                       Low
! IFBW:             	                   500 Hz,                    500 Hz
! AVG FACTOR:       	                       1 ,                        1 
! REF PLANE 1:      	                     0 mm,                      0 mm
! REF PLANE 2:      	                     0 mm,                      0 mm
! CAL TYPE:         	             1P2P S11,S21,              1P2P S11,S21
! CAL METHOD:       	                     SOLT,                      SOLT
! CAL LINE TYPE:    	                     Coax,                      Coax
! DUT PORT 1:       	                N-Conn(M),                 N-Conn(M)
! DUT PORT 2:       	                N-Conn(M),                 N-Conn(M)
! CAL STATUS:       	        OK: Accuracy High,                        --
# GHZ S RI R 50.0
! FREQ.GHZ      S11RE         S11IM         S21RE         S21IM         S12RE         S12IM         S22RE         S22IM
  0.000100000  6.391440E-03 -6.137910E-02 -3.248230E-04 -7.032290E-05  1.000000E+00  0.000000E+00  1.000000E+00  0.000000E+00
  0.000102475  9.201110E-03 -5.886830E-02  1.346900E-04  2.454150E-04  1.000000E+00  0.000000E+00  1.000000E+00  0.000000E+00
  0.000104950  7.971200E-03 -5.634030E-02  1.420550E-04 -1.020650E-03  1.000000E+00  0.000000E+00  1.000000E+00  0.000000E+00
  0.000107425  1.118310E-02 -5.497970E-02 -5.961970E-04 -1.033390E-03  1.000000E+00  0.000000E+00  1.000000E+00  0.000000E+00
  0.000109900  1.249570E-02 -5.229160E-02 -4.407280E-04  2.262840E-04  1.000000E+00  0.000000E+00  1.000000E+00  0.000000E+00
  0.000112375  1.235370E-02 -5.205670E-02 -5.364810E-04 -3.596370E-05  1.000000E+00  0.000000E+00  1.000000E+00  0.000000E+00
  0.000114850  1.376920E-02 -5.129220E-02  1.072800E-04 -2.548750E-04  1.000000E+00  0.000000E+00  1.000000E+00  0.000000E+00
  0.000117325  1.509520E-02 -4.977440E-02 -7.723100E-04  1.060020E-04  1.000000E+00  0.000000E+00  1.000000E+00  0.000000E+00
  0.000119800  1.388050E-02 -4.724790E-02 -1.348870E-03  6.309120E-04  1.000000E+00  0.000000E+00  1.000000E+00  0.000000E+00
  0.000122275  1.630180E-02 -4.505000E-02  7.343860E-04 -3.361870E-04  1.000000E+00  0.000000E+00  1.000000E+00  0.000000E+00
  0.000124750  1.879720E-02 -4.416570E-02 -8.081320E-04 -7.854830E-04  1.000000E+00  0.000000E+00  1.000000E+00  0.000000E+00
  0.000127225  1.688410E-02 -4.259520E-02 -2.362960E-04  7.092030E-04  1.000000E+00  0.000000E+00  1.000000E+00  0.000000E+00
  0.000129700  1.840240E-02 -4.033000E-02 -5.558060E-04 -2.566660E-05  1.000000E+00  0.000000E+00  1.000000E+00  0.000000E+00
  0.000132175  1.984930E-02 -4.016670E-02  1.111060E-03 -4.397330E-04  1.000000E+00  0.000000E+00  1.000000E+00  0.000000E+00
  0.000134650  1.956770E-02 -4.061840E-02  3.305830E-04  3.557190E-04  1.000000E+00  0.000000E+00  1.000000E+00  0.000000E+00
  0.000137125  1.955300E-02 -3.851630E-02 -2.199830E-04 -5.260740E-04  1.000000E+00  0.000000E+00  1.000000E+00  0.000000E+00
  0.000139600  2.188800E-02 -3.731060E-02  5.473390E-04 -2.936290E-04  1.000000E+00  0.000000E+00  1.000000E+00  0.000000E+00
  0.000142075  2.243480E-02 -3.767270E-02 -1.061590E-03 -5.659980E-04  1.000000E+00  0.000000E+00  1.000000E+00  0.000000E+00
  0.000144550  2.193580E-02 -3.617400E-02 -2.819340E-04 -4.002540E-04  1.000000E+00  0.000000E+00  1.000000E+00  0.000000E+00
  0.000147025  2.277160E-02 -3.449320E-02  1.145150E-03  1.027710E-03  1.000000E+00  0.000000E+00  1.000000E+00  0.000000E+00
  0.000149500  2.372300E-02 -3.293270E-02  1.219640E-03 -4.953110E-04  1.000000E+00  0.000000E+00  1.000000E+00  0.000000E+00
  0.000151975  2.260690E-02 -3.396550E-02 -3.665370E-04 -1.336560E-04  1.000000E+00  0.000000E+00  1.000000E+00  0.000000E+00
  0.000154450  2.375690E-02 -3.165490E-02 -1.268340E-04  7.378900E-04  1.000000E+00  0.000000E+00  1.000000E+00  0.000000E+00
  0.000156925  2.452260E-02 -3.091270E-02 -3.242720E-04 -5.695960E-04  1.000000E+00  0.000000E+00  1.000000E+00  0.000000E+00
  0.000159400  2.479900E-02 -3.070580E-02 -4.031630E-04 -5.760890E-04  1.000000E+00  0.000000E+00  1.000000E+00  0.000000E+00
  0.000161875  2.456920E-02 -3.020010E-02 -4.830480E-04  7.346380E-04  1.000000E+00  0.000000E+00  1.000000E+00  0.000000E+00
  0.000164350  2.467320E-02 -3.006790E-02  5.186340E-04 -7.269820E-04  1.000000E+00  0.000000E+00  1.000000E+00  0.000000E+00
  0.000166825  2.595910E-02 -2.865640E-02  5.007470E-04  3.728160E-04  1.000000E+00  0.000000E+00  1.000000E+00  0.000000E+00
  0.000169300  2.538150E-02 -2.969480E-02  4.317880E-04 -1.454260E-04  1.000000E+00  0.000000E+00  1.000000E+00  0.000000E+00
  0.000171775  2.703270E-02 -2.687210E-02  7.335010E-05  4.602170E-04  1.000000E+00  0.000000E+00  1.000000E+00  0.000000E+00
  0.000174250  2.690250E-02 -2.576790E-02 -1.098030E-03  4.279750E-04  1.000000E+00  0.000000E+00  1.000000E+00  0.000000E+00
  0.000176725  2.762220E-02 -2.721420E-02  4.494490E-04  1.100920E-04  1.000000E+00  0.000000E+00  1.000000E+00  0.000000E+00
  0.000179200  2.736760E-02 -2.587400E-02 -5.828670E-05  1.890100E-04  1.000000E+00  0.000000E+00  1.000000E+00  0.000000E+00
  0.000181675  2.764200E-02 -2.705700E-02  1.083040E-04  7.401090E-04  1.000000E+00  0.000000E+00  1.000000E+00  0.000000E+00
  0.000184150  2.862810E-02 -2.555690E-02 -3.142400E-04  4.732190E-04  1.000000E+00  0.000000E+00  1.000000E+00  0.000000E+00
  0.000186625  2.791330E-02 -2.394490E-02  8.957900E-06  2.796560E-04  1.000000E+00  0.000000E+00  1.000000E+00  0.000000E+00
  0.000189100  2.789400E-02 -2.378560E-02 -2.887790E-04 -2.587710E-04  1.000000E+00  0.000000E+00  1.000000E+00  0.000000E+00
  0.000191575  2.761340E-02 -2.396150E-02 -1.955580E-04 -5.044920E-06  1.000000E+00  0.000000E+00  1.000000E+00  0.000000E+00
  0.000194050  2.805780E-02 -2.121900E-02  8.569880E-04 -4.789050E-04  1.000000E+00  0.000000E+00  1.000000E+00  0.000000E+00
  0.000196525  2.989970E-02 -2.254000E-02 -2.516550E-04 -3.832900E-04  1.000000E+00  0.000000E+00  1.000000E+00  0.000000E+00
  0.000199000  3.033450E-02 -2.223440E-02 -5.305750E-05 -8.946220E-05  1.000000E+00  0.000000E+00  1.000000E+00  0.000000E+00
  0.000201475  3.148740E-02 -2.140550E-02  5.611750E-04  3.511280E-04  1.000000E+00  0.000000E+00  1.000000E+00  0.000000E+00
  0.000203950  2.966490E-02 -2.025290E-02 -1.586470E-03 -7.725260E-04  1.000000E+00  0.000000E+00  1.000000E+00  0.000000E+00
  0.000206425  3.084650E-02 -2.042200E-02 -2.153590E-05 -5.488310E-04  1.000000E+00  0.000000E+00  1.000000E+00  0.000000E+00
  0.000208900  3.029290E-02 -2.029300E-02  5.309510E-04  1.698150E-05  1.000000E+00  0.000000E+00  1.000000E+00  0.000000E+00
  0.000211375  3.151000E-02 -2.171570E-02 -1.079380E-03 -2.191550E-04  1.000000E+00  0.000000E+00  1.000000E+00  0.000000E+00
  0.000213850  3.177030E-02 -2.007820E-02  1.352270E-03 -1.427380E-03  1.000000E+00  0.000000E+00  1.000000E+00  0.000000E+00
  0.000216325  3.110300E-02 -2.153020E-02  1.390680E-03 -4.374780E-04  1.000000E+00  0.000000E+00  1.000000E+00  0.000000E+00
  0.000218800  3.103640E-02 -1.917250E-02  3.559910E-04 -6.444050E-04  1.000000E+00  0.000000E+00  1.000000E+00  0.000000E+00
  0.000221275  3.186180E-02 -1.831940E-02 -1.241960E-04  5.261020E-04  1.000000E+00  0.000000E+00  1.000000E+00  0.000000E+00
  0.000223750  3.251080E-02 -1.842620E-02 -7.995780E-05  6.843270E-04  1.000000E+00  0.000000E+00  1.000000E+00  0.000000E+00
  0.000226225  3.362980E-02 -1.717710E-02  1.109000E-03 -2.472740E-04  1.000000E+00  0.000000E+00  1.000000E+00  0.000000E+00
  0.000228700  3.199250E-02 -1.773870E-02 -4.841190E-04 -1.031130E-04  1.000000E+00  0.000000E+00  1.000000E+00  0.000000E+00
  0.000231175  3.275480E-02 -1.774410E-02 -4.289390E-04 -1.741550E-04  1.000000E+00  0.000000E+00  1.000000E+00  0.000000E+00
  0.000233650  3.365730E-02 -1.800360E-02 -2.518280E-04  3.299990E-04  1.000000E+00  0.000000E+00  1.000000E+00  0.000000E+00
  0.000236125  3.190640E-02 -1.615710E-02 -1.142740E-04 -3.846380E-04  1.000000E+00  0.000000E+00  1.000000E+00  0.000000E+00
  0.000238600  3.374880E-02 -1.627780E-02 -6.056280E-04 -2.782790E-04  1.000000E+00  0.000000E+00  1.000000E+00  0.000000E+00
  0.000241075  3.207670E-02 -1.604630E-02  2.548890E-04 -4.302320E-04  1.000000E+00  0.000000E+00  1.000000E+00  0.000000E+00
  0.000243550  3.350530E-02 -1.689490E-02  6.819680E-04 -7.163530E-04  1.000000E+00  0.000000E+00  1.000000E+00  0.000000E+00
  0.000246025  3.351260E-02 -1.648830E-02  7.462700E-04 -7.632650E-04  1.000000E+00  0.000000E+00  1.000000E+00  0.000000E+00
  0.000248500  3.344850E-02 -1.517150E-02 -2.434200E-04 -4.148050E-04  1.000000E+00  0.000000E+00  1.000000E+00  0.000000E+00
  0.000250975  3.418290E-02 -1.608880E-02  3.324540E-05  5.512140E-04  1.000000E+00  0.000000E+00  1.000000E+00  0.000000E+00
  0.000253450  3.437750E-02 -1.446010E-02 -2.923130E-04  4.388140E-04  1.000000E+00  0.000000E+00  1.000000E+00  0.000000E+00
  0.000255925  3.327770E-02 -1.401780E-02  1.712880E-04 -2.244520E-04  1.000000E+00  0.000000E+00  1.000000E+00  0.000000E+00
  0.000258400  3.427580E-02 -1.405210E-02 -5.374080E-04 -4.594510E-04  1.000000E+00  0.000000E+00  1.000000E+00  0.000000E+00
  0.000260875  3.502900E-02 -1.465220E-02 -1.051010E-04 -1.569250E-03  1.000000E+00  0.000000E+00  1.000000E+00  0.000000E+00
  0.000263350  3.324070E-02 -1.332210E-02 -1.196250E-04  2.578490E-04  1.000000E+00  0.000000E+00  1.000000E+00  0.000000E+00
  0.000265825  3.418320E-02 -1.480090E-02  4.277380E-04  2.718880E-04  1.000000E+00  0.000000E+00  1.000000E+00  0.000000E+00
  0.000268300  3.652510E-02 -1.433130E-02 -2.574330E-04  1.958450E-05  1.000000E+00  0.000000E+00  1.000000E+00  0.000000E+00
  0.000270775  3.517110E-02 -1.374460E-02  9.670490E-05 -1.592360E-04  1.000000E+00  0.000000E+00  1.000000E+00  0.000000E+00
  0.000273250  3.396710E-02 -1.331980E-02  7.517730E-04  5.299960E-04  1.000000E+00  0.000000E+00  1.000000E+00  0.000000E+00
  0.000275725  3.509470E-02 -1.154430E-02 -1.429910E-03  7.226900E-04  1.000000E+00  0.000000E+00  1.000000E+00  0.000000E+00
  0.000278200  3.712300E-02 -1.301000E-02  1.069340E-03 -4.216390E-04  1.000000E+00  0.000000E+00  1.000000E+00  0.000000E+00
  0.000280675  3.460570E-02 -1.371380E-02  3.287070E-04  8.816250E-04  1.000000E+00  0.000000E+00  1.000000E+00  0.000000E+00
  0.000283150  3.608640E-02 -1.237810E-02 -1.234590E-04  2.215640E-04  1.000000E+00  0.000000E+00  1.000000E+00  0.000000E+00
  0.000285625  3.502940E-02 -1.249180E-02 -7.893220E-04  1.615760E-04  1.000000E+00  0.000000E+00  1.000000E+00  0.000000E+00
  0.000288100  3.423770E-02 -1.122430E-02  4.696190E-05  7.210820E-04  1.000000E+00  0.000000E+00  1.000000E+00  0.000000E+00
  0.000290575  3.461350E-02 -1.081550E-02 -1.759690E-04 -1.005890E-04  1.000000E+00  0.000000E+00  1.000000E+00  0.000000E+00
  0.000293050  3.503410E-02 -1.132330E-02 -3.598580E-04  1.189850E-04  1.000000E+00  0.000000E+00  1.000000E+00  0.000000E+00
  0.000295525  3.702000E-02 -1.076820E-02  4.556880E-04  6.487090E-04  1.000000E+00  0.000000E+00  1.000000E+00  0.000000E+00
  0.000298000  3.633640E-02 -1.106180E-02 -2.881780E-04  2.421100E-04  1.000000E+00  0.000000E+00  1.000000E+00  0.000000E+00
  0.000300475  3.524650E-02 -1.134320E-02  4.091520E-04  3.500090E-04  1.000000E+00  0.000000E+00  1.000000E+00  0.000000E+00
  0.000302950  3.689470E-02 -1.029770E-02  2.833000E-04 -1.041990E-03  1.000000E+00  0.000000E+00  1.000000E+00  0.000000E+00
  0.000305425  3.607330E-02 -1.092380E-02  1.563950E-04  1.199850E-03  1.000000E+00  0.000000E+00  1.000000E+00  0.000000E+00
  0.000307900  3.631200E-02 -1.025580E-02  5.351120E-04 -1.017140E-03  1.000000E+00  0.000000E+00  1.000000E+00  0.000000E+00
  0.000310375  3.852930E-02 -1.052910E-02 -2.059810E-04 -5.599560E-04  1.000000E+00  0.000000E+00  1.000000E+00  0.000000E+00
  0.000312850  3.654880E-02 -9.199600E-03 -1.316330E-04  9.342710E-05  1.000000E+00  0.000000E+00  1.000000E+00  0.000000E+00
  0.000315325  3.645840E-02 -1.122910E-02 -7.166240E-04  1.383520E-03  1.000000E+00  0.000000E+00  1.000000E+00  0.000000E+00
  0.000317800  3.616040E-02 -8.788370E-03 -1.467100E-04 -7.353340E-04  1.000000E+00  0.000000E+00  1.000000E+00  0.000000E+00
  0.000320275  3.534020E-02 -9.329520E-03  4.549800E-04 -7.626780E-04  1.000000E+00  0.000000E+00  1.000000E+00  0.000000E+00
  0.000322750  3.705400E-02 -8.674620E-03  1.222740E-04  2.849960E-04  1.000000E+00  0.000000E+00  1.000000E+00  0.000000E+00
  0.000325225  3.580260E-02 -8.810670E-03  6.301660E-04  2.703000E-04  1.000000E+00  0.000000E+00  1.000000E+00  0.000000E+00
  0.000327700  3.661360E-02 -9.648460E-03  5.572220E-04  2.959290E-04  1.000000E+00  0.000000E+00  1.000000E+00  0.000000E+00
  0.000330175  3.833610E-02 -9.187600E-03 -9.466450E-05  3.220510E-04  1.000000E+00  0.000000E+00  1.000000E+00  0.000000E+00
  0.000332650  3.779060E-02 -9.800420E-03  1.404740E-04 -3.062480E-04  1.000000E+00  0.000000E+00  1.000000E+00  0.000000E+00
  0.000335125  3.733940E-02 -8.583930E-03 -2.517150E-04  1.264390E-03  1.000000E+00  0.000000E+00  1.000000E+00  0.000000E+00
  0.000337600  3.859280E-02 -7.921740E-03  3.496860E-04 -4.299760E-04  1.000000E+00  0.000000E+00  1.000000E+00  0.000000E+00
  0.000340075  3.766740E-02 -8.961450E-03 -2.256800E-04 -1.459450E-04  1.000000E+00  0.000000E+00  1.000000E+00  0.000000E+00
  0.000342550  3.812730E-02 -7.274400E-03 -7.073710E-04 -7.476570E-04  1.000000E+00  0.000000E+00  1.000000E+00  0.000000E+00
  0.000345025  3.690200E-02 -8.674520E-03  4.423140E-04 -1.577690E-04  1.000000E+00  0.000000E+00  1.000000E+00  0.000000E+00
  0.000347500  3.856800E-02 -1.012150E-02 -3.302620E-04 -2.273570E-04  1.000000E+00  0.000000E+00  1.000000E+00  0.000000E+00
  0.000349975  3.748260E-02 -6.967830E-03  1.946410E-04  4.054040E-04  1.000000E+00  0.000000E+00  1.000000E+00  0.000000E+00
  0.000352450  3.774050E-02 -8.491870E-03 -2.824170E-05 -4.593850E-04  1.000000E+00  0.000000E+00  1.000000E+00  0.000000E+00
  0.000354925  3.809370E-02 -6.218590E-03  9.121000E-05 -3.341640E-04  1.000000E+00  0.000000E+00  1.000000E+00  0.000000E+00
  0.000357400  3.786640E-02 -7.998250E-03 -3.189310E-04 -3.567200E-04  1.000000E+00  0.000000E+00  1.000000E+00  0.000000E+00
  0.000359875  3.996940E-02 -6.541050E-03  5.599710E-04  9.259820E-04  1.000000E+00  0.000000E+00  1.000000E+00  0.000000E+00
  0.000362350  3.724500E-02 -7.603430E-03 -1.247620E-03 -5.662190E-04  1.000000E+00  0.000000E+00  1.000000E+00  0.000000E+00
  0.000364825  3.957980E-02 -5.714860E-03 -7.439270E-04  2.020030E-04  1.000000E+00  0.000000E+00  1.000000E+00  0.000000E+00
  0.000367300  3.963860E-02 -6.834190E-03  3.638920E-04 -3.578880E-04  1.000000E+00  0.000000E+00  1.000000E+00  0.000000E+00
  0.000369775  3.844240E-02 -6.510230E-03  1.975750E-04 -8.183070E-04  1.000000E+00  0.000000E+00  1.000000E+00  0.000000E+00
  0.000372250  3.805150E-02 -7.003190E-03 -6.517390E-04  3.218120E-04  1.000000E+00  0.000000E+00  1.000000E+00  0.000000E+00
  0.000374725  3.868390E-02 -6.972040E-03 -1.628240E-03 -1.069320E-03  1.000000E+00  0.000000E+00  1.000000E+00  0.000000E+00
  0.000377200  3.907450E-02 -6.781370E-03  1.779510E-04  1.773840E-04  1.000000E+00  0.000000E+00  1.000000E+00  0.000000E+00
  0.000379675  3.832620E-02 -6.693510E-03 -4.767500E-04 -1.016820E-03  1.000000E+00  0.000000E+00  1.000000E+00  0.000000E+00
  0.000382150  4.056020E-02 -7.672510E-03 -3.510540E-04  1.761760E-04  1.000000E+00  0.000000E+00  1.000000E+00  0.000000E+00
  0.000384625  4.012420E-02 -8.166240E-03  1.787980E-04 -2.931420E-04  1.000000E+00  0.000000E+00  1.000000E+00  0.000000E+00
  0.000387100  3.942390E-02 -5.776560E-03  1.219910E-04 -8.310830E-04  1.000000E+00  0.000000E+00  1.000000E+00  0.000000E+00
  0.000389575  4.047420E-02 -6.215390E-03  3.585530E-04 -9.288940E-04  1.000000E+00  0.000000E+00  1.000000E+00  0.000000E+00
  0.000392050  3.944300E-02 -6.138550E-03  2.369170E-04  7.424700E-04  1.000000E+00  0.000000E+00  1.000000E+00  0.000000E+00
  0.000394525  3.995470E-02 -7.126960E-03  8.657500E-04  5.843800E-05  1.000000E+00  0.000000E+00  1.000000E+00  0.000000E+00
  0.000397000  3.925480E-02 -6.953120E-03  1.934500E-04 -4.821610E-04  1.000000E+00  0.000000E+00  1.000000E+00  0.000000E+00
  0.000399475  4.131530E-02 -6.129550E-03 -4.282100E-04 -1.564760E-04  1.000000E+00  0.000000E+00  1.000000E+00  0.000000E+00
  0.000401950  3.913560E-02 -5.960080E-03 -9.614890E-04  4.480080E-04  1.000000E+00  0.000000E+00  1.000000E+00  0.000000E+00
  0.000404425  4.051840E-02 -6.356490E-03 -3.777240E-04  5.039900E-04  1.000000E+00  0.000000E+00  1.000000E+00  0.000000E+00
  0.000406900  3.896890E-02 -6.101650E-03 -2.740540E-05  3.065490E-04  1.000000E+00  0.000000E+00  1.000000E+00  0.000000E+00
  0.000409375  4.099090E-02 -5.012490E-03 -3.332540E-04  2.053420E-04  1.000000E+00  0.000000E+00  1.000000E+00  0.000000E+00
  0.000411850  3.919420E-02 -6.323670E-03  5.978270E-04 -3.997110E-04  1.000000E+00  0.000000E+00  1.000000E+00  0.000000E+00
  0.000414325  4.104600E-02 -5.470760E-03 -7.726790E-04 -5.709550E-04  1.000000E+00  0.000000E+00  1.000000E+00  0.000000E+00
  0.000416800  4.042670E-02 -6.123820E-03  4.483220E-04  9.764570E-04  1.000000E+00  0.000000E+00  1.000000E+00  0.000000E+00
  0.000419275  4.058530E-02 -6.591160E-03 -4.561230E-05 -9.594190E-04  1.000000E+00  0.000000E+00  1.000000E+00  0.000000E+00
  0.000421750  4.107570E-02 -6.403270E-03 -2.088970E-04  1.549460E-04  1.000000E+00  0.000000E+00  1.000000E+00  0.000000E+00
  0.000424225  4.044850E-02 -5.267410E-03  1.238040E-04 -1.096460E-03  1.000000E+00  0.000000E+00  1.000000E+00  0.000000E+00
  0.000426700  4.082340E-02 -7.796850E-03  7.017940E-05 -1.790540E-04  1.000000E+00  0.000000E+00  1.000000E+00  0.000000E+00
  0.000429175  4.155450E-02 -6.876250E-03  3.140450E-04  4.781330E-04  1.000000E+00  0.000000E+00  1.000000E+00  0.000000E+00
  0.000431650  4.154340E-02 -6.347530E-03  7.176070E-04 -3.102210E-04  1.000000E+00  0.000000E+00  1.000000E+00  0.000000E+00
  0.000434125  4.097040E-02 -5.710170E-03  6.717990E-04 -8.614710E-04  1.000000E+00  0.000000E+00  1.000000E+00  0.000000E+00
  0.000436600  4.102130E-02 -6.218930E-03  9.267200E-04 -4.153870E-04  1.000000E+00  0.000000E+00  1.000000E+00  0.000000E+00
  0.000439075  4.129420E-02 -6.089560E-03  1.692200E-04 -3.912840E-05  1.000000E+00  0.000000E+00  1.000000E+00  0.000000E+00
  0.000441550  4.341350E-02 -6.619990E-03  5.088340E-05  7.788820E-05  1.000000E+00  0.000000E+00  1.000000E+00  0.000000E+00
  0.000444025  3.951070E-02 -4.076900E-03  6.136560E-05 -7.838040E-04  1.000000E+00  0.000000E+00  1.000000E+00  0.000000E+00
  0.000446500  4.207920E-02 -5.075500E-03 -5.877840E-04 -2.763660E-04  1.000000E+00  0.000000E+00  1.000000E+00  0.000000E+00
  0.000448975  4.112290E-02 -3.738720E-03  2.108980E-03 -2.021680E-03  1.000000E+00  0.000000E+00  1.000000E+00  0.000000E+00
  0.000451450  4.177290E-02 -5.511170E-03 -3.691640E-04  1.897840E-04  1.000000E+00  0.000000E+00  1.000000E+00  0.000000E+00
  0.000453925  4.117140E-02 -4.725120E-03 -4.822160E-04  6.714790E-04  1.000000E+00  0.000000E+00  1.000000E+00  0.000000E+00
