! Anritsu VNA Master:                        Model: MS2026C/19
! SN:                                  1815009
! /card0/usr/20180902_53.s2p
! Existing Calibration Information:
! TYPE:                         Current Settings,       Active Cal Settings
! TIME:             	   09/03/2018 01:48:07 AM,    09/02/2018 11:58:48 AM
! INTERNAL TEMP:    	                   49.8 C,                    48.8 C
! # POINTS:         	                     4001,                      4001
! START FREQ:       	              100.000 kHz,               100.000 kHz
! STOP FREQ:        	               10.000 MHz,                10.000 MHz
! SOURCE POWER:     	                      Low,                       Low
! IFBW:             	                   500 Hz,                    500 Hz
! AVG FACTOR:       	                       5 ,                        1 
! REF PLANE 1:      	                     0 mm,                      0 mm
! REF PLANE 2:      	                     0 mm,                      0 mm
! CAL TYPE:         	             1P2P S11,S21,              1P2P S11,S21
! CAL METHOD:       	                     SOLT,                      SOLT
! CAL LINE TYPE:    	                     Coax,                      Coax
! DUT PORT 1:       	                N-Conn(M),                 N-Conn(M)
! DUT PORT 2:       	                N-Conn(M),                 N-Conn(M)
! CAL STATUS:       	        OK: Accuracy High,                        --
# GHZ S RI R 50.0
! FREQ.GHZ      S11RE         S11IM         S21RE         S21IM         S12RE         S12IM         S22RE         S22IM
  0.000100000  6.160720E-03 -6.257790E-02  1.325490E-02  3.350290E-02  1.000000E+00  0.000000E+00  1.000000E+00  0.000000E+00
  0.000102475  7.960520E-03 -6.015930E-02  1.499630E-02  3.281500E-02  1.000000E+00  0.000000E+00  1.000000E+00  0.000000E+00
  0.000104950  8.854180E-03 -5.733440E-02  1.612160E-02  3.248430E-02  1.000000E+00  0.000000E+00  1.000000E+00  0.000000E+00
  0.000107425  1.071600E-02 -5.541450E-02  1.715430E-02  3.200550E-02  1.000000E+00  0.000000E+00  1.000000E+00  0.000000E+00
  0.000109900  1.139640E-02 -5.366810E-02  1.824670E-02  3.194080E-02  1.000000E+00  0.000000E+00  1.000000E+00  0.000000E+00
  0.000112375  1.195740E-02 -5.286240E-02  1.929920E-02  3.065240E-02  1.000000E+00  0.000000E+00  1.000000E+00  0.000000E+00
  0.000114850  1.298490E-02 -5.022710E-02  2.033410E-02  3.022640E-02  1.000000E+00  0.000000E+00  1.000000E+00  0.000000E+00
  0.000117325  1.487240E-02 -4.902620E-02  2.197660E-02  3.051120E-02  1.000000E+00  0.000000E+00  1.000000E+00  0.000000E+00
  0.000119800  1.562240E-02 -4.673120E-02  2.179310E-02  2.938240E-02  1.000000E+00  0.000000E+00  1.000000E+00  0.000000E+00
  0.000122275  1.643110E-02 -4.512540E-02  2.324960E-02  2.867900E-02  1.000000E+00  0.000000E+00  1.000000E+00  0.000000E+00
  0.000124750  1.697200E-02 -4.463740E-02  2.448430E-02  2.819970E-02  1.000000E+00  0.000000E+00  1.000000E+00  0.000000E+00
  0.000127225  1.666590E-02 -4.255830E-02  2.437730E-02  2.777330E-02  1.000000E+00  0.000000E+00  1.000000E+00  0.000000E+00
  0.000129700  1.866270E-02 -4.008450E-02  2.619180E-02  2.626670E-02  1.000000E+00  0.000000E+00  1.000000E+00  0.000000E+00
  0.000132175  1.942140E-02 -4.056980E-02  2.615060E-02  2.578780E-02  1.000000E+00  0.000000E+00  1.000000E+00  0.000000E+00
  0.000134650  1.964520E-02 -3.976240E-02  2.638730E-02  2.548460E-02  1.000000E+00  0.000000E+00  1.000000E+00  0.000000E+00
  0.000137125  2.067960E-02 -3.834160E-02  2.731690E-02  2.473730E-02  1.000000E+00  0.000000E+00  1.000000E+00  0.000000E+00
  0.000139600  2.213950E-02 -3.761910E-02  2.765660E-02  2.353770E-02  1.000000E+00  0.000000E+00  1.000000E+00  0.000000E+00
  0.000142075  2.209680E-02 -3.569530E-02  2.819830E-02  2.298560E-02  1.000000E+00  0.000000E+00  1.000000E+00  0.000000E+00
  0.000144550  2.222630E-02 -3.627100E-02  2.794320E-02  2.247400E-02  1.000000E+00  0.000000E+00  1.000000E+00  0.000000E+00
  0.000147025  2.316110E-02 -3.427710E-02  2.875480E-02  2.178800E-02  1.000000E+00  0.000000E+00  1.000000E+00  0.000000E+00
  0.000149500  2.405020E-02 -3.377240E-02  2.838890E-02  2.148330E-02  1.000000E+00  0.000000E+00  1.000000E+00  0.000000E+00
  0.000151975  2.353920E-02 -3.312160E-02  2.904810E-02  2.090160E-02  1.000000E+00  0.000000E+00  1.000000E+00  0.000000E+00
  0.000154450  2.453050E-02 -3.091450E-02  2.932310E-02  2.039370E-02  1.000000E+00  0.000000E+00  1.000000E+00  0.000000E+00
  0.000156925  2.516190E-02 -3.070490E-02  2.958620E-02  1.979550E-02  1.000000E+00  0.000000E+00  1.000000E+00  0.000000E+00
  0.000159400  2.503500E-02 -3.005470E-02  2.950920E-02  1.955810E-02  1.000000E+00  0.000000E+00  1.000000E+00  0.000000E+00
  0.000161875  2.612860E-02 -3.024820E-02  2.947050E-02  1.940070E-02  1.000000E+00  0.000000E+00  1.000000E+00  0.000000E+00
  0.000164350  2.637670E-02 -2.951520E-02  3.037200E-02  1.922050E-02  1.000000E+00  0.000000E+00  1.000000E+00  0.000000E+00
  0.000166825  2.660300E-02 -2.865110E-02  3.027370E-02  1.852600E-02  1.000000E+00  0.000000E+00  1.000000E+00  0.000000E+00
  0.000169300  2.767400E-02 -2.847930E-02  3.094910E-02  1.776620E-02  1.000000E+00  0.000000E+00  1.000000E+00  0.000000E+00
  0.000171775  2.802500E-02 -2.750980E-02  3.071660E-02  1.792590E-02  1.000000E+00  0.000000E+00  1.000000E+00  0.000000E+00
  0.000174250  2.773770E-02 -2.666570E-02  3.140110E-02  1.749050E-02  1.000000E+00  0.000000E+00  1.000000E+00  0.000000E+00
  0.000176725  2.882800E-02 -2.657870E-02  3.161880E-02  1.730800E-02  1.000000E+00  0.000000E+00  1.000000E+00  0.000000E+00
  0.000179200  2.807520E-02 -2.603170E-02  3.217340E-02  1.710350E-02  1.000000E+00  0.000000E+00  1.000000E+00  0.000000E+00
  0.000181675  2.886390E-02 -2.509180E-02  3.239940E-02  1.575590E-02  1.000000E+00  0.000000E+00  1.000000E+00  0.000000E+00
  0.000184150  2.911600E-02 -2.445380E-02  3.244360E-02  1.560890E-02  1.000000E+00  0.000000E+00  1.000000E+00  0.000000E+00
  0.000186625  2.958290E-02 -2.414080E-02  3.280620E-02  1.540070E-02  1.000000E+00  0.000000E+00  1.000000E+00  0.000000E+00
  0.000189100  2.961720E-02 -2.395950E-02  3.231630E-02  1.521450E-02  1.000000E+00  0.000000E+00  1.000000E+00  0.000000E+00
  0.000191575  2.865800E-02 -2.405340E-02  3.279180E-02  1.447330E-02  1.000000E+00  0.000000E+00  1.000000E+00  0.000000E+00
  0.000194050  2.956220E-02 -2.282010E-02  3.276340E-02  1.388620E-02  1.000000E+00  0.000000E+00  1.000000E+00  0.000000E+00
  0.000196525  2.987440E-02 -2.234170E-02  3.292060E-02  1.378580E-02  1.000000E+00  0.000000E+00  1.000000E+00  0.000000E+00
  0.000199000  3.097080E-02 -2.198840E-02  3.298040E-02  1.322620E-02  1.000000E+00  0.000000E+00  1.000000E+00  0.000000E+00
  0.000201475  3.066460E-02 -2.153510E-02  3.304050E-02  1.354440E-02  1.000000E+00  0.000000E+00  1.000000E+00  0.000000E+00
  0.000203950  3.017720E-02 -2.092000E-02  3.328960E-02  1.289060E-02  1.000000E+00  0.000000E+00  1.000000E+00  0.000000E+00
  0.000206425  3.172870E-02 -2.033580E-02  3.378130E-02  1.265040E-02  1.000000E+00  0.000000E+00  1.000000E+00  0.000000E+00
  0.000208900  3.124460E-02 -2.111510E-02  3.325490E-02  1.188610E-02  1.000000E+00  0.000000E+00  1.000000E+00  0.000000E+00
  0.000211375  3.269610E-02 -2.067510E-02  3.359860E-02  1.227700E-02  1.000000E+00  0.000000E+00  1.000000E+00  0.000000E+00
  0.000213850  3.168270E-02 -1.973280E-02  3.331290E-02  1.167790E-02  1.000000E+00  0.000000E+00  1.000000E+00  0.000000E+00
  0.000216325  3.205600E-02 -1.966130E-02  3.428260E-02  1.106960E-02  1.000000E+00  0.000000E+00  1.000000E+00  0.000000E+00
  0.000218800  3.171710E-02 -1.947510E-02  3.335540E-02  1.037810E-02  1.000000E+00  0.000000E+00  1.000000E+00  0.000000E+00
  0.000221275  3.333910E-02 -1.814510E-02  3.425430E-02  1.083210E-02  1.000000E+00  0.000000E+00  1.000000E+00  0.000000E+00
  0.000223750  3.297150E-02 -1.891060E-02  3.390480E-02  9.987380E-03  1.000000E+00  0.000000E+00  1.000000E+00  0.000000E+00
  0.000226225  3.423780E-02 -1.762050E-02  3.423230E-02  9.747250E-03  1.000000E+00  0.000000E+00  1.000000E+00  0.000000E+00
  0.000228700  3.263170E-02 -1.887660E-02  3.452040E-02  9.387980E-03  1.000000E+00  0.000000E+00  1.000000E+00  0.000000E+00
  0.000231175  3.278990E-02 -1.809050E-02  3.462190E-02  9.622470E-03  1.000000E+00  0.000000E+00  1.000000E+00  0.000000E+00
  0.000233650  3.388480E-02 -1.727050E-02  3.451180E-02  8.836250E-03  1.000000E+00  0.000000E+00  1.000000E+00  0.000000E+00
  0.000236125  3.314290E-02 -1.647920E-02  3.494720E-02  8.082450E-03  1.000000E+00  0.000000E+00  1.000000E+00  0.000000E+00
  0.000238600  3.419930E-02 -1.645140E-02  3.462620E-02  8.301700E-03  1.000000E+00  0.000000E+00  1.000000E+00  0.000000E+00
  0.000241075  3.391800E-02 -1.682150E-02  3.447320E-02  7.698180E-03  1.000000E+00  0.000000E+00  1.000000E+00  0.000000E+00
  0.000243550  3.416770E-02 -1.561730E-02  3.481420E-02  7.927190E-03  1.000000E+00  0.000000E+00  1.000000E+00  0.000000E+00
  0.000246025  3.494810E-02 -1.600130E-02  3.528630E-02  6.883690E-03  1.000000E+00  0.000000E+00  1.000000E+00  0.000000E+00
  0.000248500  3.475420E-02 -1.590450E-02  3.452850E-02  6.963990E-03  1.000000E+00  0.000000E+00  1.000000E+00  0.000000E+00
  0.000250975  3.550990E-02 -1.611440E-02  3.442280E-02  6.413060E-03  1.000000E+00  0.000000E+00  1.000000E+00  0.000000E+00
  0.000253450  3.513890E-02 -1.444660E-02  3.472510E-02  6.725150E-03  1.000000E+00  0.000000E+00  1.000000E+00  0.000000E+00
  0.000255925  3.417510E-02 -1.413690E-02  3.512860E-02  6.496750E-03  1.000000E+00  0.000000E+00  1.000000E+00  0.000000E+00
  0.000258400  3.504260E-02 -1.436250E-02  3.460720E-02  5.949030E-03  1.000000E+00  0.000000E+00  1.000000E+00  0.000000E+00
  0.000260875  3.517790E-02 -1.472130E-02  3.482730E-02  5.186620E-03  1.000000E+00  0.000000E+00  1.000000E+00  0.000000E+00
  0.000263350  3.509380E-02 -1.318720E-02  3.512000E-02  5.563600E-03  1.000000E+00  0.000000E+00  1.000000E+00  0.000000E+00
  0.000265825  3.540910E-02 -1.410290E-02  3.492120E-02  5.202130E-03  1.000000E+00  0.000000E+00  1.000000E+00  0.000000E+00
  0.000268300  3.579980E-02 -1.385200E-02  3.454400E-02  4.910820E-03  1.000000E+00  0.000000E+00  1.000000E+00  0.000000E+00
  0.000270775  3.536210E-02 -1.338070E-02  3.459510E-02  4.689110E-03  1.000000E+00  0.000000E+00  1.000000E+00  0.000000E+00
  0.000273250  3.586500E-02 -1.212370E-02  3.467420E-02  4.455000E-03  1.000000E+00  0.000000E+00  1.000000E+00  0.000000E+00
  0.000275725  3.620550E-02 -1.263090E-02  3.506010E-02  4.308560E-03  1.000000E+00  0.000000E+00  1.000000E+00  0.000000E+00
  0.000278200  3.597250E-02 -1.282680E-02  3.499600E-02  3.369400E-03  1.000000E+00  0.000000E+00  1.000000E+00  0.000000E+00
  0.000280675  3.623020E-02 -1.262360E-02  3.514980E-02  3.828750E-03  1.000000E+00  0.000000E+00  1.000000E+00  0.000000E+00
  0.000283150  3.632980E-02 -1.294810E-02  3.473420E-02  3.135670E-03  1.000000E+00  0.000000E+00  1.000000E+00  0.000000E+00
  0.000285625  3.615300E-02 -1.258760E-02  3.534700E-02  3.847410E-03  1.000000E+00  0.000000E+00  1.000000E+00  0.000000E+00
  0.000288100  3.658850E-02 -1.162050E-02  3.496800E-02  2.551400E-03  1.000000E+00  0.000000E+00  1.000000E+00  0.000000E+00
  0.000290575  3.634440E-02 -1.091750E-02  3.480110E-02  3.305750E-03  1.000000E+00  0.000000E+00  1.000000E+00  0.000000E+00
  0.000293050  3.741690E-02 -1.083300E-02  3.451120E-02  2.511170E-03  1.000000E+00  0.000000E+00  1.000000E+00  0.000000E+00
  0.000295525  3.698440E-02 -1.002280E-02  3.549890E-02  2.213590E-03  1.000000E+00  0.000000E+00  1.000000E+00  0.000000E+00
  0.000298000  3.640590E-02 -1.243090E-02  3.479390E-02  1.469300E-03  1.000000E+00  0.000000E+00  1.000000E+00  0.000000E+00
  0.000300475  3.815290E-02 -1.161690E-02  3.496560E-02  1.720400E-03  1.000000E+00  0.000000E+00  1.000000E+00  0.000000E+00
  0.000302950  3.738450E-02 -9.997110E-03  3.468200E-02  9.208900E-04  1.000000E+00  0.000000E+00  1.000000E+00  0.000000E+00
  0.000305425  3.676070E-02 -9.786930E-03  3.543420E-02  1.037400E-03  1.000000E+00  0.000000E+00  1.000000E+00  0.000000E+00
  0.000307900  3.801800E-02 -1.040890E-02  3.455780E-02  6.760020E-04  1.000000E+00  0.000000E+00  1.000000E+00  0.000000E+00
  0.000310375  3.942790E-02 -1.068750E-02  3.450670E-02  5.147840E-04  1.000000E+00  0.000000E+00  1.000000E+00  0.000000E+00
  0.000312850  3.853510E-02 -9.988710E-03  3.521270E-02  9.072750E-04  1.000000E+00  0.000000E+00  1.000000E+00  0.000000E+00
  0.000315325  3.766630E-02 -1.069690E-02  3.436070E-02  1.797040E-04  1.000000E+00  0.000000E+00  1.000000E+00  0.000000E+00
  0.000317800  3.824910E-02 -8.802050E-03  3.452770E-02  2.314170E-05  1.000000E+00  0.000000E+00  1.000000E+00  0.000000E+00
  0.000320275  3.833020E-02 -8.519270E-03  3.429850E-02 -1.478990E-04  1.000000E+00  0.000000E+00  1.000000E+00  0.000000E+00
  0.000322750  3.769540E-02 -9.202530E-03  3.417770E-02 -5.711050E-04  1.000000E+00  0.000000E+00  1.000000E+00  0.000000E+00
  0.000325225  3.908160E-02 -9.941470E-03  3.425740E-02 -7.222960E-04  1.000000E+00  0.000000E+00  1.000000E+00  0.000000E+00
  0.000327700  3.921100E-02 -9.078420E-03  3.441050E-02 -9.000030E-04  1.000000E+00  0.000000E+00  1.000000E+00  0.000000E+00
  0.000330175  3.944150E-02 -9.006080E-03  3.378700E-02 -1.330100E-03  1.000000E+00  0.000000E+00  1.000000E+00  0.000000E+00
  0.000332650  3.846830E-02 -8.195220E-03  3.394920E-02 -1.168900E-03  1.000000E+00  0.000000E+00  1.000000E+00  0.000000E+00
  0.000335125  3.899160E-02 -9.156720E-03  3.419650E-02 -1.331390E-03  1.000000E+00  0.000000E+00  1.000000E+00  0.000000E+00
  0.000337600  3.983940E-02 -8.842410E-03  3.407840E-02 -1.670100E-03  1.000000E+00  0.000000E+00  1.000000E+00  0.000000E+00
  0.000340075  4.014670E-02 -8.342830E-03  3.291100E-02 -2.126820E-03  1.000000E+00  0.000000E+00  1.000000E+00  0.000000E+00
  0.000342550  3.939130E-02 -8.829630E-03  3.348100E-02 -1.750640E-03  1.000000E+00  0.000000E+00  1.000000E+00  0.000000E+00
  0.000345025  3.938480E-02 -9.073330E-03  3.331640E-02 -1.940590E-03  1.000000E+00  0.000000E+00  1.000000E+00  0.000000E+00
  0.000347500  3.991860E-02 -8.635340E-03  3.329940E-02 -1.353370E-03  1.000000E+00  0.000000E+00  1.000000E+00  0.000000E+00
  0.000349975  3.995370E-02 -7.607870E-03  3.332000E-02 -2.072830E-03  1.000000E+00  0.000000E+00  1.000000E+00  0.000000E+00
  0.000352450  4.034970E-02 -7.513740E-03  3.262550E-02 -1.600400E-03  1.000000E+00  0.000000E+00  1.000000E+00  0.000000E+00
  0.000354925  4.065060E-02 -7.687800E-03  3.331600E-02 -2.705650E-03  1.000000E+00  0.000000E+00  1.000000E+00  0.000000E+00
  0.000357400  4.022740E-02 -7.975280E-03  3.301240E-02 -1.937810E-03  1.000000E+00  0.000000E+00  1.000000E+00  0.000000E+00
  0.000359875  4.085920E-02 -7.475480E-03  3.391410E-02 -2.707570E-03  1.000000E+00  0.000000E+00  1.000000E+00  0.000000E+00
  0.000362350  4.087340E-02 -8.024710E-03  3.298760E-02 -2.475150E-03  1.000000E+00  0.000000E+00  1.000000E+00  0.000000E+00
  0.000364825  4.048250E-02 -6.722890E-03  3.338620E-02 -3.101500E-03  1.000000E+00  0.000000E+00  1.000000E+00  0.000000E+00
  0.000367300  4.124800E-02 -7.990900E-03  3.296850E-02 -2.672170E-03  1.000000E+00  0.000000E+00  1.000000E+00  0.000000E+00
  0.000369775  4.042300E-02 -6.971950E-03  3.322770E-02 -3.670730E-03  1.000000E+00  0.000000E+00  1.000000E+00  0.000000E+00
  0.000372250  4.169790E-02 -8.082100E-03  3.266370E-02 -2.445170E-03  1.000000E+00  0.000000E+00  1.000000E+00  0.000000E+00
  0.000374725  4.083080E-02 -7.158670E-03  3.317110E-02 -3.107470E-03  1.000000E+00  0.000000E+00  1.000000E+00  0.000000E+00
  0.000377200  4.155780E-02 -7.313750E-03  3.334630E-02 -3.439580E-03  1.000000E+00  0.000000E+00  1.000000E+00  0.000000E+00
  0.000379675  4.148650E-02 -8.006940E-03  3.260690E-02 -3.603100E-03  1.000000E+00  0.000000E+00  1.000000E+00  0.000000E+00
  0.000382150  4.127580E-02 -7.450900E-03  3.305750E-02 -3.145230E-03  1.000000E+00  0.000000E+00  1.000000E+00  0.000000E+00
  0.000384625  4.246100E-02 -8.175540E-03  3.297040E-02 -2.905250E-03  1.000000E+00  0.000000E+00  1.000000E+00  0.000000E+00
  0.000387100  4.083710E-02 -7.152810E-03  3.276640E-02 -3.832000E-03  1.000000E+00  0.000000E+00  1.000000E+00  0.000000E+00
  0.000389575  4.184720E-02 -8.170940E-03  3.331900E-02 -3.368700E-03  1.000000E+00  0.000000E+00  1.000000E+00  0.000000E+00
  0.000392050  4.127280E-02 -6.617330E-03  3.282870E-02 -3.455160E-03  1.000000E+00  0.000000E+00  1.000000E+00  0.000000E+00
  0.000394525  4.125790E-02 -6.908540E-03  3.275730E-02 -3.112490E-03  1.000000E+00  0.000000E+00  1.000000E+00  0.000000E+00
  0.000397000  4.091610E-02 -7.370130E-03  3.268120E-02 -4.234980E-03  1.000000E+00  0.000000E+00  1.000000E+00  0.000000E+00
  0.000399475  4.270370E-02 -8.092370E-03  3.275050E-02 -3.911940E-03  1.000000E+00  0.000000E+00  1.000000E+00  0.000000E+00
  0.000401950  4.128280E-02 -8.168070E-03  3.294210E-02 -4.538900E-03  1.000000E+00  0.000000E+00  1.000000E+00  0.000000E+00
  0.000404425  4.233020E-02 -6.405750E-03  3.251860E-02 -3.982060E-03  1.000000E+00  0.000000E+00  1.000000E+00  0.000000E+00
  0.000406900  4.240900E-02 -7.907010E-03  3.277790E-02 -3.963490E-03  1.000000E+00  0.000000E+00  1.000000E+00  0.000000E+00
  0.000409375  4.235770E-02 -8.181030E-03  3.315130E-02 -4.825000E-03  1.000000E+00  0.000000E+00  1.000000E+00  0.000000E+00
  0.000411850  4.222580E-02 -8.572560E-03  3.304650E-02 -5.151110E-03  1.000000E+00  0.000000E+00  1.000000E+00  0.000000E+00
  0.000414325  4.170070E-02 -6.526730E-03  3.297660E-02 -4.461290E-03  1.000000E+00  0.000000E+00  1.000000E+00  0.000000E+00
  0.000416800  4.187940E-02 -6.641510E-03  3.334170E-02 -4.720320E-03  1.000000E+00  0.000000E+00  1.000000E+00  0.000000E+00
  0.000419275  4.267990E-02 -7.399630E-03  3.316500E-02 -5.057530E-03  1.000000E+00  0.000000E+00  1.000000E+00  0.000000E+00
  0.000421750  4.330850E-02 -7.154580E-03  3.310430E-02 -5.090890E-03  1.000000E+00  0.000000E+00  1.000000E+00  0.000000E+00
  0.000424225  4.323100E-02 -6.469750E-03  3.340300E-02 -5.487640E-03  1.000000E+00  0.000000E+00  1.000000E+00  0.000000E+00
  0.000426700  4.199180E-02 -7.798550E-03  3.315240E-02 -5.244770E-03  1.000000E+00  0.000000E+00  1.000000E+00  0.000000E+00
  0.000429175  4.203730E-02 -7.823750E-03  3.316200E-02 -5.060990E-03  1.000000E+00  0.000000E+00  1.000000E+00  0.000000E+00
  0.000431650  4.240420E-02 -7.622510E-03  3.260680E-02 -6.045920E-03  1.000000E+00  0.000000E+00  1.000000E+00  0.000000E+00
  0.000434125  4.342720E-02 -6.658220E-03  3.326950E-02 -5.441070E-03  1.000000E+00  0.000000E+00  1.000000E+00  0.000000E+00
  0.000436600  4.183080E-02 -6.644890E-03  3.296900E-02 -5.171210E-03  1.000000E+00  0.000000E+00  1.000000E+00  0.000000E+00
  0.000439075  4.306470E-02 -7.321300E-03  3.359260E-02 -6.440720E-03  1.000000E+00  0.000000E+00  1.000000E+00  0.000000E+00
  0.000441550  4.272440E-02 -7.059930E-03  3.317490E-02 -5.774200E-03  1.000000E+00  0.000000E+00  1.000000E+00  0.000000E+00
  0.000444025  4.211940E-02 -6.895900E-03  3.332730E-02 -6.946390E-03  1.000000E+00  0.000000E+00  1.000000E+00  0.000000E+00
  0.000446500  4.255220E-02 -6.732620E-03  3.344150E-02 -6.959260E-03  1.000000E+00  0.000000E+00  1.000000E+00  0.000000E+00
  0.000448975  4.236450E-02 -5.968030E-03  3.346410E-02 -7.081800E-03  1.000000E+00  0.000000E+00  1.000000E+00  0.000000E+00
  0.000451450  4.271570E-02 -7.028950E-03  3.280070E-02 -6.889910E-03  1.000000E+00  0.000000E+00  1.000000E+00  0.000000E+00
  0.000453925  4.217110E-02 -6.945740E-03  3.302360E-02 -7.146400E-03  1.000000E+00  0.000000E+00  1.000000E+00  0.000000E+00
