! Anritsu VNA Master:                        Model: MS2026C/19
! SN:                                  1815009
! /card0/usr/20180902_12.s2p
! Existing Calibration Information:
! TYPE:                         Current Settings,       Active Cal Settings
! TIME:             	   09/02/2018 12:45:59 PM,    09/02/2018 11:58:48 AM
! INTERNAL TEMP:    	                   53.5 C,                    48.8 C
! # POINTS:         	                     4001,                      4001
! START FREQ:       	              100.000 kHz,               100.000 kHz
! STOP FREQ:        	               10.000 MHz,                10.000 MHz
! SOURCE POWER:     	                      Low,                       Low
! IFBW:             	                   500 Hz,                    500 Hz
! AVG FACTOR:       	                       5 ,                        1 
! REF PLANE 1:      	                     0 mm,                      0 mm
! REF PLANE 2:      	                     0 mm,                      0 mm
! CAL TYPE:         	             1P2P S11,S21,              1P2P S11,S21
! CAL METHOD:       	                     SOLT,                      SOLT
! CAL LINE TYPE:    	                     Coax,                      Coax
! DUT PORT 1:       	                N-Conn(M),                 N-Conn(M)
! DUT PORT 2:       	                N-Conn(M),                 N-Conn(M)
! CAL STATUS:       	        OK: Accuracy High,                        --
# GHZ S RI R 50.0
! FREQ.GHZ      S11RE         S11IM         S21RE         S21IM         S12RE         S12IM         S22RE         S22IM
  0.000100000  4.267430E-03 -5.942610E-02  5.575520E-02  1.396930E-01  1.000000E+00  0.000000E+00  1.000000E+00  0.000000E+00
  0.000102475  6.377040E-03 -5.666530E-02  6.014510E-02  1.384750E-01  1.000000E+00  0.000000E+00  1.000000E+00  0.000000E+00
  0.000104950  6.223320E-03 -5.479310E-02  6.551600E-02  1.365560E-01  1.000000E+00  0.000000E+00  1.000000E+00  0.000000E+00
  0.000107425  8.648980E-03 -5.225430E-02  6.950910E-02  1.346380E-01  1.000000E+00  0.000000E+00  1.000000E+00  0.000000E+00
  0.000109900  9.839900E-03 -5.023400E-02  7.460380E-02  1.331190E-01  1.000000E+00  0.000000E+00  1.000000E+00  0.000000E+00
  0.000112375  1.126550E-02 -4.857620E-02  7.776430E-02  1.302900E-01  1.000000E+00  0.000000E+00  1.000000E+00  0.000000E+00
  0.000114850  1.187980E-02 -4.713930E-02  8.175430E-02  1.289460E-01  1.000000E+00  0.000000E+00  1.000000E+00  0.000000E+00
  0.000117325  1.365690E-02 -4.574650E-02  8.528200E-02  1.262320E-01  1.000000E+00  0.000000E+00  1.000000E+00  0.000000E+00
  0.000119800  1.477720E-02 -4.364710E-02  8.839160E-02  1.241980E-01  1.000000E+00  0.000000E+00  1.000000E+00  0.000000E+00
  0.000122275  1.511130E-02 -4.129670E-02  9.194570E-02  1.219190E-01  1.000000E+00  0.000000E+00  1.000000E+00  0.000000E+00
  0.000124750  1.724630E-02 -4.098120E-02  9.518970E-02  1.207220E-01  1.000000E+00  0.000000E+00  1.000000E+00  0.000000E+00
  0.000127225  1.660860E-02 -3.940350E-02  9.802690E-02  1.184900E-01  1.000000E+00  0.000000E+00  1.000000E+00  0.000000E+00
  0.000129700  1.753400E-02 -3.664540E-02  1.011940E-01  1.156910E-01  1.000000E+00  0.000000E+00  1.000000E+00  0.000000E+00
  0.000132175  1.913140E-02 -3.633670E-02  1.040130E-01  1.141520E-01  1.000000E+00  0.000000E+00  1.000000E+00  0.000000E+00
  0.000134650  1.916660E-02 -3.620380E-02  1.062840E-01  1.116690E-01  1.000000E+00  0.000000E+00  1.000000E+00  0.000000E+00
  0.000137125  2.041130E-02 -3.521000E-02  1.095010E-01  1.093220E-01  1.000000E+00  0.000000E+00  1.000000E+00  0.000000E+00
  0.000139600  2.152580E-02 -3.346740E-02  1.116870E-01  1.077680E-01  1.000000E+00  0.000000E+00  1.000000E+00  0.000000E+00
  0.000142075  2.256660E-02 -3.276750E-02  1.136910E-01  1.051530E-01  1.000000E+00  0.000000E+00  1.000000E+00  0.000000E+00
  0.000144550  2.278140E-02 -3.227760E-02  1.150010E-01  1.027580E-01  1.000000E+00  0.000000E+00  1.000000E+00  0.000000E+00
  0.000147025  2.420890E-02 -3.053390E-02  1.181430E-01  1.007100E-01  1.000000E+00  0.000000E+00  1.000000E+00  0.000000E+00
  0.000149500  2.480300E-02 -2.987790E-02  1.198730E-01  9.855960E-02  1.000000E+00  0.000000E+00  1.000000E+00  0.000000E+00
  0.000151975  2.430020E-02 -2.959640E-02  1.219790E-01  9.631130E-02  1.000000E+00  0.000000E+00  1.000000E+00  0.000000E+00
  0.000154450  2.509460E-02 -2.718630E-02  1.227120E-01  9.396660E-02  1.000000E+00  0.000000E+00  1.000000E+00  0.000000E+00
  0.000156925  2.628640E-02 -2.745940E-02  1.239600E-01  9.208980E-02  1.000000E+00  0.000000E+00  1.000000E+00  0.000000E+00
  0.000159400  2.542650E-02 -2.682400E-02  1.262150E-01  8.999130E-02  1.000000E+00  0.000000E+00  1.000000E+00  0.000000E+00
  0.000161875  2.697310E-02 -2.727920E-02  1.271450E-01  8.879100E-02  1.000000E+00  0.000000E+00  1.000000E+00  0.000000E+00
  0.000164350  2.786670E-02 -2.609270E-02  1.290700E-01  8.617160E-02  1.000000E+00  0.000000E+00  1.000000E+00  0.000000E+00
  0.000166825  2.763080E-02 -2.539680E-02  1.299300E-01  8.411270E-02  1.000000E+00  0.000000E+00  1.000000E+00  0.000000E+00
  0.000169300  2.858120E-02 -2.483790E-02  1.318810E-01  8.180520E-02  1.000000E+00  0.000000E+00  1.000000E+00  0.000000E+00
  0.000171775  2.899940E-02 -2.344480E-02  1.331320E-01  8.001220E-02  1.000000E+00  0.000000E+00  1.000000E+00  0.000000E+00
  0.000174250  2.929950E-02 -2.323090E-02  1.337030E-01  7.912920E-02  1.000000E+00  0.000000E+00  1.000000E+00  0.000000E+00
  0.000176725  2.981970E-02 -2.265240E-02  1.348100E-01  7.672340E-02  1.000000E+00  0.000000E+00  1.000000E+00  0.000000E+00
  0.000179200  3.022650E-02 -2.246100E-02  1.361940E-01  7.475220E-02  1.000000E+00  0.000000E+00  1.000000E+00  0.000000E+00
  0.000181675  3.000470E-02 -2.302080E-02  1.372040E-01  7.189130E-02  1.000000E+00  0.000000E+00  1.000000E+00  0.000000E+00
  0.000184150  3.146160E-02 -2.151310E-02  1.383390E-01  7.078670E-02  1.000000E+00  0.000000E+00  1.000000E+00  0.000000E+00
  0.000186625  3.097120E-02 -2.034270E-02  1.391500E-01  6.886980E-02  1.000000E+00  0.000000E+00  1.000000E+00  0.000000E+00
  0.000189100  3.139510E-02 -2.019210E-02  1.400100E-01  6.718390E-02  1.000000E+00  0.000000E+00  1.000000E+00  0.000000E+00
  0.000191575  3.048760E-02 -2.121710E-02  1.402000E-01  6.538660E-02  1.000000E+00  0.000000E+00  1.000000E+00  0.000000E+00
  0.000194050  3.199640E-02 -2.061240E-02  1.416110E-01  6.358480E-02  1.000000E+00  0.000000E+00  1.000000E+00  0.000000E+00
  0.000196525  3.286010E-02 -1.965690E-02  1.417530E-01  6.137730E-02  1.000000E+00  0.000000E+00  1.000000E+00  0.000000E+00
  0.000199000  3.255890E-02 -1.876710E-02  1.424720E-01  6.059630E-02  1.000000E+00  0.000000E+00  1.000000E+00  0.000000E+00
  0.000201475  3.361640E-02 -1.882410E-02  1.435560E-01  5.918290E-02  1.000000E+00  0.000000E+00  1.000000E+00  0.000000E+00
  0.000203950  3.227530E-02 -1.833560E-02  1.439950E-01  5.714320E-02  1.000000E+00  0.000000E+00  1.000000E+00  0.000000E+00
  0.000206425  3.392880E-02 -1.788580E-02  1.444900E-01  5.551820E-02  1.000000E+00  0.000000E+00  1.000000E+00  0.000000E+00
  0.000208900  3.303520E-02 -1.805210E-02  1.448760E-01  5.348520E-02  1.000000E+00  0.000000E+00  1.000000E+00  0.000000E+00
  0.000211375  3.507650E-02 -1.822450E-02  1.459240E-01  5.252100E-02  1.000000E+00  0.000000E+00  1.000000E+00  0.000000E+00
  0.000213850  3.394080E-02 -1.693030E-02  1.452250E-01  5.046760E-02  1.000000E+00  0.000000E+00  1.000000E+00  0.000000E+00
  0.000216325  3.370090E-02 -1.709800E-02  1.463550E-01  4.909350E-02  1.000000E+00  0.000000E+00  1.000000E+00  0.000000E+00
  0.000218800  3.448150E-02 -1.724360E-02  1.463100E-01  4.766040E-02  1.000000E+00  0.000000E+00  1.000000E+00  0.000000E+00
  0.000221275  3.563640E-02 -1.611180E-02  1.473470E-01  4.638300E-02  1.000000E+00  0.000000E+00  1.000000E+00  0.000000E+00
  0.000223750  3.481730E-02 -1.659890E-02  1.469360E-01  4.474330E-02  1.000000E+00  0.000000E+00  1.000000E+00  0.000000E+00
  0.000226225  3.555070E-02 -1.489090E-02  1.474080E-01  4.358720E-02  1.000000E+00  0.000000E+00  1.000000E+00  0.000000E+00
  0.000228700  3.525270E-02 -1.607450E-02  1.480780E-01  4.176050E-02  1.000000E+00  0.000000E+00  1.000000E+00  0.000000E+00
  0.000231175  3.547780E-02 -1.614900E-02  1.488910E-01  4.073600E-02  1.000000E+00  0.000000E+00  1.000000E+00  0.000000E+00
  0.000233650  3.475990E-02 -1.549030E-02  1.487150E-01  3.980980E-02  1.000000E+00  0.000000E+00  1.000000E+00  0.000000E+00
  0.000236125  3.515350E-02 -1.385160E-02  1.493750E-01  3.853720E-02  1.000000E+00  0.000000E+00  1.000000E+00  0.000000E+00
  0.000238600  3.620370E-02 -1.447510E-02  1.497790E-01  3.687330E-02  1.000000E+00  0.000000E+00  1.000000E+00  0.000000E+00
  0.000241075  3.559420E-02 -1.421580E-02  1.502020E-01  3.528270E-02  1.000000E+00  0.000000E+00  1.000000E+00  0.000000E+00
  0.000243550  3.616990E-02 -1.394400E-02  1.499390E-01  3.336360E-02  1.000000E+00  0.000000E+00  1.000000E+00  0.000000E+00
  0.000246025  3.695490E-02 -1.394860E-02  1.498610E-01  3.283200E-02  1.000000E+00  0.000000E+00  1.000000E+00  0.000000E+00
  0.000248500  3.693210E-02 -1.325500E-02  1.510630E-01  3.126060E-02  1.000000E+00  0.000000E+00  1.000000E+00  0.000000E+00
  0.000250975  3.686690E-02 -1.387140E-02  1.497780E-01  2.981620E-02  1.000000E+00  0.000000E+00  1.000000E+00  0.000000E+00
  0.000253450  3.735860E-02 -1.223290E-02  1.514870E-01  2.899660E-02  1.000000E+00  0.000000E+00  1.000000E+00  0.000000E+00
  0.000255925  3.624500E-02 -1.181830E-02  1.512440E-01  2.729530E-02  1.000000E+00  0.000000E+00  1.000000E+00  0.000000E+00
  0.000258400  3.749080E-02 -1.215880E-02  1.511990E-01  2.649490E-02  1.000000E+00  0.000000E+00  1.000000E+00  0.000000E+00
  0.000260875  3.792370E-02 -1.160740E-02  1.512680E-01  2.519680E-02  1.000000E+00  0.000000E+00  1.000000E+00  0.000000E+00
  0.000263350  3.753830E-02 -1.128610E-02  1.515900E-01  2.379170E-02  1.000000E+00  0.000000E+00  1.000000E+00  0.000000E+00
  0.000265825  3.747320E-02 -1.154780E-02  1.524260E-01  2.245250E-02  1.000000E+00  0.000000E+00  1.000000E+00  0.000000E+00
  0.000268300  3.801300E-02 -1.155750E-02  1.521020E-01  2.123240E-02  1.000000E+00  0.000000E+00  1.000000E+00  0.000000E+00
  0.000270775  3.819150E-02 -1.143230E-02  1.515850E-01  2.027430E-02  1.000000E+00  0.000000E+00  1.000000E+00  0.000000E+00
  0.000273250  3.836360E-02 -1.044170E-02  1.519520E-01  1.908740E-02  1.000000E+00  0.000000E+00  1.000000E+00  0.000000E+00
  0.000275725  3.890520E-02 -1.028980E-02  1.528510E-01  1.775300E-02  1.000000E+00  0.000000E+00  1.000000E+00  0.000000E+00
  0.000278200  3.822110E-02 -1.016320E-02  1.521450E-01  1.704420E-02  1.000000E+00  0.000000E+00  1.000000E+00  0.000000E+00
  0.000280675  3.920230E-02 -9.846740E-03  1.522680E-01  1.658870E-02  1.000000E+00  0.000000E+00  1.000000E+00  0.000000E+00
  0.000283150  3.894640E-02 -1.042250E-02  1.512000E-01  1.464730E-02  1.000000E+00  0.000000E+00  1.000000E+00  0.000000E+00
  0.000285625  3.895600E-02 -9.538970E-03  1.530410E-01  1.365100E-02  1.000000E+00  0.000000E+00  1.000000E+00  0.000000E+00
  0.000288100  3.867300E-02 -9.624710E-03  1.519810E-01  1.253520E-02  1.000000E+00  0.000000E+00  1.000000E+00  0.000000E+00
  0.000290575  3.901200E-02 -8.526850E-03  1.528090E-01  1.175160E-02  1.000000E+00  0.000000E+00  1.000000E+00  0.000000E+00
  0.000293050  3.970700E-02 -8.859880E-03  1.509320E-01  1.021790E-02  1.000000E+00  0.000000E+00  1.000000E+00  0.000000E+00
  0.000295525  3.983440E-02 -7.400300E-03  1.527520E-01  9.039410E-03  1.000000E+00  0.000000E+00  1.000000E+00  0.000000E+00
  0.000298000  3.947490E-02 -9.390250E-03  1.518060E-01  7.986220E-03  1.000000E+00  0.000000E+00  1.000000E+00  0.000000E+00
  0.000300475  4.014490E-02 -9.052640E-03  1.517110E-01  6.878640E-03  1.000000E+00  0.000000E+00  1.000000E+00  0.000000E+00
  0.000302950  3.988740E-02 -8.151860E-03  1.509520E-01  5.856690E-03  1.000000E+00  0.000000E+00  1.000000E+00  0.000000E+00
  0.000305425  4.065070E-02 -7.071830E-03  1.514960E-01  5.777760E-03  1.000000E+00  0.000000E+00  1.000000E+00  0.000000E+00
  0.000307900  4.126880E-02 -8.379770E-03  1.518170E-01  4.206790E-03  1.000000E+00  0.000000E+00  1.000000E+00  0.000000E+00
  0.000310375  4.165210E-02 -8.459620E-03  1.515840E-01  3.691370E-03  1.000000E+00  0.000000E+00  1.000000E+00  0.000000E+00
  0.000312850  4.172860E-02 -7.947600E-03  1.509600E-01  2.885000E-03  1.000000E+00  0.000000E+00  1.000000E+00  0.000000E+00
  0.000315325  4.112980E-02 -8.337500E-03  1.502990E-01  1.603140E-03  1.000000E+00  0.000000E+00  1.000000E+00  0.000000E+00
  0.000317800  4.077870E-02 -6.651030E-03  1.516380E-01  4.983400E-04  1.000000E+00  0.000000E+00  1.000000E+00  0.000000E+00
  0.000320275  4.126300E-02 -5.928720E-03  1.508510E-01 -2.209820E-04  1.000000E+00  0.000000E+00  1.000000E+00  0.000000E+00
  0.000322750  4.071510E-02 -6.825100E-03  1.506510E-01 -9.096610E-04  1.000000E+00  0.000000E+00  1.000000E+00  0.000000E+00
  0.000325225  4.261930E-02 -6.983970E-03  1.485730E-01 -7.759240E-04  1.000000E+00  0.000000E+00  1.000000E+00  0.000000E+00
  0.000327700  4.263000E-02 -6.323380E-03  1.503230E-01 -3.778410E-03  1.000000E+00  0.000000E+00  1.000000E+00  0.000000E+00
  0.000330175  4.284250E-02 -6.412370E-03  1.496550E-01 -3.771250E-03  1.000000E+00  0.000000E+00  1.000000E+00  0.000000E+00
  0.000332650  4.144160E-02 -5.786580E-03  1.502280E-01 -4.332130E-03  1.000000E+00  0.000000E+00  1.000000E+00  0.000000E+00
  0.000335125  4.274830E-02 -6.370090E-03  1.488400E-01 -2.737500E-03  1.000000E+00  0.000000E+00  1.000000E+00  0.000000E+00
  0.000337600  4.346470E-02 -5.779950E-03  1.506300E-01 -5.016140E-03  1.000000E+00  0.000000E+00  1.000000E+00  0.000000E+00
  0.000340075  4.386880E-02 -6.568410E-03  1.503530E-01 -6.750210E-03  1.000000E+00  0.000000E+00  1.000000E+00  0.000000E+00
  0.000342550  4.363950E-02 -6.395190E-03  1.497500E-01 -7.233040E-03  1.000000E+00  0.000000E+00  1.000000E+00  0.000000E+00
  0.000345025  4.367690E-02 -6.789920E-03  1.507030E-01 -6.422650E-03  1.000000E+00  0.000000E+00  1.000000E+00  0.000000E+00
  0.000347500  4.418070E-02 -7.288180E-03  1.509810E-01 -7.491260E-03  1.000000E+00  0.000000E+00  1.000000E+00  0.000000E+00
  0.000349975  4.345810E-02 -5.550640E-03  1.495870E-01 -1.023190E-02  1.000000E+00  0.000000E+00  1.000000E+00  0.000000E+00
  0.000352450  4.358230E-02 -5.649260E-03  1.504100E-01 -9.913240E-03  1.000000E+00  0.000000E+00  1.000000E+00  0.000000E+00
  0.000354925  4.444310E-02 -5.630780E-03  1.510550E-01 -1.135430E-02  1.000000E+00  0.000000E+00  1.000000E+00  0.000000E+00
  0.000357400  4.389430E-02 -6.554110E-03  1.517500E-01 -1.117740E-02  1.000000E+00  0.000000E+00  1.000000E+00  0.000000E+00
  0.000359875  4.470070E-02 -6.263000E-03  1.492730E-01 -1.307320E-02  1.000000E+00  0.000000E+00  1.000000E+00  0.000000E+00
  0.000362350  4.386930E-02 -6.067000E-03  1.493570E-01 -1.413800E-02  1.000000E+00  0.000000E+00  1.000000E+00  0.000000E+00
  0.000364825  4.528980E-02 -5.845150E-03  1.492590E-01 -1.453320E-02  1.000000E+00  0.000000E+00  1.000000E+00  0.000000E+00
  0.000367300  4.529060E-02 -6.964550E-03  1.511460E-01 -1.510550E-02  1.000000E+00  0.000000E+00  1.000000E+00  0.000000E+00
  0.000369775  4.431820E-02 -5.260530E-03  1.483300E-01 -1.574890E-02  1.000000E+00  0.000000E+00  1.000000E+00  0.000000E+00
  0.000372250  4.433470E-02 -6.236010E-03  1.481150E-01 -1.637040E-02  1.000000E+00  0.000000E+00  1.000000E+00  0.000000E+00
  0.000374725  4.530010E-02 -6.483530E-03  1.485860E-01 -1.774840E-02  1.000000E+00  0.000000E+00  1.000000E+00  0.000000E+00
  0.000377200  4.524810E-02 -5.850430E-03  1.498900E-01 -1.825040E-02  1.000000E+00  0.000000E+00  1.000000E+00  0.000000E+00
  0.000379675  4.554090E-02 -7.355900E-03  1.488040E-01 -1.906390E-02  1.000000E+00  0.000000E+00  1.000000E+00  0.000000E+00
  0.000382150  4.555290E-02 -6.512540E-03  1.474220E-01 -1.901050E-02  1.000000E+00  0.000000E+00  1.000000E+00  0.000000E+00
  0.000384625  4.696450E-02 -6.487720E-03  1.490540E-01 -1.977390E-02  1.000000E+00  0.000000E+00  1.000000E+00  0.000000E+00
  0.000387100  4.495170E-02 -6.624430E-03  1.495990E-01 -2.118280E-02  1.000000E+00  0.000000E+00  1.000000E+00  0.000000E+00
  0.000389575  4.621890E-02 -6.737910E-03  1.484910E-01 -2.229270E-02  1.000000E+00  0.000000E+00  1.000000E+00  0.000000E+00
  0.000392050  4.619030E-02 -5.706690E-03  1.472940E-01 -2.206960E-02  1.000000E+00  0.000000E+00  1.000000E+00  0.000000E+00
  0.000394525  4.600090E-02 -6.530640E-03  1.490750E-01 -2.297790E-02  1.000000E+00  0.000000E+00  1.000000E+00  0.000000E+00
  0.000397000  4.537500E-02 -6.244020E-03  1.477270E-01 -2.405770E-02  1.000000E+00  0.000000E+00  1.000000E+00  0.000000E+00
  0.000399475  4.668790E-02 -7.244940E-03  1.484680E-01 -2.542220E-02  1.000000E+00  0.000000E+00  1.000000E+00  0.000000E+00
  0.000401950  4.647050E-02 -7.105440E-03  1.482130E-01 -2.538520E-02  1.000000E+00  0.000000E+00  1.000000E+00  0.000000E+00
  0.000404425  4.691010E-02 -6.385880E-03  1.481650E-01 -2.709700E-02  1.000000E+00  0.000000E+00  1.000000E+00  0.000000E+00
  0.000406900  4.661430E-02 -7.315360E-03  1.480460E-01 -2.708490E-02  1.000000E+00  0.000000E+00  1.000000E+00  0.000000E+00
  0.000409375  4.658010E-02 -6.787810E-03  1.472190E-01 -2.837170E-02  1.000000E+00  0.000000E+00  1.000000E+00  0.000000E+00
  0.000411850  4.657990E-02 -8.253160E-03  1.469390E-01 -2.946830E-02  1.000000E+00  0.000000E+00  1.000000E+00  0.000000E+00
  0.000414325  4.718060E-02 -6.526530E-03  1.473210E-01 -3.030590E-02  1.000000E+00  0.000000E+00  1.000000E+00  0.000000E+00
  0.000416800  4.595290E-02 -6.432800E-03  1.469380E-01 -3.112440E-02  1.000000E+00  0.000000E+00  1.000000E+00  0.000000E+00
  0.000419275  4.614620E-02 -7.329410E-03  1.459370E-01 -3.191070E-02  1.000000E+00  0.000000E+00  1.000000E+00  0.000000E+00
  0.000421750  4.745320E-02 -6.919470E-03  1.461360E-01 -3.253820E-02  1.000000E+00  0.000000E+00  1.000000E+00  0.000000E+00
  0.000424225  4.799680E-02 -6.794990E-03  1.462150E-01 -3.347600E-02  1.000000E+00  0.000000E+00  1.000000E+00  0.000000E+00
  0.000426700  4.642620E-02 -7.389000E-03  1.455880E-01 -3.441220E-02  1.000000E+00  0.000000E+00  1.000000E+00  0.000000E+00
  0.000429175  4.585320E-02 -7.433630E-03  1.455500E-01 -3.456990E-02  1.000000E+00  0.000000E+00  1.000000E+00  0.000000E+00
  0.000431650  4.696270E-02 -7.481540E-03  1.441570E-01 -3.546920E-02  1.000000E+00  0.000000E+00  1.000000E+00  0.000000E+00
  0.000434125  4.825980E-02 -7.028810E-03  1.439570E-01 -3.543840E-02  1.000000E+00  0.000000E+00  1.000000E+00  0.000000E+00
  0.000436600  4.592600E-02 -7.052450E-03  1.436810E-01 -3.683040E-02  1.000000E+00  0.000000E+00  1.000000E+00  0.000000E+00
  0.000439075  4.773440E-02 -7.064070E-03  1.433120E-01 -3.797240E-02  1.000000E+00  0.000000E+00  1.000000E+00  0.000000E+00
  0.000441550  4.612800E-02 -6.565450E-03  1.434260E-01 -3.886900E-02  1.000000E+00  0.000000E+00  1.000000E+00  0.000000E+00
  0.000444025  4.651930E-02 -6.820330E-03  1.433190E-01 -3.944410E-02  1.000000E+00  0.000000E+00  1.000000E+00  0.000000E+00
  0.000446500  4.637830E-02 -7.366250E-03  1.432980E-01 -3.912520E-02  1.000000E+00  0.000000E+00  1.000000E+00  0.000000E+00
  0.000448975  4.601370E-02 -6.039840E-03  1.417960E-01 -4.013390E-02  1.000000E+00  0.000000E+00  1.000000E+00  0.000000E+00
  0.000451450  4.639580E-02 -7.378520E-03  1.411120E-01 -3.962790E-02  1.000000E+00  0.000000E+00  1.000000E+00  0.000000E+00
  0.000453925  4.619330E-02 -6.669000E-03  1.408690E-01 -4.070870E-02  1.000000E+00  0.000000E+00  1.000000E+00  0.000000E+00
