! Anritsu VNA Master:                        Model: MS2026C/19
! SN:                                  1815009
! /card0/usr/20180902_50.s2p
! Existing Calibration Information:
! TYPE:                         Current Settings,       Active Cal Settings
! TIME:             	   09/03/2018 01:39:11 AM,    09/02/2018 11:58:48 AM
! INTERNAL TEMP:    	                   47.8 C,                    48.8 C
! # POINTS:         	                     4001,                      4001
! START FREQ:       	              100.000 kHz,               100.000 kHz
! STOP FREQ:        	               10.000 MHz,                10.000 MHz
! SOURCE POWER:     	                      Low,                       Low
! IFBW:             	                   500 Hz,                    500 Hz
! AVG FACTOR:       	                       5 ,                        1 
! REF PLANE 1:      	                     0 mm,                      0 mm
! REF PLANE 2:      	                     0 mm,                      0 mm
! CAL TYPE:         	             1P2P S11,S21,              1P2P S11,S21
! CAL METHOD:       	                     SOLT,                      SOLT
! CAL LINE TYPE:    	                     Coax,                      Coax
! DUT PORT 1:       	                N-Conn(M),                 N-Conn(M)
! DUT PORT 2:       	                N-Conn(M),                 N-Conn(M)
! CAL STATUS:       	        OK: Accuracy High,                        --
# GHZ S RI R 50.0
! FREQ.GHZ      S11RE         S11IM         S21RE         S21IM         S12RE         S12IM         S22RE         S22IM
  0.000100000  6.601400E-03 -6.174290E-02  2.641510E-02  6.152230E-02  1.000000E+00  0.000000E+00  1.000000E+00  0.000000E+00
  0.000102475  8.466700E-03 -5.880070E-02  2.819320E-02  6.076050E-02  1.000000E+00  0.000000E+00  1.000000E+00  0.000000E+00
  0.000104950  8.259240E-03 -5.693000E-02  3.133260E-02  6.018820E-02  1.000000E+00  0.000000E+00  1.000000E+00  0.000000E+00
  0.000107425  1.081130E-02 -5.505070E-02  3.296940E-02  5.951470E-02  1.000000E+00  0.000000E+00  1.000000E+00  0.000000E+00
  0.000109900  1.145770E-02 -5.288260E-02  3.479060E-02  5.880140E-02  1.000000E+00  0.000000E+00  1.000000E+00  0.000000E+00
  0.000112375  1.209930E-02 -5.116940E-02  3.693180E-02  5.795060E-02  1.000000E+00  0.000000E+00  1.000000E+00  0.000000E+00
  0.000114850  1.360580E-02 -4.996020E-02  3.788820E-02  5.626000E-02  1.000000E+00  0.000000E+00  1.000000E+00  0.000000E+00
  0.000117325  1.516560E-02 -4.827930E-02  3.986250E-02  5.561430E-02  1.000000E+00  0.000000E+00  1.000000E+00  0.000000E+00
  0.000119800  1.604450E-02 -4.671930E-02  4.180510E-02  5.438550E-02  1.000000E+00  0.000000E+00  1.000000E+00  0.000000E+00
  0.000122275  1.563520E-02 -4.419250E-02  4.257090E-02  5.325140E-02  1.000000E+00  0.000000E+00  1.000000E+00  0.000000E+00
  0.000124750  1.734570E-02 -4.409480E-02  4.426870E-02  5.235890E-02  1.000000E+00  0.000000E+00  1.000000E+00  0.000000E+00
  0.000127225  1.704570E-02 -4.242730E-02  4.604550E-02  5.132720E-02  1.000000E+00  0.000000E+00  1.000000E+00  0.000000E+00
  0.000129700  1.824720E-02 -3.983840E-02  4.726700E-02  4.936630E-02  1.000000E+00  0.000000E+00  1.000000E+00  0.000000E+00
  0.000132175  1.940570E-02 -4.017530E-02  4.840860E-02  4.841900E-02  1.000000E+00  0.000000E+00  1.000000E+00  0.000000E+00
  0.000134650  1.983560E-02 -3.942430E-02  4.901590E-02  4.812330E-02  1.000000E+00  0.000000E+00  1.000000E+00  0.000000E+00
  0.000137125  2.036340E-02 -3.840590E-02  5.003390E-02  4.608570E-02  1.000000E+00  0.000000E+00  1.000000E+00  0.000000E+00
  0.000139600  2.135130E-02 -3.780200E-02  5.099690E-02  4.549230E-02  1.000000E+00  0.000000E+00  1.000000E+00  0.000000E+00
  0.000142075  2.218270E-02 -3.618420E-02  5.214250E-02  4.509060E-02  1.000000E+00  0.000000E+00  1.000000E+00  0.000000E+00
  0.000144550  2.229920E-02 -3.589560E-02  5.254190E-02  4.378500E-02  1.000000E+00  0.000000E+00  1.000000E+00  0.000000E+00
  0.000147025  2.272350E-02 -3.425480E-02  5.328340E-02  4.262040E-02  1.000000E+00  0.000000E+00  1.000000E+00  0.000000E+00
  0.000149500  2.395210E-02 -3.374880E-02  5.378180E-02  4.213440E-02  1.000000E+00  0.000000E+00  1.000000E+00  0.000000E+00
  0.000151975  2.290020E-02 -3.359660E-02  5.472200E-02  4.102270E-02  1.000000E+00  0.000000E+00  1.000000E+00  0.000000E+00
  0.000154450  2.398740E-02 -3.057860E-02  5.492300E-02  4.018160E-02  1.000000E+00  0.000000E+00  1.000000E+00  0.000000E+00
  0.000156925  2.515970E-02 -3.102090E-02  5.540610E-02  3.854550E-02  1.000000E+00  0.000000E+00  1.000000E+00  0.000000E+00
  0.000159400  2.447590E-02 -3.014110E-02  5.541740E-02  3.790710E-02  1.000000E+00  0.000000E+00  1.000000E+00  0.000000E+00
  0.000161875  2.567340E-02 -2.999610E-02  5.621860E-02  3.713930E-02  1.000000E+00  0.000000E+00  1.000000E+00  0.000000E+00
  0.000164350  2.680760E-02 -2.943120E-02  5.724470E-02  3.618780E-02  1.000000E+00  0.000000E+00  1.000000E+00  0.000000E+00
  0.000166825  2.613990E-02 -2.875990E-02  5.708370E-02  3.593100E-02  1.000000E+00  0.000000E+00  1.000000E+00  0.000000E+00
  0.000169300  2.702350E-02 -2.808410E-02  5.819720E-02  3.459420E-02  1.000000E+00  0.000000E+00  1.000000E+00  0.000000E+00
  0.000171775  2.687900E-02 -2.672880E-02  5.867100E-02  3.397240E-02  1.000000E+00  0.000000E+00  1.000000E+00  0.000000E+00
  0.000174250  2.710040E-02 -2.582980E-02  5.937170E-02  3.329550E-02  1.000000E+00  0.000000E+00  1.000000E+00  0.000000E+00
  0.000176725  2.787720E-02 -2.608370E-02  5.938430E-02  3.303250E-02  1.000000E+00  0.000000E+00  1.000000E+00  0.000000E+00
  0.000179200  2.755220E-02 -2.585300E-02  5.982530E-02  3.215600E-02  1.000000E+00  0.000000E+00  1.000000E+00  0.000000E+00
  0.000181675  2.780110E-02 -2.535980E-02  5.997990E-02  3.054410E-02  1.000000E+00  0.000000E+00  1.000000E+00  0.000000E+00
  0.000184150  2.883120E-02 -2.368650E-02  6.066450E-02  3.050450E-02  1.000000E+00  0.000000E+00  1.000000E+00  0.000000E+00
  0.000186625  2.910140E-02 -2.359090E-02  6.127470E-02  2.957670E-02  1.000000E+00  0.000000E+00  1.000000E+00  0.000000E+00
  0.000189100  2.837400E-02 -2.351070E-02  6.145050E-02  2.918520E-02  1.000000E+00  0.000000E+00  1.000000E+00  0.000000E+00
  0.000191575  2.848160E-02 -2.410790E-02  6.121500E-02  2.828540E-02  1.000000E+00  0.000000E+00  1.000000E+00  0.000000E+00
  0.000194050  2.949940E-02 -2.298200E-02  6.197990E-02  2.755960E-02  1.000000E+00  0.000000E+00  1.000000E+00  0.000000E+00
  0.000196525  2.941370E-02 -2.246920E-02  6.249380E-02  2.703670E-02  1.000000E+00  0.000000E+00  1.000000E+00  0.000000E+00
  0.000199000  3.034400E-02 -2.132950E-02  6.210590E-02  2.631870E-02  1.000000E+00  0.000000E+00  1.000000E+00  0.000000E+00
  0.000201475  3.049140E-02 -2.118870E-02  6.256660E-02  2.617230E-02  1.000000E+00  0.000000E+00  1.000000E+00  0.000000E+00
  0.000203950  3.024860E-02 -2.074740E-02  6.281140E-02  2.461250E-02  1.000000E+00  0.000000E+00  1.000000E+00  0.000000E+00
  0.000206425  3.107780E-02 -2.035420E-02  6.316370E-02  2.459420E-02  1.000000E+00  0.000000E+00  1.000000E+00  0.000000E+00
  0.000208900  3.073650E-02 -2.013430E-02  6.302110E-02  2.362310E-02  1.000000E+00  0.000000E+00  1.000000E+00  0.000000E+00
  0.000211375  3.185150E-02 -1.981500E-02  6.327230E-02  2.275400E-02  1.000000E+00  0.000000E+00  1.000000E+00  0.000000E+00
  0.000213850  3.191940E-02 -1.921660E-02  6.380530E-02  2.202720E-02  1.000000E+00  0.000000E+00  1.000000E+00  0.000000E+00
  0.000216325  3.141900E-02 -1.932790E-02  6.443200E-02  2.205110E-02  1.000000E+00  0.000000E+00  1.000000E+00  0.000000E+00
  0.000218800  3.198760E-02 -1.887120E-02  6.362830E-02  2.108020E-02  1.000000E+00  0.000000E+00  1.000000E+00  0.000000E+00
  0.000221275  3.337530E-02 -1.784500E-02  6.426010E-02  2.061600E-02  1.000000E+00  0.000000E+00  1.000000E+00  0.000000E+00
  0.000223750  3.242750E-02 -1.848060E-02  6.399620E-02  1.983490E-02  1.000000E+00  0.000000E+00  1.000000E+00  0.000000E+00
  0.000226225  3.377180E-02 -1.666280E-02  6.457710E-02  1.934370E-02  1.000000E+00  0.000000E+00  1.000000E+00  0.000000E+00
  0.000228700  3.266250E-02 -1.790610E-02  6.491260E-02  1.869230E-02  1.000000E+00  0.000000E+00  1.000000E+00  0.000000E+00
  0.000231175  3.277980E-02 -1.755490E-02  6.503520E-02  1.822810E-02  1.000000E+00  0.000000E+00  1.000000E+00  0.000000E+00
  0.000233650  3.251310E-02 -1.659690E-02  6.578950E-02  1.778790E-02  1.000000E+00  0.000000E+00  1.000000E+00  0.000000E+00
  0.000236125  3.327350E-02 -1.630470E-02  6.530850E-02  1.749270E-02  1.000000E+00  0.000000E+00  1.000000E+00  0.000000E+00
  0.000238600  3.424170E-02 -1.600290E-02  6.530500E-02  1.644050E-02  1.000000E+00  0.000000E+00  1.000000E+00  0.000000E+00
  0.000241075  3.384500E-02 -1.601460E-02  6.513060E-02  1.653380E-02  1.000000E+00  0.000000E+00  1.000000E+00  0.000000E+00
  0.000243550  3.393260E-02 -1.566770E-02  6.554890E-02  1.530840E-02  1.000000E+00  0.000000E+00  1.000000E+00  0.000000E+00
  0.000246025  3.451520E-02 -1.553910E-02  6.591240E-02  1.520940E-02  1.000000E+00  0.000000E+00  1.000000E+00  0.000000E+00
  0.000248500  3.470840E-02 -1.535280E-02  6.592210E-02  1.523080E-02  1.000000E+00  0.000000E+00  1.000000E+00  0.000000E+00
  0.000250975  3.493530E-02 -1.598090E-02  6.567160E-02  1.370220E-02  1.000000E+00  0.000000E+00  1.000000E+00  0.000000E+00
  0.000253450  3.488150E-02 -1.414550E-02  6.653850E-02  1.338730E-02  1.000000E+00  0.000000E+00  1.000000E+00  0.000000E+00
  0.000255925  3.410230E-02 -1.357710E-02  6.566230E-02  1.314930E-02  1.000000E+00  0.000000E+00  1.000000E+00  0.000000E+00
  0.000258400  3.494630E-02 -1.431970E-02  6.549370E-02  1.239230E-02  1.000000E+00  0.000000E+00  1.000000E+00  0.000000E+00
  0.000260875  3.544450E-02 -1.328240E-02  6.650200E-02  1.219850E-02  1.000000E+00  0.000000E+00  1.000000E+00  0.000000E+00
  0.000263350  3.430820E-02 -1.243160E-02  6.566610E-02  1.209020E-02  1.000000E+00  0.000000E+00  1.000000E+00  0.000000E+00
  0.000265825  3.440440E-02 -1.307480E-02  6.610540E-02  1.070160E-02  1.000000E+00  0.000000E+00  1.000000E+00  0.000000E+00
  0.000268300  3.588660E-02 -1.341590E-02  6.647300E-02  1.062330E-02  1.000000E+00  0.000000E+00  1.000000E+00  0.000000E+00
  0.000270775  3.560360E-02 -1.266990E-02  6.622710E-02  1.037290E-02  1.000000E+00  0.000000E+00  1.000000E+00  0.000000E+00
  0.000273250  3.609190E-02 -1.200700E-02  6.663630E-02  9.426290E-03  1.000000E+00  0.000000E+00  1.000000E+00  0.000000E+00
  0.000275725  3.659100E-02 -1.203740E-02  6.625430E-02  9.141450E-03  1.000000E+00  0.000000E+00  1.000000E+00  0.000000E+00
  0.000278200  3.596290E-02 -1.217720E-02  6.676960E-02  8.870450E-03  1.000000E+00  0.000000E+00  1.000000E+00  0.000000E+00
  0.000280675  3.655560E-02 -1.198910E-02  6.629020E-02  8.410200E-03  1.000000E+00  0.000000E+00  1.000000E+00  0.000000E+00
  0.000283150  3.710690E-02 -1.182650E-02  6.582460E-02  7.927260E-03  1.000000E+00  0.000000E+00  1.000000E+00  0.000000E+00
  0.000285625  3.631240E-02 -1.187860E-02  6.645380E-02  7.727810E-03  1.000000E+00  0.000000E+00  1.000000E+00  0.000000E+00
  0.000288100  3.684930E-02 -1.169470E-02  6.610200E-02  6.425200E-03  1.000000E+00  0.000000E+00  1.000000E+00  0.000000E+00
  0.000290575  3.621860E-02 -1.009560E-02  6.653890E-02  6.462780E-03  1.000000E+00  0.000000E+00  1.000000E+00  0.000000E+00
  0.000293050  3.713820E-02 -1.089980E-02  6.583310E-02  6.219120E-03  1.000000E+00  0.000000E+00  1.000000E+00  0.000000E+00
  0.000295525  3.677380E-02 -9.918170E-03  6.657020E-02  5.374450E-03  1.000000E+00  0.000000E+00  1.000000E+00  0.000000E+00
  0.000298000  3.651700E-02 -1.112310E-02  6.640460E-02  4.738990E-03  1.000000E+00  0.000000E+00  1.000000E+00  0.000000E+00
  0.000300475  3.722960E-02 -1.078320E-02  6.652730E-02  4.165300E-03  1.000000E+00  0.000000E+00  1.000000E+00  0.000000E+00
  0.000302950  3.708240E-02 -9.686790E-03  6.631720E-02  3.985720E-03  1.000000E+00  0.000000E+00  1.000000E+00  0.000000E+00
  0.000305425  3.743610E-02 -9.331080E-03  6.625010E-02  4.220510E-03  1.000000E+00  0.000000E+00  1.000000E+00  0.000000E+00
  0.000307900  3.789370E-02 -1.072750E-02  6.614730E-02  3.326680E-03  1.000000E+00  0.000000E+00  1.000000E+00  0.000000E+00
  0.000310375  3.960000E-02 -1.046530E-02  6.605710E-02  3.315730E-03  1.000000E+00  0.000000E+00  1.000000E+00  0.000000E+00
  0.000312850  3.806740E-02 -9.537940E-03  6.632420E-02  2.547180E-03  1.000000E+00  0.000000E+00  1.000000E+00  0.000000E+00
  0.000315325  3.789780E-02 -1.006080E-02  6.610230E-02  2.261930E-03  1.000000E+00  0.000000E+00  1.000000E+00  0.000000E+00
  0.000317800  3.786090E-02 -8.477640E-03  6.679310E-02  1.475500E-03  1.000000E+00  0.000000E+00  1.000000E+00  0.000000E+00
  0.000320275  3.801150E-02 -8.205980E-03  6.551810E-02  1.279320E-03  1.000000E+00  0.000000E+00  1.000000E+00  0.000000E+00
  0.000322750  3.822650E-02 -8.816940E-03  6.555190E-02  1.147700E-03  1.000000E+00  0.000000E+00  1.000000E+00  0.000000E+00
  0.000325225  3.870210E-02 -9.054850E-03  6.564230E-02  8.425890E-04  1.000000E+00  0.000000E+00  1.000000E+00  0.000000E+00
  0.000327700  3.856630E-02 -8.921310E-03  6.626190E-02 -1.245590E-04  1.000000E+00  0.000000E+00  1.000000E+00  0.000000E+00
  0.000330175  3.904310E-02 -8.581360E-03  6.504670E-02  3.582460E-05  1.000000E+00  0.000000E+00  1.000000E+00  0.000000E+00
  0.000332650  3.791660E-02 -8.608340E-03  6.557250E-02 -1.209520E-04  1.000000E+00  0.000000E+00  1.000000E+00  0.000000E+00
  0.000335125  3.959210E-02 -8.534430E-03  6.584120E-02 -5.974270E-04  1.000000E+00  0.000000E+00  1.000000E+00  0.000000E+00
  0.000337600  3.985170E-02 -8.420050E-03  6.490300E-02 -8.354150E-04  1.000000E+00  0.000000E+00  1.000000E+00  0.000000E+00
  0.000340075  3.959980E-02 -8.951670E-03  6.517580E-02 -9.758810E-04  1.000000E+00  0.000000E+00  1.000000E+00  0.000000E+00
  0.000342550  3.882520E-02 -7.633000E-03  6.459400E-02 -2.320350E-03  1.000000E+00  0.000000E+00  1.000000E+00  0.000000E+00
  0.000345025  3.975780E-02 -8.654550E-03  6.474840E-02 -2.523110E-03  1.000000E+00  0.000000E+00  1.000000E+00  0.000000E+00
  0.000347500  4.012850E-02 -8.526170E-03  6.548120E-02 -2.470040E-03  1.000000E+00  0.000000E+00  1.000000E+00  0.000000E+00
  0.000349975  3.953450E-02 -7.555050E-03  6.491320E-02 -2.965340E-03  1.000000E+00  0.000000E+00  1.000000E+00  0.000000E+00
  0.000352450  4.042540E-02 -7.591990E-03  6.451060E-02 -2.257620E-03  1.000000E+00  0.000000E+00  1.000000E+00  0.000000E+00
  0.000354925  4.084610E-02 -7.264200E-03  6.464300E-02 -3.545590E-03  1.000000E+00  0.000000E+00  1.000000E+00  0.000000E+00
  0.000357400  3.958660E-02 -8.000960E-03  6.490670E-02 -3.958990E-03  1.000000E+00  0.000000E+00  1.000000E+00  0.000000E+00
  0.000359875  4.055510E-02 -7.713890E-03  6.410860E-02 -3.484220E-03  1.000000E+00  0.000000E+00  1.000000E+00  0.000000E+00
  0.000362350  4.029990E-02 -7.930680E-03  6.431480E-02 -4.136610E-03  1.000000E+00  0.000000E+00  1.000000E+00  0.000000E+00
  0.000364825  4.095320E-02 -6.783610E-03  6.419270E-02 -4.108670E-03  1.000000E+00  0.000000E+00  1.000000E+00  0.000000E+00
  0.000367300  4.154520E-02 -8.457990E-03  6.427550E-02 -5.501690E-03  1.000000E+00  0.000000E+00  1.000000E+00  0.000000E+00
  0.000369775  4.061410E-02 -6.256800E-03  6.411690E-02 -5.010850E-03  1.000000E+00  0.000000E+00  1.000000E+00  0.000000E+00
  0.000372250  4.094060E-02 -7.718170E-03  6.422100E-02 -4.499990E-03  1.000000E+00  0.000000E+00  1.000000E+00  0.000000E+00
  0.000374725  4.074790E-02 -7.276540E-03  6.421530E-02 -5.924510E-03  1.000000E+00  0.000000E+00  1.000000E+00  0.000000E+00
  0.000377200  4.100900E-02 -7.721340E-03  6.380560E-02 -5.932070E-03  1.000000E+00  0.000000E+00  1.000000E+00  0.000000E+00
  0.000379675  4.080860E-02 -8.136540E-03  6.366710E-02 -5.835110E-03  1.000000E+00  0.000000E+00  1.000000E+00  0.000000E+00
  0.000382150  4.032450E-02 -7.852140E-03  6.363670E-02 -5.364470E-03  1.000000E+00  0.000000E+00  1.000000E+00  0.000000E+00
  0.000384625  4.170030E-02 -7.448610E-03  6.369100E-02 -5.923490E-03  1.000000E+00  0.000000E+00  1.000000E+00  0.000000E+00
  0.000387100  4.081070E-02 -7.902560E-03  6.353450E-02 -6.912870E-03  1.000000E+00  0.000000E+00  1.000000E+00  0.000000E+00
  0.000389575  4.124520E-02 -6.836680E-03  6.299420E-02 -6.542890E-03  1.000000E+00  0.000000E+00  1.000000E+00  0.000000E+00
  0.000392050  4.141910E-02 -6.807970E-03  6.396230E-02 -7.411780E-03  1.000000E+00  0.000000E+00  1.000000E+00  0.000000E+00
  0.000394525  4.160930E-02 -6.639920E-03  6.343910E-02 -6.773130E-03  1.000000E+00  0.000000E+00  1.000000E+00  0.000000E+00
  0.000397000  4.025930E-02 -6.274320E-03  6.275800E-02 -6.923980E-03  1.000000E+00  0.000000E+00  1.000000E+00  0.000000E+00
  0.000399475  4.251450E-02 -7.289860E-03  6.331680E-02 -7.727470E-03  1.000000E+00  0.000000E+00  1.000000E+00  0.000000E+00
  0.000401950  4.115750E-02 -7.847410E-03  6.377140E-02 -7.429440E-03  1.000000E+00  0.000000E+00  1.000000E+00  0.000000E+00
  0.000404425  4.206860E-02 -6.584110E-03  6.370550E-02 -8.738230E-03  1.000000E+00  0.000000E+00  1.000000E+00  0.000000E+00
  0.000406900  4.190040E-02 -7.880660E-03  6.340090E-02 -8.482700E-03  1.000000E+00  0.000000E+00  1.000000E+00  0.000000E+00
  0.000409375  4.147260E-02 -7.520850E-03  6.312840E-02 -8.725620E-03  1.000000E+00  0.000000E+00  1.000000E+00  0.000000E+00
  0.000411850  4.185060E-02 -8.426520E-03  6.356640E-02 -9.187030E-03  1.000000E+00  0.000000E+00  1.000000E+00  0.000000E+00
  0.000414325  4.187780E-02 -6.537800E-03  6.300870E-02 -8.797220E-03  1.000000E+00  0.000000E+00  1.000000E+00  0.000000E+00
  0.000416800  4.184880E-02 -7.404020E-03  6.342070E-02 -9.095040E-03  1.000000E+00  0.000000E+00  1.000000E+00  0.000000E+00
  0.000419275  4.189410E-02 -7.361080E-03  6.284020E-02 -9.397150E-03  1.000000E+00  0.000000E+00  1.000000E+00  0.000000E+00
  0.000421750  4.232690E-02 -6.647360E-03  6.307000E-02 -9.624030E-03  1.000000E+00  0.000000E+00  1.000000E+00  0.000000E+00
  0.000424225  4.243630E-02 -5.890760E-03  6.306780E-02 -1.078150E-02  1.000000E+00  0.000000E+00  1.000000E+00  0.000000E+00
  0.000426700  4.148210E-02 -7.034650E-03  6.278310E-02 -1.027630E-02  1.000000E+00  0.000000E+00  1.000000E+00  0.000000E+00
  0.000429175  4.164100E-02 -6.956830E-03  6.260640E-02 -1.008510E-02  1.000000E+00  0.000000E+00  1.000000E+00  0.000000E+00
  0.000431650  4.166840E-02 -7.177330E-03  6.259690E-02 -1.047930E-02  1.000000E+00  0.000000E+00  1.000000E+00  0.000000E+00
  0.000434125  4.282040E-02 -6.995170E-03  6.261160E-02 -1.070570E-02  1.000000E+00  0.000000E+00  1.000000E+00  0.000000E+00
  0.000436600  4.145730E-02 -6.381070E-03  6.221070E-02 -1.060560E-02  1.000000E+00  0.000000E+00  1.000000E+00  0.000000E+00
  0.000439075  4.197290E-02 -6.613350E-03  6.280850E-02 -1.133710E-02  1.000000E+00  0.000000E+00  1.000000E+00  0.000000E+00
  0.000441550  4.248420E-02 -6.109510E-03  6.241850E-02 -1.126840E-02  1.000000E+00  0.000000E+00  1.000000E+00  0.000000E+00
  0.000444025  4.177550E-02 -6.208860E-03  6.292890E-02 -1.124460E-02  1.000000E+00  0.000000E+00  1.000000E+00  0.000000E+00
  0.000446500  4.194380E-02 -6.631410E-03  6.280820E-02 -1.181680E-02  1.000000E+00  0.000000E+00  1.000000E+00  0.000000E+00
  0.000448975  4.147860E-02 -5.283280E-03  6.252790E-02 -1.184280E-02  1.000000E+00  0.000000E+00  1.000000E+00  0.000000E+00
  0.000451450  4.204230E-02 -6.398010E-03  6.267330E-02 -1.146520E-02  1.000000E+00  0.000000E+00  1.000000E+00  0.000000E+00
  0.000453925  4.168610E-02 -5.924520E-03  6.225430E-02 -1.158790E-02  1.000000E+00  0.000000E+00  1.000000E+00  0.000000E+00
