! Anritsu VNA Master:                        Model: MS2026C/19
! SN:                                  1815009
! /card0/usr/20180902_40.s2p
! Existing Calibration Information:
! TYPE:                         Current Settings,       Active Cal Settings
! TIME:             	   09/02/2018 11:59:18 PM,    09/02/2018 11:58:48 AM
! INTERNAL TEMP:    	                   45.8 C,                    48.8 C
! # POINTS:         	                     4001,                      4001
! START FREQ:       	              100.000 kHz,               100.000 kHz
! STOP FREQ:        	               10.000 MHz,                10.000 MHz
! SOURCE POWER:     	                      Low,                       Low
! IFBW:             	                   500 Hz,                    500 Hz
! AVG FACTOR:       	                       5 ,                        1 
! REF PLANE 1:      	                     0 mm,                      0 mm
! REF PLANE 2:      	                     0 mm,                      0 mm
! CAL TYPE:         	             1P2P S11,S21,              1P2P S11,S21
! CAL METHOD:       	                     SOLT,                      SOLT
! CAL LINE TYPE:    	                     Coax,                      Coax
! DUT PORT 1:       	                N-Conn(M),                 N-Conn(M)
! DUT PORT 2:       	                N-Conn(M),                 N-Conn(M)
! CAL STATUS:       	        OK: Accuracy High,                        --
# GHZ S RI R 50.0
! FREQ.GHZ      S11RE         S11IM         S21RE         S21IM         S12RE         S12IM         S22RE         S22IM
  0.000100000  7.081090E-03 -6.083980E-02 -1.384100E-02 -1.098810E-02  1.000000E+00  0.000000E+00  1.000000E+00  0.000000E+00
  0.000102475  8.694730E-03 -5.828790E-02 -1.366460E-02 -1.060540E-02  1.000000E+00  0.000000E+00  1.000000E+00  0.000000E+00
  0.000104950  8.263740E-03 -5.601870E-02 -1.371130E-02 -1.047720E-02  1.000000E+00  0.000000E+00  1.000000E+00  0.000000E+00
  0.000107425  1.087920E-02 -5.464940E-02 -1.460870E-02 -9.918000E-03  1.000000E+00  0.000000E+00  1.000000E+00  0.000000E+00
  0.000109900  1.205560E-02 -5.237160E-02 -1.437930E-02 -9.753080E-03  1.000000E+00  0.000000E+00  1.000000E+00  0.000000E+00
  0.000112375  1.293660E-02 -5.085570E-02 -1.461250E-02 -9.125530E-03  1.000000E+00  0.000000E+00  1.000000E+00  0.000000E+00
  0.000114850  1.345080E-02 -4.970320E-02 -1.525540E-02 -9.361180E-03  1.000000E+00  0.000000E+00  1.000000E+00  0.000000E+00
  0.000117325  1.551460E-02 -4.816080E-02 -1.485330E-02 -8.246510E-03  1.000000E+00  0.000000E+00  1.000000E+00  0.000000E+00
  0.000119800  1.610580E-02 -4.619600E-02 -1.504580E-02 -8.172520E-03  1.000000E+00  0.000000E+00  1.000000E+00  0.000000E+00
  0.000122275  1.627110E-02 -4.378090E-02 -1.553110E-02 -7.877880E-03  1.000000E+00  0.000000E+00  1.000000E+00  0.000000E+00
  0.000124750  1.726260E-02 -4.385160E-02 -1.585260E-02 -7.700940E-03  1.000000E+00  0.000000E+00  1.000000E+00  0.000000E+00
  0.000127225  1.678430E-02 -4.278210E-02 -1.595120E-02 -7.550260E-03  1.000000E+00  0.000000E+00  1.000000E+00  0.000000E+00
  0.000129700  1.816010E-02 -4.005760E-02 -1.553350E-02 -6.973800E-03  1.000000E+00  0.000000E+00  1.000000E+00  0.000000E+00
  0.000132175  1.957570E-02 -4.027450E-02 -1.577080E-02 -6.718660E-03  1.000000E+00  0.000000E+00  1.000000E+00  0.000000E+00
  0.000134650  1.927490E-02 -3.956410E-02 -1.617370E-02 -6.903940E-03  1.000000E+00  0.000000E+00  1.000000E+00  0.000000E+00
  0.000137125  2.041120E-02 -3.818340E-02 -1.623020E-02 -6.558300E-03  1.000000E+00  0.000000E+00  1.000000E+00  0.000000E+00
  0.000139600  2.111140E-02 -3.751760E-02 -1.622940E-02 -6.439840E-03  1.000000E+00  0.000000E+00  1.000000E+00  0.000000E+00
  0.000142075  2.159050E-02 -3.611630E-02 -1.608830E-02 -6.050800E-03  1.000000E+00  0.000000E+00  1.000000E+00  0.000000E+00
  0.000144550  2.206410E-02 -3.500590E-02 -1.665980E-02 -6.281910E-03  1.000000E+00  0.000000E+00  1.000000E+00  0.000000E+00
  0.000147025  2.256360E-02 -3.366980E-02 -1.667440E-02 -5.982010E-03  1.000000E+00  0.000000E+00  1.000000E+00  0.000000E+00
  0.000149500  2.343580E-02 -3.366360E-02 -1.665060E-02 -5.793340E-03  1.000000E+00  0.000000E+00  1.000000E+00  0.000000E+00
  0.000151975  2.298800E-02 -3.322550E-02 -1.668830E-02 -5.266800E-03  1.000000E+00  0.000000E+00  1.000000E+00  0.000000E+00
  0.000154450  2.348240E-02 -3.087030E-02 -1.645280E-02 -5.070950E-03  1.000000E+00  0.000000E+00  1.000000E+00  0.000000E+00
  0.000156925  2.424510E-02 -3.069530E-02 -1.675170E-02 -5.256670E-03  1.000000E+00  0.000000E+00  1.000000E+00  0.000000E+00
  0.000159400  2.344700E-02 -3.018660E-02 -1.694890E-02 -4.953060E-03  1.000000E+00  0.000000E+00  1.000000E+00  0.000000E+00
  0.000161875  2.487160E-02 -3.021240E-02 -1.692500E-02 -4.250540E-03  1.000000E+00  0.000000E+00  1.000000E+00  0.000000E+00
  0.000164350  2.577820E-02 -2.967000E-02 -1.679140E-02 -4.086790E-03  1.000000E+00  0.000000E+00  1.000000E+00  0.000000E+00
  0.000166825  2.546020E-02 -2.914970E-02 -1.686770E-02 -4.066070E-03  1.000000E+00  0.000000E+00  1.000000E+00  0.000000E+00
  0.000169300  2.631840E-02 -2.851540E-02 -1.718250E-02 -3.443480E-03  1.000000E+00  0.000000E+00  1.000000E+00  0.000000E+00
  0.000171775  2.644970E-02 -2.695070E-02 -1.745470E-02 -4.121120E-03  1.000000E+00  0.000000E+00  1.000000E+00  0.000000E+00
  0.000174250  2.647000E-02 -2.577580E-02 -1.732810E-02 -3.721220E-03  1.000000E+00  0.000000E+00  1.000000E+00  0.000000E+00
  0.000176725  2.689560E-02 -2.584480E-02 -1.719200E-02 -3.247230E-03  1.000000E+00  0.000000E+00  1.000000E+00  0.000000E+00
  0.000179200  2.713860E-02 -2.497650E-02 -1.713250E-02 -3.404450E-03  1.000000E+00  0.000000E+00  1.000000E+00  0.000000E+00
  0.000181675  2.703450E-02 -2.506410E-02 -1.737460E-02 -2.757490E-03  1.000000E+00  0.000000E+00  1.000000E+00  0.000000E+00
  0.000184150  2.803510E-02 -2.383900E-02 -1.719140E-02 -2.869580E-03  1.000000E+00  0.000000E+00  1.000000E+00  0.000000E+00
  0.000186625  2.771740E-02 -2.309560E-02 -1.734100E-02 -2.429440E-03  1.000000E+00  0.000000E+00  1.000000E+00  0.000000E+00
  0.000189100  2.811770E-02 -2.309390E-02 -1.720780E-02 -2.626800E-03  1.000000E+00  0.000000E+00  1.000000E+00  0.000000E+00
  0.000191575  2.783480E-02 -2.327400E-02 -1.741260E-02 -2.236250E-03  1.000000E+00  0.000000E+00  1.000000E+00  0.000000E+00
  0.000194050  2.817750E-02 -2.214530E-02 -1.722320E-02 -1.768230E-03  1.000000E+00  0.000000E+00  1.000000E+00  0.000000E+00
  0.000196525  2.919220E-02 -2.170290E-02 -1.791510E-02 -1.798820E-03  1.000000E+00  0.000000E+00  1.000000E+00  0.000000E+00
  0.000199000  2.980390E-02 -2.109700E-02 -1.745840E-02 -1.645910E-03  1.000000E+00  0.000000E+00  1.000000E+00  0.000000E+00
  0.000201475  2.982740E-02 -2.052660E-02 -1.741580E-02 -1.282890E-03  1.000000E+00  0.000000E+00  1.000000E+00  0.000000E+00
  0.000203950  2.914850E-02 -1.974970E-02 -1.731390E-02 -1.318220E-03  1.000000E+00  0.000000E+00  1.000000E+00  0.000000E+00
  0.000206425  2.999880E-02 -2.029190E-02 -1.777160E-02 -8.592540E-04  1.000000E+00  0.000000E+00  1.000000E+00  0.000000E+00
  0.000208900  3.001460E-02 -1.971440E-02 -1.712850E-02 -1.272150E-03  1.000000E+00  0.000000E+00  1.000000E+00  0.000000E+00
  0.000211375  3.141710E-02 -1.978970E-02 -1.725090E-02 -1.128980E-03  1.000000E+00  0.000000E+00  1.000000E+00  0.000000E+00
  0.000213850  3.096620E-02 -1.786000E-02 -1.739630E-02 -9.860280E-04  1.000000E+00  0.000000E+00  1.000000E+00  0.000000E+00
  0.000216325  3.099880E-02 -1.879100E-02 -1.736080E-02 -7.756950E-04  1.000000E+00  0.000000E+00  1.000000E+00  0.000000E+00
  0.000218800  3.130050E-02 -1.871890E-02 -1.737260E-02 -6.792160E-04  1.000000E+00  0.000000E+00  1.000000E+00  0.000000E+00
  0.000221275  3.212240E-02 -1.747240E-02 -1.735930E-02 -4.410100E-04  1.000000E+00  0.000000E+00  1.000000E+00  0.000000E+00
  0.000223750  3.180080E-02 -1.784730E-02 -1.727180E-02 -9.077810E-04  1.000000E+00  0.000000E+00  1.000000E+00  0.000000E+00
  0.000226225  3.288950E-02 -1.709690E-02 -1.730660E-02 -1.178210E-04  1.000000E+00  0.000000E+00  1.000000E+00  0.000000E+00
  0.000228700  3.172060E-02 -1.731980E-02 -1.743230E-02  7.415940E-05  1.000000E+00  0.000000E+00  1.000000E+00  0.000000E+00
  0.000231175  3.179210E-02 -1.714000E-02 -1.757160E-02  3.478820E-04  1.000000E+00  0.000000E+00  1.000000E+00  0.000000E+00
  0.000233650  3.199970E-02 -1.682660E-02 -1.714690E-02  5.230350E-05  1.000000E+00  0.000000E+00  1.000000E+00  0.000000E+00
  0.000236125  3.255890E-02 -1.534190E-02 -1.753620E-02  3.808230E-04  1.000000E+00  0.000000E+00  1.000000E+00  0.000000E+00
  0.000238600  3.336170E-02 -1.558100E-02 -1.701740E-02  3.125020E-04  1.000000E+00  0.000000E+00  1.000000E+00  0.000000E+00
  0.000241075  3.291520E-02 -1.543340E-02 -1.767390E-02  7.320070E-04  1.000000E+00  0.000000E+00  1.000000E+00  0.000000E+00
  0.000243550  3.307390E-02 -1.505050E-02 -1.754930E-02  6.469250E-04  1.000000E+00  0.000000E+00  1.000000E+00  0.000000E+00
  0.000246025  3.374470E-02 -1.511650E-02 -1.729320E-02  6.054640E-04  1.000000E+00  0.000000E+00  1.000000E+00  0.000000E+00
  0.000248500  3.383680E-02 -1.499230E-02 -1.771110E-02  1.412890E-03  1.000000E+00  0.000000E+00  1.000000E+00  0.000000E+00
  0.000250975  3.391190E-02 -1.507200E-02 -1.733230E-02  8.552680E-04  1.000000E+00  0.000000E+00  1.000000E+00  0.000000E+00
  0.000253450  3.423640E-02 -1.321250E-02 -1.719920E-02  1.306980E-03  1.000000E+00  0.000000E+00  1.000000E+00  0.000000E+00
  0.000255925  3.344840E-02 -1.300960E-02 -1.713900E-02  1.424340E-03  1.000000E+00  0.000000E+00  1.000000E+00  0.000000E+00
  0.000258400  3.501830E-02 -1.354230E-02 -1.712010E-02  1.399150E-03  1.000000E+00  0.000000E+00  1.000000E+00  0.000000E+00
  0.000260875  3.467690E-02 -1.307230E-02 -1.713660E-02  1.504760E-03  1.000000E+00  0.000000E+00  1.000000E+00  0.000000E+00
  0.000263350  3.460260E-02 -1.225350E-02 -1.706680E-02  1.919780E-03  1.000000E+00  0.000000E+00  1.000000E+00  0.000000E+00
  0.000265825  3.381730E-02 -1.329660E-02 -1.697480E-02  1.638350E-03  1.000000E+00  0.000000E+00  1.000000E+00  0.000000E+00
  0.000268300  3.550470E-02 -1.318380E-02 -1.714970E-02  2.043770E-03  1.000000E+00  0.000000E+00  1.000000E+00  0.000000E+00
  0.000270775  3.533400E-02 -1.228870E-02 -1.676190E-02  2.192060E-03  1.000000E+00  0.000000E+00  1.000000E+00  0.000000E+00
  0.000273250  3.544530E-02 -1.209420E-02 -1.709980E-02  2.727910E-03  1.000000E+00  0.000000E+00  1.000000E+00  0.000000E+00
  0.000275725  3.616020E-02 -1.236240E-02 -1.684860E-02  2.032640E-03  1.000000E+00  0.000000E+00  1.000000E+00  0.000000E+00
  0.000278200  3.620860E-02 -1.158770E-02 -1.696780E-02  2.490260E-03  1.000000E+00  0.000000E+00  1.000000E+00  0.000000E+00
  0.000280675  3.568660E-02 -1.206430E-02 -1.720330E-02  2.236230E-03  1.000000E+00  0.000000E+00  1.000000E+00  0.000000E+00
  0.000283150  3.582660E-02 -1.193100E-02 -1.655230E-02  2.702890E-03  1.000000E+00  0.000000E+00  1.000000E+00  0.000000E+00
  0.000285625  3.627360E-02 -1.179820E-02 -1.687700E-02  2.568910E-03  1.000000E+00  0.000000E+00  1.000000E+00  0.000000E+00
  0.000288100  3.589800E-02 -1.109760E-02 -1.665400E-02  2.872930E-03  1.000000E+00  0.000000E+00  1.000000E+00  0.000000E+00
  0.000290575  3.543100E-02 -1.002820E-02 -1.694730E-02  2.898030E-03  1.000000E+00  0.000000E+00  1.000000E+00  0.000000E+00
  0.000293050  3.698870E-02 -1.057850E-02 -1.619190E-02  2.624390E-03  1.000000E+00  0.000000E+00  1.000000E+00  0.000000E+00
  0.000295525  3.685450E-02 -9.717710E-03 -1.698590E-02  3.331480E-03  1.000000E+00  0.000000E+00  1.000000E+00  0.000000E+00
  0.000298000  3.604520E-02 -1.115370E-02 -1.680020E-02  3.495300E-03  1.000000E+00  0.000000E+00  1.000000E+00  0.000000E+00
  0.000300475  3.684460E-02 -1.040950E-02 -1.683850E-02  3.027260E-03  1.000000E+00  0.000000E+00  1.000000E+00  0.000000E+00
  0.000302950  3.705420E-02 -9.900450E-03 -1.667030E-02  2.968050E-03  1.000000E+00  0.000000E+00  1.000000E+00  0.000000E+00
  0.000305425  3.659950E-02 -9.042570E-03 -1.659400E-02  3.535490E-03  1.000000E+00  0.000000E+00  1.000000E+00  0.000000E+00
  0.000307900  3.734840E-02 -9.835240E-03 -1.636570E-02  3.795910E-03  1.000000E+00  0.000000E+00  1.000000E+00  0.000000E+00
  0.000310375  3.841600E-02 -1.052090E-02 -1.663660E-02  3.916940E-03  1.000000E+00  0.000000E+00  1.000000E+00  0.000000E+00
  0.000312850  3.778070E-02 -9.300400E-03 -1.643380E-02  4.165650E-03  1.000000E+00  0.000000E+00  1.000000E+00  0.000000E+00
  0.000315325  3.744000E-02 -1.050610E-02 -1.666740E-02  3.634620E-03  1.000000E+00  0.000000E+00  1.000000E+00  0.000000E+00
  0.000317800  3.807450E-02 -8.266630E-03 -1.613140E-02  3.817800E-03  1.000000E+00  0.000000E+00  1.000000E+00  0.000000E+00
  0.000320275  3.707050E-02 -8.623120E-03 -1.654860E-02  3.806640E-03  1.000000E+00  0.000000E+00  1.000000E+00  0.000000E+00
  0.000322750  3.770590E-02 -8.888370E-03 -1.629390E-02  4.165590E-03  1.000000E+00  0.000000E+00  1.000000E+00  0.000000E+00
  0.000325225  3.807740E-02 -9.460670E-03 -1.656680E-02  3.967770E-03  1.000000E+00  0.000000E+00  1.000000E+00  0.000000E+00
  0.000327700  3.830430E-02 -8.628270E-03 -1.601690E-02  4.025170E-03  1.000000E+00  0.000000E+00  1.000000E+00  0.000000E+00
  0.000330175  3.792870E-02 -8.907400E-03 -1.618660E-02  4.503810E-03  1.000000E+00  0.000000E+00  1.000000E+00  0.000000E+00
  0.000332650  3.735350E-02 -8.486250E-03 -1.605170E-02  4.657830E-03  1.000000E+00  0.000000E+00  1.000000E+00  0.000000E+00
  0.000335125  3.836280E-02 -8.619360E-03 -1.590660E-02  4.689910E-03  1.000000E+00  0.000000E+00  1.000000E+00  0.000000E+00
  0.000337600  3.840730E-02 -8.002500E-03 -1.580740E-02  4.972530E-03  1.000000E+00  0.000000E+00  1.000000E+00  0.000000E+00
  0.000340075  3.930420E-02 -8.976540E-03 -1.563960E-02  4.798860E-03  1.000000E+00  0.000000E+00  1.000000E+00  0.000000E+00
  0.000342550  3.846190E-02 -7.915420E-03 -1.589780E-02  4.828080E-03  1.000000E+00  0.000000E+00  1.000000E+00  0.000000E+00
  0.000345025  3.868130E-02 -9.090480E-03 -1.579220E-02  4.550250E-03  1.000000E+00  0.000000E+00  1.000000E+00  0.000000E+00
  0.000347500  3.861520E-02 -9.161520E-03 -1.556280E-02  4.606910E-03  1.000000E+00  0.000000E+00  1.000000E+00  0.000000E+00
  0.000349975  3.942340E-02 -7.139740E-03 -1.578090E-02  5.182230E-03  1.000000E+00  0.000000E+00  1.000000E+00  0.000000E+00
  0.000352450  3.909580E-02 -8.090540E-03 -1.595370E-02  5.391730E-03  1.000000E+00  0.000000E+00  1.000000E+00  0.000000E+00
  0.000354925  3.929570E-02 -7.451350E-03 -1.584730E-02  5.954760E-03  1.000000E+00  0.000000E+00  1.000000E+00  0.000000E+00
  0.000357400  3.870110E-02 -7.804420E-03 -1.558780E-02  5.292500E-03  1.000000E+00  0.000000E+00  1.000000E+00  0.000000E+00
  0.000359875  3.920070E-02 -7.350010E-03 -1.559060E-02  5.386890E-03  1.000000E+00  0.000000E+00  1.000000E+00  0.000000E+00
  0.000362350  3.940680E-02 -8.024190E-03 -1.535190E-02  5.615280E-03  1.000000E+00  0.000000E+00  1.000000E+00  0.000000E+00
  0.000364825  4.029970E-02 -6.805300E-03 -1.550970E-02  5.410010E-03  1.000000E+00  0.000000E+00  1.000000E+00  0.000000E+00
  0.000367300  3.976730E-02 -7.744580E-03 -1.592950E-02  5.764930E-03  1.000000E+00  0.000000E+00  1.000000E+00  0.000000E+00
  0.000369775  3.903240E-02 -6.268730E-03 -1.538450E-02  6.161690E-03  1.000000E+00  0.000000E+00  1.000000E+00  0.000000E+00
  0.000372250  3.976460E-02 -7.817400E-03 -1.512480E-02  6.212150E-03  1.000000E+00  0.000000E+00  1.000000E+00  0.000000E+00
  0.000374725  3.972870E-02 -6.787590E-03 -1.484160E-02  6.033310E-03  1.000000E+00  0.000000E+00  1.000000E+00  0.000000E+00
  0.000377200  4.001440E-02 -7.615570E-03 -1.525630E-02  6.010910E-03  1.000000E+00  0.000000E+00  1.000000E+00  0.000000E+00
  0.000379675  4.018970E-02 -7.983100E-03 -1.545610E-02  5.708990E-03  1.000000E+00  0.000000E+00  1.000000E+00  0.000000E+00
  0.000382150  3.978760E-02 -7.376170E-03 -1.521640E-02  6.259670E-03  1.000000E+00  0.000000E+00  1.000000E+00  0.000000E+00
  0.000384625  4.044990E-02 -7.214400E-03 -1.520100E-02  6.215140E-03  1.000000E+00  0.000000E+00  1.000000E+00  0.000000E+00
  0.000387100  3.877430E-02 -7.096330E-03 -1.520730E-02  6.372280E-03  1.000000E+00  0.000000E+00  1.000000E+00  0.000000E+00
  0.000389575  4.018370E-02 -7.715000E-03 -1.471570E-02  6.242980E-03  1.000000E+00  0.000000E+00  1.000000E+00  0.000000E+00
  0.000392050  4.049580E-02 -6.062650E-03 -1.501490E-02  5.591600E-03  1.000000E+00  0.000000E+00  1.000000E+00  0.000000E+00
  0.000394525  4.024980E-02 -6.238710E-03 -1.474490E-02  6.365310E-03  1.000000E+00  0.000000E+00  1.000000E+00  0.000000E+00
  0.000397000  3.943560E-02 -6.439470E-03 -1.506520E-02  6.809880E-03  1.000000E+00  0.000000E+00  1.000000E+00  0.000000E+00
  0.000399475  4.046420E-02 -6.688860E-03 -1.496730E-02  7.085980E-03  1.000000E+00  0.000000E+00  1.000000E+00  0.000000E+00
  0.000401950  3.978690E-02 -7.407610E-03 -1.484070E-02  6.790720E-03  1.000000E+00  0.000000E+00  1.000000E+00  0.000000E+00
  0.000404425  4.133460E-02 -6.559580E-03 -1.426200E-02  6.896420E-03  1.000000E+00  0.000000E+00  1.000000E+00  0.000000E+00
  0.000406900  4.032470E-02 -7.259370E-03 -1.408370E-02  6.855350E-03  1.000000E+00  0.000000E+00  1.000000E+00  0.000000E+00
  0.000409375  4.023530E-02 -7.155490E-03 -1.429510E-02  7.177700E-03  1.000000E+00  0.000000E+00  1.000000E+00  0.000000E+00
  0.000411850  4.006530E-02 -7.876570E-03 -1.490990E-02  6.788180E-03  1.000000E+00  0.000000E+00  1.000000E+00  0.000000E+00
  0.000414325  4.109470E-02 -5.803860E-03 -1.422520E-02  6.873410E-03  1.000000E+00  0.000000E+00  1.000000E+00  0.000000E+00
  0.000416800  4.064980E-02 -6.465540E-03 -1.436030E-02  7.595230E-03  1.000000E+00  0.000000E+00  1.000000E+00  0.000000E+00
  0.000419275  4.066280E-02 -5.712710E-03 -1.461160E-02  6.510430E-03  1.000000E+00  0.000000E+00  1.000000E+00  0.000000E+00
  0.000421750  4.160490E-02 -6.378100E-03 -1.445390E-02  7.464050E-03  1.000000E+00  0.000000E+00  1.000000E+00  0.000000E+00
  0.000424225  4.249030E-02 -5.862290E-03 -1.372640E-02  6.848170E-03  1.000000E+00  0.000000E+00  1.000000E+00  0.000000E+00
  0.000426700  4.072260E-02 -6.971000E-03 -1.479960E-02  7.317080E-03  1.000000E+00  0.000000E+00  1.000000E+00  0.000000E+00
  0.000429175  4.098390E-02 -6.262360E-03 -1.344310E-02  7.235800E-03  1.000000E+00  0.000000E+00  1.000000E+00  0.000000E+00
  0.000431650  4.096240E-02 -6.340930E-03 -1.409720E-02  7.396250E-03  1.000000E+00  0.000000E+00  1.000000E+00  0.000000E+00
  0.000434125  4.166580E-02 -6.031820E-03 -1.426260E-02  8.033750E-03  1.000000E+00  0.000000E+00  1.000000E+00  0.000000E+00
  0.000436600  4.024990E-02 -6.157250E-03 -1.382760E-02  7.285060E-03  1.000000E+00  0.000000E+00  1.000000E+00  0.000000E+00
  0.000439075  4.121180E-02 -6.538280E-03 -1.376540E-02  7.485130E-03  1.000000E+00  0.000000E+00  1.000000E+00  0.000000E+00
  0.000441550  4.119330E-02 -5.894640E-03 -1.447790E-02  7.370190E-03  1.000000E+00  0.000000E+00  1.000000E+00  0.000000E+00
  0.000444025  4.034880E-02 -5.473210E-03 -1.430220E-02  7.686270E-03  1.000000E+00  0.000000E+00  1.000000E+00  0.000000E+00
  0.000446500  4.080190E-02 -6.287290E-03 -1.377890E-02  7.396080E-03  1.000000E+00  0.000000E+00  1.000000E+00  0.000000E+00
  0.000448975  4.090150E-02 -5.297300E-03 -1.395370E-02  7.588490E-03  1.000000E+00  0.000000E+00  1.000000E+00  0.000000E+00
  0.000451450  4.100140E-02 -6.042120E-03 -1.412840E-02  7.622190E-03  1.000000E+00  0.000000E+00  1.000000E+00  0.000000E+00
  0.000453925  4.118760E-02 -6.059270E-03 -1.351990E-02  7.771280E-03  1.000000E+00  0.000000E+00  1.000000E+00  0.000000E+00
