! Anritsu VNA Master:                        Model: MS2026C/19
! SN:                                  1815009
! /card0/usr/20180902_48.s2p
! Existing Calibration Information:
! TYPE:                         Current Settings,       Active Cal Settings
! TIME:             	   09/03/2018 01:37:04 AM,    09/02/2018 11:58:48 AM
! INTERNAL TEMP:    	                   47.3 C,                    48.8 C
! # POINTS:         	                     4001,                      4001
! START FREQ:       	              100.000 kHz,               100.000 kHz
! STOP FREQ:        	               10.000 MHz,                10.000 MHz
! SOURCE POWER:     	                      Low,                       Low
! IFBW:             	                   500 Hz,                    500 Hz
! AVG FACTOR:       	                       3 ,                        1 
! REF PLANE 1:      	                     0 mm,                      0 mm
! REF PLANE 2:      	                     0 mm,                      0 mm
! CAL TYPE:         	             1P2P S11,S21,              1P2P S11,S21
! CAL METHOD:       	                     SOLT,                      SOLT
! CAL LINE TYPE:    	                     Coax,                      Coax
! DUT PORT 1:       	                N-Conn(M),                 N-Conn(M)
! DUT PORT 2:       	                N-Conn(M),                 N-Conn(M)
! CAL STATUS:       	        OK: Accuracy High,                        --
# GHZ S RI R 50.0
! FREQ.GHZ      S11RE         S11IM         S21RE         S21IM         S12RE         S12IM         S22RE         S22IM
  0.000100000  6.549670E-03 -6.097050E-02  1.833260E-02  4.320080E-02  1.000000E+00  0.000000E+00  1.000000E+00  0.000000E+00
  0.000102475  8.656320E-03 -5.845650E-02  1.966710E-02  4.290720E-02  1.000000E+00  0.000000E+00  1.000000E+00  0.000000E+00
  0.000104950  8.790630E-03 -5.586730E-02  2.138200E-02  4.261350E-02  1.000000E+00  0.000000E+00  1.000000E+00  0.000000E+00
  0.000107425  1.030320E-02 -5.510240E-02  2.230800E-02  4.217660E-02  1.000000E+00  0.000000E+00  1.000000E+00  0.000000E+00
  0.000109900  1.141040E-02 -5.280390E-02  2.463350E-02  4.121970E-02  1.000000E+00  0.000000E+00  1.000000E+00  0.000000E+00
  0.000112375  1.256870E-02 -5.078580E-02  2.700780E-02  4.057280E-02  1.000000E+00  0.000000E+00  1.000000E+00  0.000000E+00
  0.000114850  1.308650E-02 -4.964940E-02  2.718340E-02  4.020440E-02  1.000000E+00  0.000000E+00  1.000000E+00  0.000000E+00
  0.000117325  1.511010E-02 -4.870120E-02  2.848090E-02  3.881880E-02  1.000000E+00  0.000000E+00  1.000000E+00  0.000000E+00
  0.000119800  1.552630E-02 -4.579430E-02  2.993900E-02  3.823510E-02  1.000000E+00  0.000000E+00  1.000000E+00  0.000000E+00
  0.000122275  1.622130E-02 -4.433380E-02  3.069900E-02  3.789620E-02  1.000000E+00  0.000000E+00  1.000000E+00  0.000000E+00
  0.000124750  1.716400E-02 -4.405650E-02  3.163540E-02  3.645710E-02  1.000000E+00  0.000000E+00  1.000000E+00  0.000000E+00
  0.000127225  1.713280E-02 -4.238330E-02  3.273890E-02  3.629650E-02  1.000000E+00  0.000000E+00  1.000000E+00  0.000000E+00
  0.000129700  1.826250E-02 -3.979910E-02  3.338940E-02  3.576080E-02  1.000000E+00  0.000000E+00  1.000000E+00  0.000000E+00
  0.000132175  1.942960E-02 -4.057740E-02  3.425800E-02  3.396690E-02  1.000000E+00  0.000000E+00  1.000000E+00  0.000000E+00
  0.000134650  1.971730E-02 -3.976100E-02  3.455690E-02  3.313800E-02  1.000000E+00  0.000000E+00  1.000000E+00  0.000000E+00
  0.000137125  1.976270E-02 -3.810400E-02  3.538300E-02  3.227390E-02  1.000000E+00  0.000000E+00  1.000000E+00  0.000000E+00
  0.000139600  2.079450E-02 -3.767200E-02  3.629520E-02  3.167440E-02  1.000000E+00  0.000000E+00  1.000000E+00  0.000000E+00
  0.000142075  2.149480E-02 -3.658380E-02  3.705390E-02  3.038270E-02  1.000000E+00  0.000000E+00  1.000000E+00  0.000000E+00
  0.000144550  2.237180E-02 -3.562220E-02  3.632100E-02  2.989810E-02  1.000000E+00  0.000000E+00  1.000000E+00  0.000000E+00
  0.000147025  2.317620E-02 -3.350720E-02  3.726730E-02  2.898060E-02  1.000000E+00  0.000000E+00  1.000000E+00  0.000000E+00
  0.000149500  2.337640E-02 -3.451780E-02  3.723180E-02  2.859520E-02  1.000000E+00  0.000000E+00  1.000000E+00  0.000000E+00
  0.000151975  2.282140E-02 -3.312910E-02  3.857660E-02  2.811530E-02  1.000000E+00  0.000000E+00  1.000000E+00  0.000000E+00
  0.000154450  2.379030E-02 -3.093120E-02  3.837330E-02  2.715550E-02  1.000000E+00  0.000000E+00  1.000000E+00  0.000000E+00
  0.000156925  2.433580E-02 -3.030150E-02  3.843990E-02  2.690370E-02  1.000000E+00  0.000000E+00  1.000000E+00  0.000000E+00
  0.000159400  2.414760E-02 -3.008410E-02  3.886660E-02  2.630350E-02  1.000000E+00  0.000000E+00  1.000000E+00  0.000000E+00
  0.000161875  2.492370E-02 -3.031920E-02  3.957690E-02  2.551620E-02  1.000000E+00  0.000000E+00  1.000000E+00  0.000000E+00
  0.000164350  2.459990E-02 -2.914210E-02  3.949080E-02  2.495280E-02  1.000000E+00  0.000000E+00  1.000000E+00  0.000000E+00
  0.000166825  2.602110E-02 -2.826090E-02  3.963670E-02  2.525320E-02  1.000000E+00  0.000000E+00  1.000000E+00  0.000000E+00
  0.000169300  2.627230E-02 -2.809650E-02  4.061490E-02  2.399230E-02  1.000000E+00  0.000000E+00  1.000000E+00  0.000000E+00
  0.000171775  2.674760E-02 -2.718400E-02  4.097900E-02  2.409260E-02  1.000000E+00  0.000000E+00  1.000000E+00  0.000000E+00
  0.000174250  2.619740E-02 -2.619100E-02  4.081520E-02  2.358720E-02  1.000000E+00  0.000000E+00  1.000000E+00  0.000000E+00
  0.000176725  2.798120E-02 -2.608670E-02  4.132790E-02  2.273210E-02  1.000000E+00  0.000000E+00  1.000000E+00  0.000000E+00
  0.000179200  2.727000E-02 -2.557990E-02  4.145790E-02  2.184600E-02  1.000000E+00  0.000000E+00  1.000000E+00  0.000000E+00
  0.000181675  2.710750E-02 -2.529040E-02  4.212300E-02  2.172420E-02  1.000000E+00  0.000000E+00  1.000000E+00  0.000000E+00
  0.000184150  2.852530E-02 -2.364860E-02  4.215010E-02  2.130060E-02  1.000000E+00  0.000000E+00  1.000000E+00  0.000000E+00
  0.000186625  2.874620E-02 -2.366190E-02  4.215280E-02  2.069500E-02  1.000000E+00  0.000000E+00  1.000000E+00  0.000000E+00
  0.000189100  2.789920E-02 -2.345650E-02  4.221320E-02  1.967430E-02  1.000000E+00  0.000000E+00  1.000000E+00  0.000000E+00
  0.000191575  2.707540E-02 -2.415340E-02  4.208430E-02  1.964730E-02  1.000000E+00  0.000000E+00  1.000000E+00  0.000000E+00
  0.000194050  2.878660E-02 -2.242510E-02  4.318290E-02  1.891310E-02  1.000000E+00  0.000000E+00  1.000000E+00  0.000000E+00
  0.000196525  2.951100E-02 -2.186470E-02  4.311750E-02  1.869820E-02  1.000000E+00  0.000000E+00  1.000000E+00  0.000000E+00
  0.000199000  3.024120E-02 -2.115290E-02  4.307040E-02  1.829920E-02  1.000000E+00  0.000000E+00  1.000000E+00  0.000000E+00
  0.000201475  2.930310E-02 -2.030490E-02  4.339740E-02  1.769600E-02  1.000000E+00  0.000000E+00  1.000000E+00  0.000000E+00
  0.000203950  2.938970E-02 -2.078180E-02  4.369800E-02  1.665250E-02  1.000000E+00  0.000000E+00  1.000000E+00  0.000000E+00
  0.000206425  3.033010E-02 -2.020450E-02  4.366460E-02  1.696020E-02  1.000000E+00  0.000000E+00  1.000000E+00  0.000000E+00
  0.000208900  2.996540E-02 -1.998590E-02  4.385010E-02  1.668710E-02  1.000000E+00  0.000000E+00  1.000000E+00  0.000000E+00
  0.000211375  3.125690E-02 -2.013310E-02  4.448350E-02  1.600750E-02  1.000000E+00  0.000000E+00  1.000000E+00  0.000000E+00
  0.000213850  3.048520E-02 -1.859640E-02  4.480210E-02  1.532350E-02  1.000000E+00  0.000000E+00  1.000000E+00  0.000000E+00
  0.000216325  3.095980E-02 -1.914790E-02  4.470790E-02  1.473770E-02  1.000000E+00  0.000000E+00  1.000000E+00  0.000000E+00
  0.000218800  3.052170E-02 -1.910210E-02  4.471450E-02  1.504960E-02  1.000000E+00  0.000000E+00  1.000000E+00  0.000000E+00
  0.000221275  3.265210E-02 -1.732030E-02  4.408690E-02  1.422500E-02  1.000000E+00  0.000000E+00  1.000000E+00  0.000000E+00
  0.000223750  3.187550E-02 -1.828540E-02  4.467090E-02  1.397290E-02  1.000000E+00  0.000000E+00  1.000000E+00  0.000000E+00
  0.000226225  3.265140E-02 -1.654140E-02  4.475940E-02  1.371990E-02  1.000000E+00  0.000000E+00  1.000000E+00  0.000000E+00
  0.000228700  3.153150E-02 -1.765890E-02  4.492040E-02  1.291530E-02  1.000000E+00  0.000000E+00  1.000000E+00  0.000000E+00
  0.000231175  3.180640E-02 -1.707070E-02  4.550820E-02  1.244800E-02  1.000000E+00  0.000000E+00  1.000000E+00  0.000000E+00
  0.000233650  3.219710E-02 -1.676410E-02  4.580610E-02  1.205710E-02  1.000000E+00  0.000000E+00  1.000000E+00  0.000000E+00
  0.000236125  3.267930E-02 -1.507130E-02  4.556570E-02  1.251400E-02  1.000000E+00  0.000000E+00  1.000000E+00  0.000000E+00
  0.000238600  3.314220E-02 -1.589220E-02  4.509300E-02  1.153900E-02  1.000000E+00  0.000000E+00  1.000000E+00  0.000000E+00
  0.000241075  3.324000E-02 -1.549480E-02  4.570780E-02  1.071260E-02  1.000000E+00  0.000000E+00  1.000000E+00  0.000000E+00
  0.000243550  3.305190E-02 -1.542050E-02  4.503210E-02  1.083970E-02  1.000000E+00  0.000000E+00  1.000000E+00  0.000000E+00
  0.000246025  3.314440E-02 -1.490630E-02  4.569730E-02  1.039000E-02  1.000000E+00  0.000000E+00  1.000000E+00  0.000000E+00
  0.000248500  3.321700E-02 -1.474760E-02  4.533700E-02  1.022590E-02  1.000000E+00  0.000000E+00  1.000000E+00  0.000000E+00
  0.000250975  3.418480E-02 -1.396800E-02  4.508740E-02  9.782470E-03  1.000000E+00  0.000000E+00  1.000000E+00  0.000000E+00
  0.000253450  3.395100E-02 -1.402450E-02  4.636480E-02  9.151100E-03  1.000000E+00  0.000000E+00  1.000000E+00  0.000000E+00
  0.000255925  3.355560E-02 -1.282820E-02  4.585380E-02  8.910880E-03  1.000000E+00  0.000000E+00  1.000000E+00  0.000000E+00
  0.000258400  3.478510E-02 -1.332290E-02  4.634050E-02  8.547560E-03  1.000000E+00  0.000000E+00  1.000000E+00  0.000000E+00
  0.000260875  3.414820E-02 -1.367710E-02  4.581470E-02  8.413720E-03  1.000000E+00  0.000000E+00  1.000000E+00  0.000000E+00
  0.000263350  3.399920E-02 -1.209350E-02  4.594350E-02  7.692880E-03  1.000000E+00  0.000000E+00  1.000000E+00  0.000000E+00
  0.000265825  3.416190E-02 -1.331360E-02  4.543650E-02  7.594450E-03  1.000000E+00  0.000000E+00  1.000000E+00  0.000000E+00
  0.000268300  3.495650E-02 -1.266280E-02  4.599000E-02  7.678180E-03  1.000000E+00  0.000000E+00  1.000000E+00  0.000000E+00
  0.000270775  3.426960E-02 -1.170540E-02  4.547940E-02  7.648850E-03  1.000000E+00  0.000000E+00  1.000000E+00  0.000000E+00
  0.000273250  3.505000E-02 -1.209600E-02  4.617730E-02  6.177370E-03  1.000000E+00  0.000000E+00  1.000000E+00  0.000000E+00
  0.000275725  3.595330E-02 -1.094330E-02  4.578590E-02  6.625440E-03  1.000000E+00  0.000000E+00  1.000000E+00  0.000000E+00
  0.000278200  3.568280E-02 -1.144500E-02  4.630180E-02  5.288580E-03  1.000000E+00  0.000000E+00  1.000000E+00  0.000000E+00
  0.000280675  3.583100E-02 -1.122630E-02  4.626730E-02  5.293520E-03  1.000000E+00  0.000000E+00  1.000000E+00  0.000000E+00
  0.000283150  3.566220E-02 -1.132080E-02  4.629970E-02  5.448460E-03  1.000000E+00  0.000000E+00  1.000000E+00  0.000000E+00
  0.000285625  3.581810E-02 -1.123640E-02  4.580300E-02  5.103000E-03  1.000000E+00  0.000000E+00  1.000000E+00  0.000000E+00
  0.000288100  3.545920E-02 -1.125970E-02  4.587360E-02  4.819540E-03  1.000000E+00  0.000000E+00  1.000000E+00  0.000000E+00
  0.000290575  3.613400E-02 -1.025290E-02  4.627920E-02  4.547820E-03  1.000000E+00  0.000000E+00  1.000000E+00  0.000000E+00
  0.000293050  3.654610E-02 -9.928310E-03  4.556850E-02  4.099710E-03  1.000000E+00  0.000000E+00  1.000000E+00  0.000000E+00
  0.000295525  3.615970E-02 -8.619920E-03  4.636670E-02  3.432140E-03  1.000000E+00  0.000000E+00  1.000000E+00  0.000000E+00
  0.000298000  3.579370E-02 -1.087120E-02  4.635550E-02  3.065620E-03  1.000000E+00  0.000000E+00  1.000000E+00  0.000000E+00
  0.000300475  3.666990E-02 -1.024490E-02  4.663360E-02  3.253890E-03  1.000000E+00  0.000000E+00  1.000000E+00  0.000000E+00
  0.000302950  3.594590E-02 -9.605310E-03  4.551370E-02  3.094550E-03  1.000000E+00  0.000000E+00  1.000000E+00  0.000000E+00
  0.000305425  3.680780E-02 -9.360140E-03  4.598500E-02  2.644090E-03  1.000000E+00  0.000000E+00  1.000000E+00  0.000000E+00
  0.000307900  3.749190E-02 -9.890080E-03  4.529970E-02  1.595820E-03  1.000000E+00  0.000000E+00  1.000000E+00  0.000000E+00
  0.000310375  3.780770E-02 -1.047580E-02  4.546750E-02  2.003060E-03  1.000000E+00  0.000000E+00  1.000000E+00  0.000000E+00
  0.000312850  3.782280E-02 -9.375050E-03  4.592070E-02  1.421920E-03  1.000000E+00  0.000000E+00  1.000000E+00  0.000000E+00
  0.000315325  3.663320E-02 -9.947270E-03  4.587330E-02  1.640710E-03  1.000000E+00  0.000000E+00  1.000000E+00  0.000000E+00
  0.000317800  3.722280E-02 -8.439570E-03  4.537520E-02  2.558510E-04  1.000000E+00  0.000000E+00  1.000000E+00  0.000000E+00
  0.000320275  3.667290E-02 -7.841650E-03  4.651390E-02  8.949460E-04  1.000000E+00  0.000000E+00  1.000000E+00  0.000000E+00
  0.000322750  3.717210E-02 -9.010260E-03  4.503460E-02  1.451160E-04  1.000000E+00  0.000000E+00  1.000000E+00  0.000000E+00
  0.000325225  3.799270E-02 -9.261920E-03  4.550330E-02  1.925910E-04  1.000000E+00  0.000000E+00  1.000000E+00  0.000000E+00
  0.000327700  3.794090E-02 -7.885240E-03  4.555920E-02 -1.944750E-04  1.000000E+00  0.000000E+00  1.000000E+00  0.000000E+00
  0.000330175  3.849400E-02 -8.551660E-03  4.605560E-02 -3.370860E-04  1.000000E+00  0.000000E+00  1.000000E+00  0.000000E+00
  0.000332650  3.697330E-02 -7.628600E-03  4.534910E-02 -1.185930E-04  1.000000E+00  0.000000E+00  1.000000E+00  0.000000E+00
  0.000335125  3.814860E-02 -8.081020E-03  4.446990E-02 -7.927850E-04  1.000000E+00  0.000000E+00  1.000000E+00  0.000000E+00
  0.000337600  3.885380E-02 -7.848980E-03  4.455330E-02 -1.294880E-03  1.000000E+00  0.000000E+00  1.000000E+00  0.000000E+00
  0.000340075  3.916730E-02 -7.961550E-03  4.532330E-02 -1.384250E-03  1.000000E+00  0.000000E+00  1.000000E+00  0.000000E+00
  0.000342550  3.836540E-02 -7.592250E-03  4.585430E-02 -1.724800E-03  1.000000E+00  0.000000E+00  1.000000E+00  0.000000E+00
  0.000345025  3.928710E-02 -8.832080E-03  4.473510E-02 -1.351230E-03  1.000000E+00  0.000000E+00  1.000000E+00  0.000000E+00
  0.000347500  3.960050E-02 -7.653380E-03  4.440690E-02 -1.392090E-03  1.000000E+00  0.000000E+00  1.000000E+00  0.000000E+00
  0.000349975  3.930170E-02 -6.490070E-03  4.388470E-02 -1.722560E-03  1.000000E+00  0.000000E+00  1.000000E+00  0.000000E+00
  0.000352450  3.956650E-02 -7.499490E-03  4.523190E-02 -1.807120E-03  1.000000E+00  0.000000E+00  1.000000E+00  0.000000E+00
  0.000354925  4.013880E-02 -7.142440E-03  4.397500E-02 -1.456140E-03  1.000000E+00  0.000000E+00  1.000000E+00  0.000000E+00
  0.000357400  3.897190E-02 -6.834520E-03  4.398430E-02 -2.517230E-03  1.000000E+00  0.000000E+00  1.000000E+00  0.000000E+00
  0.000359875  4.021060E-02 -6.704360E-03  4.381540E-02 -2.015120E-03  1.000000E+00  0.000000E+00  1.000000E+00  0.000000E+00
  0.000362350  3.892830E-02 -7.340630E-03  4.415020E-02 -3.124010E-03  1.000000E+00  0.000000E+00  1.000000E+00  0.000000E+00
  0.000364825  4.046730E-02 -5.661370E-03  4.434670E-02 -2.932980E-03  1.000000E+00  0.000000E+00  1.000000E+00  0.000000E+00
  0.000367300  4.156900E-02 -7.995090E-03  4.406830E-02 -3.283960E-03  1.000000E+00  0.000000E+00  1.000000E+00  0.000000E+00
  0.000369775  3.968870E-02 -6.080630E-03  4.380610E-02 -2.527630E-03  1.000000E+00  0.000000E+00  1.000000E+00  0.000000E+00
  0.000372250  4.050360E-02 -7.210780E-03  4.410040E-02 -4.228990E-03  1.000000E+00  0.000000E+00  1.000000E+00  0.000000E+00
  0.000374725  3.998620E-02 -6.040920E-03  4.437260E-02 -3.069380E-03  1.000000E+00  0.000000E+00  1.000000E+00  0.000000E+00
  0.000377200  4.028440E-02 -7.249110E-03  4.351150E-02 -3.117160E-03  1.000000E+00  0.000000E+00  1.000000E+00  0.000000E+00
  0.000379675  4.097080E-02 -8.094920E-03  4.377300E-02 -3.287530E-03  1.000000E+00  0.000000E+00  1.000000E+00  0.000000E+00
  0.000382150  4.029600E-02 -7.151920E-03  4.375370E-02 -3.289140E-03  1.000000E+00  0.000000E+00  1.000000E+00  0.000000E+00
  0.000384625  4.137000E-02 -6.354640E-03  4.393000E-02 -4.407160E-03  1.000000E+00  0.000000E+00  1.000000E+00  0.000000E+00
  0.000387100  3.970750E-02 -7.250410E-03  4.396590E-02 -3.818980E-03  1.000000E+00  0.000000E+00  1.000000E+00  0.000000E+00
  0.000389575  4.093430E-02 -6.393580E-03  4.328420E-02 -4.613790E-03  1.000000E+00  0.000000E+00  1.000000E+00  0.000000E+00
  0.000392050  4.031220E-02 -5.939290E-03  4.381170E-02 -3.337620E-03  1.000000E+00  0.000000E+00  1.000000E+00  0.000000E+00
  0.000394525  4.040970E-02 -6.503740E-03  4.369120E-02 -4.623050E-03  1.000000E+00  0.000000E+00  1.000000E+00  0.000000E+00
  0.000397000  4.053450E-02 -6.125210E-03  4.352640E-02 -4.924960E-03  1.000000E+00  0.000000E+00  1.000000E+00  0.000000E+00
  0.000399475  4.108970E-02 -7.305160E-03  4.381500E-02 -4.579030E-03  1.000000E+00  0.000000E+00  1.000000E+00  0.000000E+00
  0.000401950  4.102010E-02 -7.183630E-03  4.408440E-02 -4.849670E-03  1.000000E+00  0.000000E+00  1.000000E+00  0.000000E+00
  0.000404425  4.196820E-02 -6.558790E-03  4.423640E-02 -4.804800E-03  1.000000E+00  0.000000E+00  1.000000E+00  0.000000E+00
  0.000406900  4.094370E-02 -7.313340E-03  4.424440E-02 -4.712040E-03  1.000000E+00  0.000000E+00  1.000000E+00  0.000000E+00
  0.000409375  4.163440E-02 -7.158780E-03  4.411880E-02 -5.768720E-03  1.000000E+00  0.000000E+00  1.000000E+00  0.000000E+00
  0.000411850  4.078820E-02 -7.801280E-03  4.362940E-02 -4.952220E-03  1.000000E+00  0.000000E+00  1.000000E+00  0.000000E+00
  0.000414325  4.205750E-02 -5.904630E-03  4.383040E-02 -5.982610E-03  1.000000E+00  0.000000E+00  1.000000E+00  0.000000E+00
  0.000416800  4.163160E-02 -6.257050E-03  4.443880E-02 -5.836710E-03  1.000000E+00  0.000000E+00  1.000000E+00  0.000000E+00
  0.000419275  4.141580E-02 -6.455810E-03  4.385190E-02 -5.946190E-03  1.000000E+00  0.000000E+00  1.000000E+00  0.000000E+00
  0.000421750  4.193910E-02 -5.492620E-03  4.391490E-02 -5.857390E-03  1.000000E+00  0.000000E+00  1.000000E+00  0.000000E+00
  0.000424225  4.152900E-02 -6.140010E-03  4.389430E-02 -6.524450E-03  1.000000E+00  0.000000E+00  1.000000E+00  0.000000E+00
  0.000426700  4.129630E-02 -6.960700E-03  4.449790E-02 -6.516380E-03  1.000000E+00  0.000000E+00  1.000000E+00  0.000000E+00
  0.000429175  4.161270E-02 -6.504330E-03  4.377770E-02 -6.730180E-03  1.000000E+00  0.000000E+00  1.000000E+00  0.000000E+00
  0.000431650  4.161200E-02 -5.990820E-03  4.352370E-02 -6.517280E-03  1.000000E+00  0.000000E+00  1.000000E+00  0.000000E+00
  0.000434125  4.268560E-02 -6.634570E-03  4.343640E-02 -6.811830E-03  1.000000E+00  0.000000E+00  1.000000E+00  0.000000E+00
  0.000436600  4.149990E-02 -5.640150E-03  4.392710E-02 -7.029200E-03  1.000000E+00  0.000000E+00  1.000000E+00  0.000000E+00
  0.000439075  4.175190E-02 -5.959530E-03  4.383100E-02 -7.057780E-03  1.000000E+00  0.000000E+00  1.000000E+00  0.000000E+00
  0.000441550  4.173650E-02 -5.437310E-03  4.441020E-02 -7.100180E-03  1.000000E+00  0.000000E+00  1.000000E+00  0.000000E+00
  0.000444025  4.144830E-02 -5.069840E-03  4.400150E-02 -7.191770E-03  1.000000E+00  0.000000E+00  1.000000E+00  0.000000E+00
  0.000446500  4.178620E-02 -6.302490E-03  4.361380E-02 -7.938730E-03  1.000000E+00  0.000000E+00  1.000000E+00  0.000000E+00
  0.000448975  4.126990E-02 -4.868340E-03  4.415340E-02 -7.410140E-03  1.000000E+00  0.000000E+00  1.000000E+00  0.000000E+00
  0.000451450  4.150770E-02 -6.121830E-03  4.415080E-02 -8.580540E-03  1.000000E+00  0.000000E+00  1.000000E+00  0.000000E+00
  0.000453925  4.227900E-02 -6.132000E-03  4.392850E-02 -7.947470E-03  1.000000E+00  0.000000E+00  1.000000E+00  0.000000E+00
