! Anritsu VNA Master:                        Model: MS2026C/19
! SN:                                  1815009
! /card0/usr/20180902_4.s2p
! Existing Calibration Information:
! TYPE:                         Current Settings,       Active Cal Settings
! TIME:             	   09/02/2018 12:31:00 PM,    09/02/2018 11:58:48 AM
! INTERNAL TEMP:    	                   52.3 C,                    48.8 C
! # POINTS:         	                     4001,                      4001
! START FREQ:       	              100.000 kHz,               100.000 kHz
! STOP FREQ:        	               10.000 MHz,                10.000 MHz
! SOURCE POWER:     	                      Low,                       Low
! IFBW:             	                   500 Hz,                    500 Hz
! AVG FACTOR:       	                       5 ,                        1 
! REF PLANE 1:      	                     0 mm,                      0 mm
! REF PLANE 2:      	                     0 mm,                      0 mm
! CAL TYPE:         	             1P2P S11,S21,              1P2P S11,S21
! CAL METHOD:       	                     SOLT,                      SOLT
! CAL LINE TYPE:    	                     Coax,                      Coax
! DUT PORT 1:       	                N-Conn(M),                 N-Conn(M)
! DUT PORT 2:       	                N-Conn(M),                 N-Conn(M)
! CAL STATUS:       	        OK: Accuracy High,                        --
# GHZ S RI R 50.0
! FREQ.GHZ      S11RE         S11IM         S21RE         S21IM         S12RE         S12IM         S22RE         S22IM
  0.000100000  3.860740E-03 -5.867340E-02  2.264830E-01  5.872040E-01  1.000000E+00  0.000000E+00  1.000000E+00  0.000000E+00
  0.000102475  6.019530E-03 -5.626480E-02  2.461340E-01  5.808460E-01  1.000000E+00  0.000000E+00  1.000000E+00  0.000000E+00
  0.000104950  6.188200E-03 -5.424610E-02  2.657750E-01  5.736540E-01  1.000000E+00  0.000000E+00  1.000000E+00  0.000000E+00
  0.000107425  8.397560E-03 -5.172580E-02  2.845640E-01  5.671730E-01  1.000000E+00  0.000000E+00  1.000000E+00  0.000000E+00
  0.000109900  9.371120E-03 -4.972690E-02  3.028050E-01  5.606810E-01  1.000000E+00  0.000000E+00  1.000000E+00  0.000000E+00
  0.000112375  1.053480E-02 -4.829440E-02  3.185480E-01  5.508090E-01  1.000000E+00  0.000000E+00  1.000000E+00  0.000000E+00
  0.000114850  1.171940E-02 -4.664510E-02  3.349490E-01  5.427510E-01  1.000000E+00  0.000000E+00  1.000000E+00  0.000000E+00
  0.000117325  1.406760E-02 -4.519050E-02  3.495940E-01  5.329580E-01  1.000000E+00  0.000000E+00  1.000000E+00  0.000000E+00
  0.000119800  1.434510E-02 -4.269960E-02  3.634260E-01  5.241440E-01  1.000000E+00  0.000000E+00  1.000000E+00  0.000000E+00
  0.000122275  1.455590E-02 -4.097880E-02  3.774690E-01  5.158530E-01  1.000000E+00  0.000000E+00  1.000000E+00  0.000000E+00
  0.000124750  1.575040E-02 -4.089650E-02  3.909210E-01  5.081500E-01  1.000000E+00  0.000000E+00  1.000000E+00  0.000000E+00
  0.000127225  1.626280E-02 -3.942530E-02  4.029530E-01  4.985190E-01  1.000000E+00  0.000000E+00  1.000000E+00  0.000000E+00
  0.000129700  1.798340E-02 -3.576860E-02  4.155540E-01  4.888010E-01  1.000000E+00  0.000000E+00  1.000000E+00  0.000000E+00
  0.000132175  1.874980E-02 -3.609600E-02  4.276910E-01  4.822370E-01  1.000000E+00  0.000000E+00  1.000000E+00  0.000000E+00
  0.000134650  1.900980E-02 -3.587060E-02  4.374100E-01  4.731600E-01  1.000000E+00  0.000000E+00  1.000000E+00  0.000000E+00
  0.000137125  1.986980E-02 -3.528280E-02  4.479710E-01  4.628420E-01  1.000000E+00  0.000000E+00  1.000000E+00  0.000000E+00
  0.000139600  2.107630E-02 -3.400520E-02  4.587960E-01  4.545260E-01  1.000000E+00  0.000000E+00  1.000000E+00  0.000000E+00
  0.000142075  2.153760E-02 -3.286670E-02  4.673540E-01  4.456270E-01  1.000000E+00  0.000000E+00  1.000000E+00  0.000000E+00
  0.000144550  2.239230E-02 -3.160520E-02  4.737580E-01  4.357360E-01  1.000000E+00  0.000000E+00  1.000000E+00  0.000000E+00
  0.000147025  2.390400E-02 -3.019030E-02  4.829030E-01  4.276800E-01  1.000000E+00  0.000000E+00  1.000000E+00  0.000000E+00
  0.000149500  2.411760E-02 -2.960020E-02  4.898080E-01  4.207880E-01  1.000000E+00  0.000000E+00  1.000000E+00  0.000000E+00
  0.000151975  2.414590E-02 -2.898110E-02  4.987870E-01  4.112710E-01  1.000000E+00  0.000000E+00  1.000000E+00  0.000000E+00
  0.000154450  2.504290E-02 -2.694780E-02  5.040170E-01  4.024170E-01  1.000000E+00  0.000000E+00  1.000000E+00  0.000000E+00
  0.000156925  2.535150E-02 -2.707870E-02  5.101610E-01  3.942270E-01  1.000000E+00  0.000000E+00  1.000000E+00  0.000000E+00
  0.000159400  2.514190E-02 -2.632900E-02  5.176030E-01  3.855470E-01  1.000000E+00  0.000000E+00  1.000000E+00  0.000000E+00
  0.000161875  2.658740E-02 -2.645230E-02  5.247930E-01  3.786590E-01  1.000000E+00  0.000000E+00  1.000000E+00  0.000000E+00
  0.000164350  2.737070E-02 -2.577280E-02  5.297020E-01  3.712100E-01  1.000000E+00  0.000000E+00  1.000000E+00  0.000000E+00
  0.000166825  2.667710E-02 -2.538970E-02  5.342930E-01  3.629730E-01  1.000000E+00  0.000000E+00  1.000000E+00  0.000000E+00
  0.000169300  2.869180E-02 -2.510620E-02  5.411280E-01  3.537420E-01  1.000000E+00  0.000000E+00  1.000000E+00  0.000000E+00
  0.000171775  2.854700E-02 -2.311900E-02  5.451710E-01  3.471740E-01  1.000000E+00  0.000000E+00  1.000000E+00  0.000000E+00
  0.000174250  2.920480E-02 -2.298630E-02  5.504100E-01  3.394540E-01  1.000000E+00  0.000000E+00  1.000000E+00  0.000000E+00
  0.000176725  3.018710E-02 -2.276420E-02  5.543650E-01  3.324120E-01  1.000000E+00  0.000000E+00  1.000000E+00  0.000000E+00
  0.000179200  2.933990E-02 -2.165960E-02  5.596870E-01  3.254930E-01  1.000000E+00  0.000000E+00  1.000000E+00  0.000000E+00
  0.000181675  2.947400E-02 -2.224400E-02  5.634270E-01  3.175640E-01  1.000000E+00  0.000000E+00  1.000000E+00  0.000000E+00
  0.000184150  3.009150E-02 -2.087250E-02  5.682430E-01  3.102070E-01  1.000000E+00  0.000000E+00  1.000000E+00  0.000000E+00
  0.000186625  3.129310E-02 -2.119230E-02  5.705660E-01  3.025600E-01  1.000000E+00  0.000000E+00  1.000000E+00  0.000000E+00
  0.000189100  3.048640E-02 -2.070550E-02  5.737240E-01  2.954990E-01  1.000000E+00  0.000000E+00  1.000000E+00  0.000000E+00
  0.000191575  3.054330E-02 -2.077090E-02  5.791300E-01  2.907760E-01  1.000000E+00  0.000000E+00  1.000000E+00  0.000000E+00
  0.000194050  3.078700E-02 -1.986420E-02  5.821110E-01  2.831820E-01  1.000000E+00  0.000000E+00  1.000000E+00  0.000000E+00
  0.000196525  3.213640E-02 -1.900210E-02  5.847040E-01  2.751890E-01  1.000000E+00  0.000000E+00  1.000000E+00  0.000000E+00
  0.000199000  3.206170E-02 -1.917690E-02  5.870100E-01  2.702990E-01  1.000000E+00  0.000000E+00  1.000000E+00  0.000000E+00
  0.000201475  3.260090E-02 -1.830720E-02  5.907440E-01  2.632370E-01  1.000000E+00  0.000000E+00  1.000000E+00  0.000000E+00
  0.000203950  3.173330E-02 -1.767510E-02  5.927460E-01  2.570470E-01  1.000000E+00  0.000000E+00  1.000000E+00  0.000000E+00
  0.000206425  3.312600E-02 -1.739610E-02  5.952600E-01  2.511910E-01  1.000000E+00  0.000000E+00  1.000000E+00  0.000000E+00
  0.000208900  3.274300E-02 -1.806130E-02  5.971150E-01  2.444490E-01  1.000000E+00  0.000000E+00  1.000000E+00  0.000000E+00
  0.000211375  3.398030E-02 -1.746810E-02  5.994380E-01  2.381580E-01  1.000000E+00  0.000000E+00  1.000000E+00  0.000000E+00
  0.000213850  3.294990E-02 -1.694070E-02  6.024730E-01  2.321270E-01  1.000000E+00  0.000000E+00  1.000000E+00  0.000000E+00
  0.000216325  3.324150E-02 -1.721970E-02  6.059390E-01  2.259930E-01  1.000000E+00  0.000000E+00  1.000000E+00  0.000000E+00
  0.000218800  3.367330E-02 -1.659930E-02  6.052900E-01  2.211170E-01  1.000000E+00  0.000000E+00  1.000000E+00  0.000000E+00
  0.000221275  3.535550E-02 -1.604390E-02  6.071900E-01  2.144570E-01  1.000000E+00  0.000000E+00  1.000000E+00  0.000000E+00
  0.000223750  3.480180E-02 -1.596230E-02  6.102080E-01  2.093920E-01  1.000000E+00  0.000000E+00  1.000000E+00  0.000000E+00
  0.000226225  3.525010E-02 -1.516280E-02  6.117010E-01  2.033910E-01  1.000000E+00  0.000000E+00  1.000000E+00  0.000000E+00
  0.000228700  3.475720E-02 -1.590320E-02  6.128580E-01  1.973780E-01  1.000000E+00  0.000000E+00  1.000000E+00  0.000000E+00
  0.000231175  3.464030E-02 -1.551060E-02  6.140010E-01  1.931200E-01  1.000000E+00  0.000000E+00  1.000000E+00  0.000000E+00
  0.000233650  3.497730E-02 -1.444020E-02  6.162510E-01  1.870300E-01  1.000000E+00  0.000000E+00  1.000000E+00  0.000000E+00
  0.000236125  3.487450E-02 -1.394700E-02  6.167320E-01  1.821930E-01  1.000000E+00  0.000000E+00  1.000000E+00  0.000000E+00
  0.000238600  3.616370E-02 -1.410420E-02  6.185350E-01  1.771600E-01  1.000000E+00  0.000000E+00  1.000000E+00  0.000000E+00
  0.000241075  3.536370E-02 -1.379550E-02  6.203630E-01  1.716290E-01  1.000000E+00  0.000000E+00  1.000000E+00  0.000000E+00
  0.000243550  3.601260E-02 -1.314700E-02  6.195310E-01  1.659540E-01  1.000000E+00  0.000000E+00  1.000000E+00  0.000000E+00
  0.000246025  3.649740E-02 -1.307270E-02  6.217770E-01  1.617200E-01  1.000000E+00  0.000000E+00  1.000000E+00  0.000000E+00
  0.000248500  3.660270E-02 -1.226570E-02  6.243170E-01  1.554890E-01  1.000000E+00  0.000000E+00  1.000000E+00  0.000000E+00
  0.000250975  3.674800E-02 -1.332330E-02  6.233580E-01  1.501400E-01  1.000000E+00  0.000000E+00  1.000000E+00  0.000000E+00
  0.000253450  3.673500E-02 -1.227190E-02  6.261550E-01  1.465000E-01  1.000000E+00  0.000000E+00  1.000000E+00  0.000000E+00
  0.000255925  3.590950E-02 -1.091210E-02  6.249860E-01  1.419920E-01  1.000000E+00  0.000000E+00  1.000000E+00  0.000000E+00
  0.000258400  3.683500E-02 -1.140770E-02  6.262920E-01  1.350870E-01  1.000000E+00  0.000000E+00  1.000000E+00  0.000000E+00
  0.000260875  3.724910E-02 -1.108520E-02  6.275760E-01  1.308880E-01  1.000000E+00  0.000000E+00  1.000000E+00  0.000000E+00
  0.000263350  3.674040E-02 -1.077080E-02  6.264710E-01  1.264940E-01  1.000000E+00  0.000000E+00  1.000000E+00  0.000000E+00
  0.000265825  3.686140E-02 -1.187100E-02  6.280760E-01  1.205320E-01  1.000000E+00  0.000000E+00  1.000000E+00  0.000000E+00
  0.000268300  3.765310E-02 -1.079210E-02  6.295890E-01  1.154870E-01  1.000000E+00  0.000000E+00  1.000000E+00  0.000000E+00
  0.000270775  3.758350E-02 -1.023600E-02  6.297970E-01  1.132970E-01  1.000000E+00  0.000000E+00  1.000000E+00  0.000000E+00
  0.000273250  3.808470E-02 -1.029760E-02  6.287200E-01  1.077750E-01  1.000000E+00  0.000000E+00  1.000000E+00  0.000000E+00
  0.000275725  3.849320E-02 -9.545180E-03  6.318770E-01  1.044280E-01  1.000000E+00  0.000000E+00  1.000000E+00  0.000000E+00
  0.000278200  3.825570E-02 -9.376650E-03  6.310820E-01  9.900650E-02  1.000000E+00  0.000000E+00  1.000000E+00  0.000000E+00
  0.000280675  3.826430E-02 -9.775680E-03  6.300240E-01  9.414010E-02  1.000000E+00  0.000000E+00  1.000000E+00  0.000000E+00
  0.000283150  3.875810E-02 -9.591580E-03  6.312970E-01  8.980140E-02  1.000000E+00  0.000000E+00  1.000000E+00  0.000000E+00
  0.000285625  3.815230E-02 -9.815310E-03  6.330590E-01  8.664920E-02  1.000000E+00  0.000000E+00  1.000000E+00  0.000000E+00
  0.000288100  3.863930E-02 -8.772480E-03  6.312720E-01  8.089600E-02  1.000000E+00  0.000000E+00  1.000000E+00  0.000000E+00
  0.000290575  3.891960E-02 -7.364720E-03  6.324980E-01  7.809400E-02  1.000000E+00  0.000000E+00  1.000000E+00  0.000000E+00
  0.000293050  3.934270E-02 -8.186630E-03  6.311920E-01  7.358610E-02  1.000000E+00  0.000000E+00  1.000000E+00  0.000000E+00
  0.000295525  3.997300E-02 -7.098710E-03  6.323870E-01  6.876450E-02  1.000000E+00  0.000000E+00  1.000000E+00  0.000000E+00
  0.000298000  3.852440E-02 -7.605900E-03  6.338080E-01  6.452190E-02  1.000000E+00  0.000000E+00  1.000000E+00  0.000000E+00
  0.000300475  3.944380E-02 -8.058790E-03  6.311740E-01  6.021860E-02  1.000000E+00  0.000000E+00  1.000000E+00  0.000000E+00
  0.000302950  3.931510E-02 -7.398600E-03  6.319310E-01  5.704590E-02  1.000000E+00  0.000000E+00  1.000000E+00  0.000000E+00
  0.000305425  3.983970E-02 -6.516980E-03  6.321660E-01  5.361030E-02  1.000000E+00  0.000000E+00  1.000000E+00  0.000000E+00
  0.000307900  4.037600E-02 -8.051420E-03  6.325280E-01  4.860960E-02  1.000000E+00  0.000000E+00  1.000000E+00  0.000000E+00
  0.000310375  4.117570E-02 -7.830090E-03  6.306890E-01  4.631850E-02  1.000000E+00  0.000000E+00  1.000000E+00  0.000000E+00
  0.000312850  4.130030E-02 -6.771960E-03  6.321060E-01  4.151070E-02  1.000000E+00  0.000000E+00  1.000000E+00  0.000000E+00
  0.000315325  4.039720E-02 -7.227350E-03  6.301000E-01  3.752200E-02  1.000000E+00  0.000000E+00  1.000000E+00  0.000000E+00
  0.000317800  4.164340E-02 -5.546750E-03  6.324110E-01  3.334800E-02  1.000000E+00  0.000000E+00  1.000000E+00  0.000000E+00
  0.000320275  4.073450E-02 -5.515050E-03  6.303660E-01  3.051040E-02  1.000000E+00  0.000000E+00  1.000000E+00  0.000000E+00
  0.000322750  4.098610E-02 -6.076460E-03  6.294490E-01  2.614250E-02  1.000000E+00  0.000000E+00  1.000000E+00  0.000000E+00
  0.000325225  4.189120E-02 -6.817740E-03  6.293040E-01  2.419830E-02  1.000000E+00  0.000000E+00  1.000000E+00  0.000000E+00
  0.000327700  4.183570E-02 -5.635370E-03  6.291350E-01  2.071600E-02  1.000000E+00  0.000000E+00  1.000000E+00  0.000000E+00
  0.000330175  4.237290E-02 -6.345360E-03  6.291810E-01  1.499770E-02  1.000000E+00  0.000000E+00  1.000000E+00  0.000000E+00
  0.000332650  4.147750E-02 -5.036150E-03  6.292310E-01  1.336210E-02  1.000000E+00  0.000000E+00  1.000000E+00  0.000000E+00
  0.000335125  4.214650E-02 -6.194640E-03  6.281840E-01  9.762770E-03  1.000000E+00  0.000000E+00  1.000000E+00  0.000000E+00
  0.000337600  4.313540E-02 -5.569140E-03  6.279840E-01  8.604210E-03  1.000000E+00  0.000000E+00  1.000000E+00  0.000000E+00
  0.000340075  4.340640E-02 -5.747010E-03  6.301620E-01  3.208310E-03  1.000000E+00  0.000000E+00  1.000000E+00  0.000000E+00
  0.000342550  4.309180E-02 -5.230740E-03  6.291320E-01  5.488000E-04  1.000000E+00  0.000000E+00  1.000000E+00  0.000000E+00
  0.000345025  4.347400E-02 -5.438320E-03  6.296750E-01 -4.555710E-03  1.000000E+00  0.000000E+00  1.000000E+00  0.000000E+00
  0.000347500  4.372460E-02 -6.294020E-03  6.283980E-01 -4.739040E-03  1.000000E+00  0.000000E+00  1.000000E+00  0.000000E+00
  0.000349975  4.383250E-02 -4.770190E-03  6.294510E-01 -1.124510E-02  1.000000E+00  0.000000E+00  1.000000E+00  0.000000E+00
  0.000352450  4.363550E-02 -5.318570E-03  6.308240E-01 -1.216960E-02  1.000000E+00  0.000000E+00  1.000000E+00  0.000000E+00
  0.000354925  4.521980E-02 -5.022970E-03  6.286780E-01 -1.719780E-02  1.000000E+00  0.000000E+00  1.000000E+00  0.000000E+00
  0.000357400  4.307740E-02 -5.870070E-03  6.296420E-01 -2.013470E-02  1.000000E+00  0.000000E+00  1.000000E+00  0.000000E+00
  0.000359875  4.448080E-02 -5.264520E-03  6.278160E-01 -2.257340E-02  1.000000E+00  0.000000E+00  1.000000E+00  0.000000E+00
  0.000362350  4.476680E-02 -5.912240E-03  6.274750E-01 -2.803260E-02  1.000000E+00  0.000000E+00  1.000000E+00  0.000000E+00
  0.000364825  4.531040E-02 -4.821140E-03  6.277380E-01 -2.982630E-02  1.000000E+00  0.000000E+00  1.000000E+00  0.000000E+00
  0.000367300  4.533420E-02 -5.527720E-03  6.267710E-01 -3.255440E-02  1.000000E+00  0.000000E+00  1.000000E+00  0.000000E+00
  0.000369775  4.412330E-02 -4.594880E-03  6.256080E-01 -3.599620E-02  1.000000E+00  0.000000E+00  1.000000E+00  0.000000E+00
  0.000372250  4.589170E-02 -6.115320E-03  6.241160E-01 -3.984800E-02  1.000000E+00  0.000000E+00  1.000000E+00  0.000000E+00
  0.000374725  4.451570E-02 -5.498980E-03  6.244550E-01 -4.174190E-02  1.000000E+00  0.000000E+00  1.000000E+00  0.000000E+00
  0.000377200  4.487430E-02 -5.493950E-03  6.239100E-01 -4.411080E-02  1.000000E+00  0.000000E+00  1.000000E+00  0.000000E+00
  0.000379675  4.570460E-02 -6.245770E-03  6.237530E-01 -4.732720E-02  1.000000E+00  0.000000E+00  1.000000E+00  0.000000E+00
  0.000382150  4.524870E-02 -5.690190E-03  6.210830E-01 -4.984120E-02  1.000000E+00  0.000000E+00  1.000000E+00  0.000000E+00
  0.000384625  4.631800E-02 -5.989980E-03  6.221300E-01 -5.298910E-02  1.000000E+00  0.000000E+00  1.000000E+00  0.000000E+00
  0.000387100  4.496280E-02 -6.354930E-03  6.217980E-01 -5.494310E-02  1.000000E+00  0.000000E+00  1.000000E+00  0.000000E+00
  0.000389575  4.547740E-02 -5.727920E-03  6.202750E-01 -5.956720E-02  1.000000E+00  0.000000E+00  1.000000E+00  0.000000E+00
  0.000392050  4.565670E-02 -4.811830E-03  6.209620E-01 -6.187590E-02  1.000000E+00  0.000000E+00  1.000000E+00  0.000000E+00
  0.000394525  4.603600E-02 -5.824540E-03  6.200250E-01 -6.414530E-02  1.000000E+00  0.000000E+00  1.000000E+00  0.000000E+00
  0.000397000  4.519970E-02 -4.922760E-03  6.188100E-01 -6.676050E-02  1.000000E+00  0.000000E+00  1.000000E+00  0.000000E+00
  0.000399475  4.626820E-02 -6.516020E-03  6.193370E-01 -6.954540E-02  1.000000E+00  0.000000E+00  1.000000E+00  0.000000E+00
  0.000401950  4.610590E-02 -6.697180E-03  6.182400E-01 -7.314520E-02  1.000000E+00  0.000000E+00  1.000000E+00  0.000000E+00
  0.000404425  4.722920E-02 -5.638110E-03  6.174150E-01 -7.734090E-02  1.000000E+00  0.000000E+00  1.000000E+00  0.000000E+00
  0.000406900  4.657280E-02 -6.522950E-03  6.151420E-01 -7.887600E-02  1.000000E+00  0.000000E+00  1.000000E+00  0.000000E+00
  0.000409375  4.600000E-02 -6.522690E-03  6.150460E-01 -8.215410E-02  1.000000E+00  0.000000E+00  1.000000E+00  0.000000E+00
  0.000411850  4.613320E-02 -7.386830E-03  6.133070E-01 -8.566590E-02  1.000000E+00  0.000000E+00  1.000000E+00  0.000000E+00
  0.000414325  4.621470E-02 -5.981370E-03  6.134120E-01 -8.840700E-02  1.000000E+00  0.000000E+00  1.000000E+00  0.000000E+00
  0.000416800  4.599570E-02 -6.121140E-03  6.125450E-01 -9.076100E-02  1.000000E+00  0.000000E+00  1.000000E+00  0.000000E+00
  0.000419275  4.665230E-02 -6.347940E-03  6.105390E-01 -9.450760E-02  1.000000E+00  0.000000E+00  1.000000E+00  0.000000E+00
  0.000421750  4.723580E-02 -5.604650E-03  6.096310E-01 -9.591510E-02  1.000000E+00  0.000000E+00  1.000000E+00  0.000000E+00
  0.000424225  4.666580E-02 -5.696260E-03  6.084560E-01 -9.871280E-02  1.000000E+00  0.000000E+00  1.000000E+00  0.000000E+00
  0.000426700  4.641190E-02 -6.941900E-03  6.076840E-01 -1.019590E-01  1.000000E+00  0.000000E+00  1.000000E+00  0.000000E+00
  0.000429175  4.682010E-02 -6.725980E-03  6.073050E-01 -1.042100E-01  1.000000E+00  0.000000E+00  1.000000E+00  0.000000E+00
  0.000431650  4.739880E-02 -6.841320E-03  6.030520E-01 -1.052950E-01  1.000000E+00  0.000000E+00  1.000000E+00  0.000000E+00
  0.000434125  4.705480E-02 -6.760630E-03  6.025870E-01 -1.086660E-01  1.000000E+00  0.000000E+00  1.000000E+00  0.000000E+00
  0.000436600  4.587040E-02 -6.182330E-03  6.009780E-01 -1.093870E-01  1.000000E+00  0.000000E+00  1.000000E+00  0.000000E+00
  0.000439075  4.643600E-02 -6.457450E-03  5.992700E-01 -1.112700E-01  1.000000E+00  0.000000E+00  1.000000E+00  0.000000E+00
  0.000441550  4.670920E-02 -5.741110E-03  5.993870E-01 -1.143870E-01  1.000000E+00  0.000000E+00  1.000000E+00  0.000000E+00
  0.000444025  4.640710E-02 -6.119610E-03  5.992010E-01 -1.156400E-01  1.000000E+00  0.000000E+00  1.000000E+00  0.000000E+00
  0.000446500  4.603910E-02 -6.629580E-03  5.968160E-01 -1.166420E-01  1.000000E+00  0.000000E+00  1.000000E+00  0.000000E+00
  0.000448975  4.660030E-02 -6.177730E-03  5.966570E-01 -1.180700E-01  1.000000E+00  0.000000E+00  1.000000E+00  0.000000E+00
  0.000451450  4.653460E-02 -6.532140E-03  5.958770E-01 -1.187940E-01  1.000000E+00  0.000000E+00  1.000000E+00  0.000000E+00
  0.000453925  4.587980E-02 -6.163850E-03  5.941430E-01 -1.187630E-01  1.000000E+00  0.000000E+00  1.000000E+00  0.000000E+00
