! Anritsu VNA Master:                        Model: MS2026C/19
! SN:                                  1815009
! /card0/usr/20180902_51.s2p
! Existing Calibration Information:
! TYPE:                         Current Settings,       Active Cal Settings
! TIME:             	   09/03/2018 01:40:56 AM,    09/02/2018 11:58:48 AM
! INTERNAL TEMP:    	                   48.3 C,                    48.8 C
! # POINTS:         	                     4001,                      4001
! START FREQ:       	              100.000 kHz,               100.000 kHz
! STOP FREQ:        	               10.000 MHz,                10.000 MHz
! SOURCE POWER:     	                      Low,                       Low
! IFBW:             	                   500 Hz,                    500 Hz
! AVG FACTOR:       	                       5 ,                        1 
! REF PLANE 1:      	                     0 mm,                      0 mm
! REF PLANE 2:      	                     0 mm,                      0 mm
! CAL TYPE:         	             1P2P S11,S21,              1P2P S11,S21
! CAL METHOD:       	                     SOLT,                      SOLT
! CAL LINE TYPE:    	                     Coax,                      Coax
! DUT PORT 1:       	                N-Conn(M),                 N-Conn(M)
! DUT PORT 2:       	                N-Conn(M),                 N-Conn(M)
! CAL STATUS:       	        OK: Accuracy High,                        --
# GHZ S RI R 50.0
! FREQ.GHZ      S11RE         S11IM         S21RE         S21IM         S12RE         S12IM         S22RE         S22IM
  0.000100000  7.193150E-03 -6.212860E-02  2.529440E-02  5.850090E-02  1.000000E+00  0.000000E+00  1.000000E+00  0.000000E+00
  0.000102475  8.627270E-03 -5.890710E-02  2.747030E-02  5.779870E-02  1.000000E+00  0.000000E+00  1.000000E+00  0.000000E+00
  0.000104950  8.708390E-03 -5.712990E-02  2.865930E-02  5.797810E-02  1.000000E+00  0.000000E+00  1.000000E+00  0.000000E+00
  0.000107425  1.048120E-02 -5.492050E-02  3.106010E-02  5.668030E-02  1.000000E+00  0.000000E+00  1.000000E+00  0.000000E+00
  0.000109900  1.164610E-02 -5.344360E-02  3.314390E-02  5.646050E-02  1.000000E+00  0.000000E+00  1.000000E+00  0.000000E+00
  0.000112375  1.250210E-02 -5.164590E-02  3.493470E-02  5.518250E-02  1.000000E+00  0.000000E+00  1.000000E+00  0.000000E+00
  0.000114850  1.346720E-02 -5.025770E-02  3.700770E-02  5.463770E-02  1.000000E+00  0.000000E+00  1.000000E+00  0.000000E+00
  0.000117325  1.513890E-02 -4.865770E-02  3.774670E-02  5.306520E-02  1.000000E+00  0.000000E+00  1.000000E+00  0.000000E+00
  0.000119800  1.598730E-02 -4.680520E-02  3.943110E-02  5.175850E-02  1.000000E+00  0.000000E+00  1.000000E+00  0.000000E+00
  0.000122275  1.648020E-02 -4.465180E-02  4.161170E-02  5.193980E-02  1.000000E+00  0.000000E+00  1.000000E+00  0.000000E+00
  0.000124750  1.750070E-02 -4.395420E-02  4.289480E-02  5.050280E-02  1.000000E+00  0.000000E+00  1.000000E+00  0.000000E+00
  0.000127225  1.717520E-02 -4.284360E-02  4.302450E-02  4.878980E-02  1.000000E+00  0.000000E+00  1.000000E+00  0.000000E+00
  0.000129700  1.890140E-02 -4.010720E-02  4.518440E-02  4.768530E-02  1.000000E+00  0.000000E+00  1.000000E+00  0.000000E+00
  0.000132175  1.914740E-02 -4.009680E-02  4.652700E-02  4.686040E-02  1.000000E+00  0.000000E+00  1.000000E+00  0.000000E+00
  0.000134650  1.948850E-02 -4.002700E-02  4.791770E-02  4.485160E-02  1.000000E+00  0.000000E+00  1.000000E+00  0.000000E+00
  0.000137125  2.041920E-02 -3.855330E-02  4.828030E-02  4.501410E-02  1.000000E+00  0.000000E+00  1.000000E+00  0.000000E+00
  0.000139600  2.105780E-02 -3.785170E-02  4.904500E-02  4.406960E-02  1.000000E+00  0.000000E+00  1.000000E+00  0.000000E+00
  0.000142075  2.184980E-02 -3.610240E-02  4.952920E-02  4.173530E-02  1.000000E+00  0.000000E+00  1.000000E+00  0.000000E+00
  0.000144550  2.240210E-02 -3.632260E-02  5.043530E-02  4.071670E-02  1.000000E+00  0.000000E+00  1.000000E+00  0.000000E+00
  0.000147025  2.292250E-02 -3.422310E-02  5.120670E-02  4.037500E-02  1.000000E+00  0.000000E+00  1.000000E+00  0.000000E+00
  0.000149500  2.359630E-02 -3.374960E-02  5.146210E-02  3.994080E-02  1.000000E+00  0.000000E+00  1.000000E+00  0.000000E+00
  0.000151975  2.324490E-02 -3.366860E-02  5.221220E-02  3.860880E-02  1.000000E+00  0.000000E+00  1.000000E+00  0.000000E+00
  0.000154450  2.389800E-02 -3.117600E-02  5.204590E-02  3.769240E-02  1.000000E+00  0.000000E+00  1.000000E+00  0.000000E+00
  0.000156925  2.477550E-02 -3.124700E-02  5.288710E-02  3.691840E-02  1.000000E+00  0.000000E+00  1.000000E+00  0.000000E+00
  0.000159400  2.407600E-02 -3.004820E-02  5.412830E-02  3.581040E-02  1.000000E+00  0.000000E+00  1.000000E+00  0.000000E+00
  0.000161875  2.592690E-02 -3.053020E-02  5.391740E-02  3.556570E-02  1.000000E+00  0.000000E+00  1.000000E+00  0.000000E+00
  0.000164350  2.582360E-02 -2.941210E-02  5.404100E-02  3.497260E-02  1.000000E+00  0.000000E+00  1.000000E+00  0.000000E+00
  0.000166825  2.596130E-02 -2.873830E-02  5.504100E-02  3.430500E-02  1.000000E+00  0.000000E+00  1.000000E+00  0.000000E+00
  0.000169300  2.706690E-02 -2.787800E-02  5.549030E-02  3.339500E-02  1.000000E+00  0.000000E+00  1.000000E+00  0.000000E+00
  0.000171775  2.755670E-02 -2.663860E-02  5.611200E-02  3.251510E-02  1.000000E+00  0.000000E+00  1.000000E+00  0.000000E+00
  0.000174250  2.697270E-02 -2.630190E-02  5.616940E-02  3.160120E-02  1.000000E+00  0.000000E+00  1.000000E+00  0.000000E+00
  0.000176725  2.760450E-02 -2.577250E-02  5.682220E-02  3.160760E-02  1.000000E+00  0.000000E+00  1.000000E+00  0.000000E+00
  0.000179200  2.746630E-02 -2.544900E-02  5.763960E-02  2.988770E-02  1.000000E+00  0.000000E+00  1.000000E+00  0.000000E+00
  0.000181675  2.756960E-02 -2.585120E-02  5.745880E-02  2.939450E-02  1.000000E+00  0.000000E+00  1.000000E+00  0.000000E+00
  0.000184150  2.839440E-02 -2.363180E-02  5.805970E-02  2.866780E-02  1.000000E+00  0.000000E+00  1.000000E+00  0.000000E+00
  0.000186625  2.898510E-02 -2.385460E-02  5.788370E-02  2.836200E-02  1.000000E+00  0.000000E+00  1.000000E+00  0.000000E+00
  0.000189100  2.874170E-02 -2.384020E-02  5.881950E-02  2.737460E-02  1.000000E+00  0.000000E+00  1.000000E+00  0.000000E+00
  0.000191575  2.828860E-02 -2.409200E-02  5.899040E-02  2.723850E-02  1.000000E+00  0.000000E+00  1.000000E+00  0.000000E+00
  0.000194050  2.924770E-02 -2.296460E-02  5.925730E-02  2.610820E-02  1.000000E+00  0.000000E+00  1.000000E+00  0.000000E+00
  0.000196525  2.956560E-02 -2.231540E-02  5.911520E-02  2.534420E-02  1.000000E+00  0.000000E+00  1.000000E+00  0.000000E+00
  0.000199000  3.053950E-02 -2.160700E-02  5.943220E-02  2.518770E-02  1.000000E+00  0.000000E+00  1.000000E+00  0.000000E+00
  0.000201475  3.052770E-02 -2.029080E-02  6.003330E-02  2.479690E-02  1.000000E+00  0.000000E+00  1.000000E+00  0.000000E+00
  0.000203950  3.047430E-02 -2.096690E-02  5.998300E-02  2.396280E-02  1.000000E+00  0.000000E+00  1.000000E+00  0.000000E+00
  0.000206425  3.100240E-02 -2.048610E-02  6.044890E-02  2.301120E-02  1.000000E+00  0.000000E+00  1.000000E+00  0.000000E+00
  0.000208900  3.041180E-02 -2.043420E-02  6.062750E-02  2.241990E-02  1.000000E+00  0.000000E+00  1.000000E+00  0.000000E+00
  0.000211375  3.152520E-02 -1.995630E-02  6.082250E-02  2.228940E-02  1.000000E+00  0.000000E+00  1.000000E+00  0.000000E+00
  0.000213850  3.115680E-02 -1.899270E-02  6.078330E-02  2.127540E-02  1.000000E+00  0.000000E+00  1.000000E+00  0.000000E+00
  0.000216325  3.205610E-02 -1.977420E-02  6.124900E-02  2.049820E-02  1.000000E+00  0.000000E+00  1.000000E+00  0.000000E+00
  0.000218800  3.207090E-02 -1.871990E-02  6.167640E-02  1.990650E-02  1.000000E+00  0.000000E+00  1.000000E+00  0.000000E+00
  0.000221275  3.276760E-02 -1.792480E-02  6.115550E-02  1.956670E-02  1.000000E+00  0.000000E+00  1.000000E+00  0.000000E+00
  0.000223750  3.280120E-02 -1.833640E-02  6.158200E-02  1.892810E-02  1.000000E+00  0.000000E+00  1.000000E+00  0.000000E+00
  0.000226225  3.292440E-02 -1.716640E-02  6.150190E-02  1.826410E-02  1.000000E+00  0.000000E+00  1.000000E+00  0.000000E+00
  0.000228700  3.242250E-02 -1.770090E-02  6.189970E-02  1.780100E-02  1.000000E+00  0.000000E+00  1.000000E+00  0.000000E+00
  0.000231175  3.268260E-02 -1.813100E-02  6.208090E-02  1.766370E-02  1.000000E+00  0.000000E+00  1.000000E+00  0.000000E+00
  0.000233650  3.291940E-02 -1.656950E-02  6.225470E-02  1.660040E-02  1.000000E+00  0.000000E+00  1.000000E+00  0.000000E+00
  0.000236125  3.294010E-02 -1.523550E-02  6.238260E-02  1.614630E-02  1.000000E+00  0.000000E+00  1.000000E+00  0.000000E+00
  0.000238600  3.368540E-02 -1.670490E-02  6.262900E-02  1.556820E-02  1.000000E+00  0.000000E+00  1.000000E+00  0.000000E+00
  0.000241075  3.394420E-02 -1.591220E-02  6.253900E-02  1.498130E-02  1.000000E+00  0.000000E+00  1.000000E+00  0.000000E+00
  0.000243550  3.372170E-02 -1.536840E-02  6.220810E-02  1.426940E-02  1.000000E+00  0.000000E+00  1.000000E+00  0.000000E+00
  0.000246025  3.384410E-02 -1.527940E-02  6.262690E-02  1.345930E-02  1.000000E+00  0.000000E+00  1.000000E+00  0.000000E+00
  0.000248500  3.418050E-02 -1.472090E-02  6.254590E-02  1.384820E-02  1.000000E+00  0.000000E+00  1.000000E+00  0.000000E+00
  0.000250975  3.452190E-02 -1.536160E-02  6.261830E-02  1.327050E-02  1.000000E+00  0.000000E+00  1.000000E+00  0.000000E+00
  0.000253450  3.435620E-02 -1.441840E-02  6.332780E-02  1.314050E-02  1.000000E+00  0.000000E+00  1.000000E+00  0.000000E+00
  0.000255925  3.415510E-02 -1.424820E-02  6.279450E-02  1.205310E-02  1.000000E+00  0.000000E+00  1.000000E+00  0.000000E+00
  0.000258400  3.501700E-02 -1.452140E-02  6.361730E-02  1.175160E-02  1.000000E+00  0.000000E+00  1.000000E+00  0.000000E+00
  0.000260875  3.482720E-02 -1.402170E-02  6.273820E-02  1.135050E-02  1.000000E+00  0.000000E+00  1.000000E+00  0.000000E+00
  0.000263350  3.477870E-02 -1.257500E-02  6.321500E-02  1.103960E-02  1.000000E+00  0.000000E+00  1.000000E+00  0.000000E+00
  0.000265825  3.472240E-02 -1.378850E-02  6.314910E-02  1.078880E-02  1.000000E+00  0.000000E+00  1.000000E+00  0.000000E+00
  0.000268300  3.593630E-02 -1.293650E-02  6.351210E-02  9.320580E-03  1.000000E+00  0.000000E+00  1.000000E+00  0.000000E+00
  0.000270775  3.548790E-02 -1.268040E-02  6.288360E-02  8.974670E-03  1.000000E+00  0.000000E+00  1.000000E+00  0.000000E+00
  0.000273250  3.628380E-02 -1.234790E-02  6.327130E-02  9.206280E-03  1.000000E+00  0.000000E+00  1.000000E+00  0.000000E+00
  0.000275725  3.661630E-02 -1.293400E-02  6.381390E-02  8.203180E-03  1.000000E+00  0.000000E+00  1.000000E+00  0.000000E+00
  0.000278200  3.617650E-02 -1.263690E-02  6.362590E-02  7.737760E-03  1.000000E+00  0.000000E+00  1.000000E+00  0.000000E+00
  0.000280675  3.574030E-02 -1.169810E-02  6.310510E-02  7.188860E-03  1.000000E+00  0.000000E+00  1.000000E+00  0.000000E+00
  0.000283150  3.650730E-02 -1.228450E-02  6.358140E-02  6.919440E-03  1.000000E+00  0.000000E+00  1.000000E+00  0.000000E+00
  0.000285625  3.586520E-02 -1.240660E-02  6.386000E-02  6.447960E-03  1.000000E+00  0.000000E+00  1.000000E+00  0.000000E+00
  0.000288100  3.635830E-02 -1.081780E-02  6.342300E-02  5.959550E-03  1.000000E+00  0.000000E+00  1.000000E+00  0.000000E+00
  0.000290575  3.652850E-02 -1.088290E-02  6.310680E-02  5.665840E-03  1.000000E+00  0.000000E+00  1.000000E+00  0.000000E+00
  0.000293050  3.738530E-02 -1.113370E-02  6.368010E-02  5.474450E-03  1.000000E+00  0.000000E+00  1.000000E+00  0.000000E+00
  0.000295525  3.712100E-02 -1.013820E-02  6.298840E-02  5.136950E-03  1.000000E+00  0.000000E+00  1.000000E+00  0.000000E+00
  0.000298000  3.618300E-02 -1.087200E-02  6.340000E-02  4.431660E-03  1.000000E+00  0.000000E+00  1.000000E+00  0.000000E+00
  0.000300475  3.744760E-02 -1.136470E-02  6.339990E-02  4.209540E-03  1.000000E+00  0.000000E+00  1.000000E+00  0.000000E+00
  0.000302950  3.734780E-02 -9.663030E-03  6.279740E-02  3.718620E-03  1.000000E+00  0.000000E+00  1.000000E+00  0.000000E+00
  0.000305425  3.731720E-02 -9.738720E-03  6.315400E-02  3.733240E-03  1.000000E+00  0.000000E+00  1.000000E+00  0.000000E+00
  0.000307900  3.797600E-02 -1.070670E-02  6.333220E-02  3.290770E-03  1.000000E+00  0.000000E+00  1.000000E+00  0.000000E+00
  0.000310375  3.878250E-02 -1.065120E-02  6.304090E-02  2.917640E-03  1.000000E+00  0.000000E+00  1.000000E+00  0.000000E+00
  0.000312850  3.830960E-02 -1.007420E-02  6.318560E-02  1.773040E-03  1.000000E+00  0.000000E+00  1.000000E+00  0.000000E+00
  0.000315325  3.771050E-02 -1.040410E-02  6.311560E-02  1.529830E-03  1.000000E+00  0.000000E+00  1.000000E+00  0.000000E+00
  0.000317800  3.838160E-02 -9.183910E-03  6.315300E-02  1.521120E-03  1.000000E+00  0.000000E+00  1.000000E+00  0.000000E+00
  0.000320275  3.780850E-02 -8.693180E-03  6.321190E-02  9.798011E-04  1.000000E+00  0.000000E+00  1.000000E+00  0.000000E+00
  0.000322750  3.778410E-02 -9.034560E-03  6.236490E-02  8.072850E-04  1.000000E+00  0.000000E+00  1.000000E+00  0.000000E+00
  0.000325225  3.862270E-02 -9.800690E-03  6.256870E-02  1.902940E-04  1.000000E+00  0.000000E+00  1.000000E+00  0.000000E+00
  0.000327700  3.856990E-02 -8.981510E-03  6.314300E-02 -8.219910E-05  1.000000E+00  0.000000E+00  1.000000E+00  0.000000E+00
  0.000330175  3.857400E-02 -9.545740E-03  6.274450E-02 -2.772170E-04  1.000000E+00  0.000000E+00  1.000000E+00  0.000000E+00
  0.000332650  3.807720E-02 -8.158020E-03  6.291400E-02 -9.956780E-04  1.000000E+00  0.000000E+00  1.000000E+00  0.000000E+00
  0.000335125  3.860550E-02 -8.845680E-03  6.257810E-02 -1.952530E-03  1.000000E+00  0.000000E+00  1.000000E+00  0.000000E+00
  0.000337600  3.950620E-02 -8.245530E-03  6.247630E-02 -1.677090E-03  1.000000E+00  0.000000E+00  1.000000E+00  0.000000E+00
  0.000340075  3.942950E-02 -8.987320E-03  6.245840E-02 -1.753080E-03  1.000000E+00  0.000000E+00  1.000000E+00  0.000000E+00
  0.000342550  3.898390E-02 -8.217020E-03  6.229190E-02 -2.419570E-03  1.000000E+00  0.000000E+00  1.000000E+00  0.000000E+00
  0.000345025  3.957930E-02 -8.621160E-03  6.155310E-02 -2.792960E-03  1.000000E+00  0.000000E+00  1.000000E+00  0.000000E+00
  0.000347500  4.025480E-02 -8.570670E-03  6.183770E-02 -2.696710E-03  1.000000E+00  0.000000E+00  1.000000E+00  0.000000E+00
  0.000349975  3.955100E-02 -7.191870E-03  6.314400E-02 -3.345110E-03  1.000000E+00  0.000000E+00  1.000000E+00  0.000000E+00
  0.000352450  4.012040E-02 -8.210800E-03  6.256050E-02 -2.894290E-03  1.000000E+00  0.000000E+00  1.000000E+00  0.000000E+00
  0.000354925  3.998010E-02 -7.220130E-03  6.198940E-02 -3.795550E-03  1.000000E+00  0.000000E+00  1.000000E+00  0.000000E+00
  0.000357400  3.956990E-02 -7.557360E-03  6.106760E-02 -4.060600E-03  1.000000E+00  0.000000E+00  1.000000E+00  0.000000E+00
  0.000359875  4.038160E-02 -8.001040E-03  6.231550E-02 -4.634800E-03  1.000000E+00  0.000000E+00  1.000000E+00  0.000000E+00
  0.000362350  4.023610E-02 -8.513260E-03  6.204720E-02 -4.819910E-03  1.000000E+00  0.000000E+00  1.000000E+00  0.000000E+00
  0.000364825  4.120180E-02 -7.273880E-03  6.146360E-02 -4.301400E-03  1.000000E+00  0.000000E+00  1.000000E+00  0.000000E+00
  0.000367300  4.124820E-02 -8.661590E-03  6.055630E-02 -4.765240E-03  1.000000E+00  0.000000E+00  1.000000E+00  0.000000E+00
  0.000369775  4.041770E-02 -6.653090E-03  6.145670E-02 -6.028710E-03  1.000000E+00  0.000000E+00  1.000000E+00  0.000000E+00
  0.000372250  4.088880E-02 -8.293530E-03  6.123990E-02 -5.946870E-03  1.000000E+00  0.000000E+00  1.000000E+00  0.000000E+00
  0.000374725  4.052170E-02 -7.298120E-03  6.093200E-02 -5.844110E-03  1.000000E+00  0.000000E+00  1.000000E+00  0.000000E+00
  0.000377200  4.059980E-02 -7.892320E-03  6.079720E-02 -4.959920E-03  1.000000E+00  0.000000E+00  1.000000E+00  0.000000E+00
  0.000379675  4.158540E-02 -7.722020E-03  6.102620E-02 -6.308590E-03  1.000000E+00  0.000000E+00  1.000000E+00  0.000000E+00
  0.000382150  4.045130E-02 -7.842270E-03  6.063170E-02 -6.806940E-03  1.000000E+00  0.000000E+00  1.000000E+00  0.000000E+00
  0.000384625  4.167230E-02 -7.666200E-03  6.082480E-02 -6.433890E-03  1.000000E+00  0.000000E+00  1.000000E+00  0.000000E+00
  0.000387100  3.969970E-02 -7.909330E-03  6.069770E-02 -6.291290E-03  1.000000E+00  0.000000E+00  1.000000E+00  0.000000E+00
  0.000389575  4.153840E-02 -7.470540E-03  6.029250E-02 -6.943480E-03  1.000000E+00  0.000000E+00  1.000000E+00  0.000000E+00
  0.000392050  4.095770E-02 -6.267430E-03  6.032790E-02 -8.130260E-03  1.000000E+00  0.000000E+00  1.000000E+00  0.000000E+00
  0.000394525  4.122440E-02 -6.702220E-03  6.104530E-02 -7.547230E-03  1.000000E+00  0.000000E+00  1.000000E+00  0.000000E+00
  0.000397000  4.070030E-02 -6.700890E-03  6.008520E-02 -7.555660E-03  1.000000E+00  0.000000E+00  1.000000E+00  0.000000E+00
  0.000399475  4.097130E-02 -7.968740E-03  6.050190E-02 -6.504370E-03  1.000000E+00  0.000000E+00  1.000000E+00  0.000000E+00
  0.000401950  4.112800E-02 -8.024170E-03  6.066730E-02 -7.841040E-03  1.000000E+00  0.000000E+00  1.000000E+00  0.000000E+00
  0.000404425  4.218600E-02 -6.304070E-03  5.999350E-02 -8.277510E-03  1.000000E+00  0.000000E+00  1.000000E+00  0.000000E+00
  0.000406900  4.143870E-02 -7.940960E-03  6.058250E-02 -8.571140E-03  1.000000E+00  0.000000E+00  1.000000E+00  0.000000E+00
  0.000409375  4.110920E-02 -7.778720E-03  6.063250E-02 -8.214660E-03  1.000000E+00  0.000000E+00  1.000000E+00  0.000000E+00
  0.000411850  4.182760E-02 -7.981530E-03  6.012470E-02 -9.101660E-03  1.000000E+00  0.000000E+00  1.000000E+00  0.000000E+00
  0.000414325  4.172680E-02 -6.378660E-03  5.993350E-02 -9.085670E-03  1.000000E+00  0.000000E+00  1.000000E+00  0.000000E+00
  0.000416800  4.136590E-02 -6.825280E-03  6.012070E-02 -9.569600E-03  1.000000E+00  0.000000E+00  1.000000E+00  0.000000E+00
  0.000419275  4.213950E-02 -7.595400E-03  6.024560E-02 -9.460500E-03  1.000000E+00  0.000000E+00  1.000000E+00  0.000000E+00
  0.000421750  4.244510E-02 -7.103140E-03  5.987100E-02 -1.001190E-02  1.000000E+00  0.000000E+00  1.000000E+00  0.000000E+00
  0.000424225  4.283930E-02 -6.245830E-03  5.980970E-02 -1.064850E-02  1.000000E+00  0.000000E+00  1.000000E+00  0.000000E+00
  0.000426700  4.144260E-02 -7.199690E-03  5.975360E-02 -1.037430E-02  1.000000E+00  0.000000E+00  1.000000E+00  0.000000E+00
  0.000429175  4.133490E-02 -7.156600E-03  5.986440E-02 -1.051500E-02  1.000000E+00  0.000000E+00  1.000000E+00  0.000000E+00
  0.000431650  4.186390E-02 -7.395700E-03  5.975350E-02 -1.048750E-02  1.000000E+00  0.000000E+00  1.000000E+00  0.000000E+00
  0.000434125  4.233010E-02 -7.618990E-03  5.949850E-02 -1.023630E-02  1.000000E+00  0.000000E+00  1.000000E+00  0.000000E+00
  0.000436600  4.134320E-02 -6.490030E-03  5.928590E-02 -1.107190E-02  1.000000E+00  0.000000E+00  1.000000E+00  0.000000E+00
  0.000439075  4.208970E-02 -6.678720E-03  5.890400E-02 -1.155930E-02  1.000000E+00  0.000000E+00  1.000000E+00  0.000000E+00
  0.000441550  4.284690E-02 -6.225470E-03  5.929420E-02 -1.150420E-02  1.000000E+00  0.000000E+00  1.000000E+00  0.000000E+00
  0.000444025  4.245350E-02 -6.084650E-03  5.963290E-02 -1.146160E-02  1.000000E+00  0.000000E+00  1.000000E+00  0.000000E+00
  0.000446500  4.245390E-02 -6.842430E-03  5.914770E-02 -1.118220E-02  1.000000E+00  0.000000E+00  1.000000E+00  0.000000E+00
  0.000448975  4.228870E-02 -5.993340E-03  5.929430E-02 -1.157250E-02  1.000000E+00  0.000000E+00  1.000000E+00  0.000000E+00
  0.000451450  4.239410E-02 -6.988350E-03  5.930620E-02 -1.197280E-02  1.000000E+00  0.000000E+00  1.000000E+00  0.000000E+00
  0.000453925  4.139670E-02 -6.534610E-03  5.920920E-02 -1.251990E-02  1.000000E+00  0.000000E+00  1.000000E+00  0.000000E+00
