! Anritsu VNA Master:                        Model: MS2026C/19
! SN:                                  1815009
! /card0/usr/20180902_21.s2p
! Existing Calibration Information:
! TYPE:                         Current Settings,       Active Cal Settings
! TIME:             	   09/02/2018 02:26:02 PM,    09/02/2018 11:58:48 AM
! INTERNAL TEMP:    	                   47.0 C,                    48.8 C
! # POINTS:         	                     4001,                      4001
! START FREQ:       	              100.000 kHz,               100.000 kHz
! STOP FREQ:        	               10.000 MHz,                10.000 MHz
! SOURCE POWER:     	                      Low,                       Low
! IFBW:             	                   500 Hz,                    500 Hz
! AVG FACTOR:       	                       1 ,                        1 
! REF PLANE 1:      	                     0 mm,                      0 mm
! REF PLANE 2:      	                     0 mm,                      0 mm
! CAL TYPE:         	             1P2P S11,S21,              1P2P S11,S21
! CAL METHOD:       	                     SOLT,                      SOLT
! CAL LINE TYPE:    	                     Coax,                      Coax
! DUT PORT 1:       	                N-Conn(M),                 N-Conn(M)
! DUT PORT 2:       	                N-Conn(M),                 N-Conn(M)
! CAL STATUS:       	        OK: Accuracy High,                        --
# GHZ S RI R 50.0
! FREQ.GHZ      S11RE         S11IM         S21RE         S21IM         S12RE         S12IM         S22RE         S22IM
  0.000100000  5.275800E-03 -6.542210E-02  2.363480E-04 -5.845430E-04  1.000000E+00  0.000000E+00  1.000000E+00  0.000000E+00
  0.000102475  6.641660E-03 -6.172140E-02  8.249290E-05 -3.146740E-04  1.000000E+00  0.000000E+00  1.000000E+00  0.000000E+00
  0.000104950  6.946640E-03 -5.996500E-02  1.123800E-04 -7.833230E-04  1.000000E+00  0.000000E+00  1.000000E+00  0.000000E+00
  0.000107425  8.633260E-03 -5.799500E-02 -3.657470E-04 -1.260330E-03  1.000000E+00  0.000000E+00  1.000000E+00  0.000000E+00
  0.000109900  1.073610E-02 -5.509820E-02 -2.472370E-04  1.120640E-04  1.000000E+00  0.000000E+00  1.000000E+00  0.000000E+00
  0.000112375  1.023700E-02 -5.483690E-02  4.536500E-05 -9.563410E-04  1.000000E+00  0.000000E+00  1.000000E+00  0.000000E+00
  0.000114850  1.162940E-02 -5.278860E-02  2.729840E-04 -8.164780E-04  1.000000E+00  0.000000E+00  1.000000E+00  0.000000E+00
  0.000117325  1.291700E-02 -5.082920E-02 -4.729220E-04 -2.224090E-04  1.000000E+00  0.000000E+00  1.000000E+00  0.000000E+00
  0.000119800  1.393430E-02 -4.843200E-02 -1.687380E-03 -7.606600E-04  1.000000E+00  0.000000E+00  1.000000E+00  0.000000E+00
  0.000122275  1.459250E-02 -4.623220E-02  1.350330E-04 -8.468390E-04  1.000000E+00  0.000000E+00  1.000000E+00  0.000000E+00
  0.000124750  1.550060E-02 -4.731600E-02  5.281270E-04 -5.807500E-04  1.000000E+00  0.000000E+00  1.000000E+00  0.000000E+00
  0.000127225  1.504060E-02 -4.582360E-02 -9.229720E-04 -6.288080E-04  1.000000E+00  0.000000E+00  1.000000E+00  0.000000E+00
  0.000129700  1.619010E-02 -4.180050E-02 -2.740610E-04  6.716780E-05  1.000000E+00  0.000000E+00  1.000000E+00  0.000000E+00
  0.000132175  1.641850E-02 -4.306470E-02  4.464540E-04  8.915740E-05  1.000000E+00  0.000000E+00  1.000000E+00  0.000000E+00
  0.000134650  1.720730E-02 -4.140850E-02 -2.318420E-04 -1.777480E-04  1.000000E+00  0.000000E+00  1.000000E+00  0.000000E+00
  0.000137125  1.810520E-02 -4.092040E-02  2.824360E-04 -5.647810E-04  1.000000E+00  0.000000E+00  1.000000E+00  0.000000E+00
  0.000139600  1.817590E-02 -3.899940E-02 -2.610930E-04 -1.467790E-04  1.000000E+00  0.000000E+00  1.000000E+00  0.000000E+00
  0.000142075  2.013240E-02 -3.883970E-02 -1.108320E-04 -1.109710E-03  1.000000E+00  0.000000E+00  1.000000E+00  0.000000E+00
  0.000144550  1.964130E-02 -3.785270E-02 -3.915490E-04 -1.675210E-04  1.000000E+00  0.000000E+00  1.000000E+00  0.000000E+00
  0.000147025  2.002000E-02 -3.770940E-02  8.767800E-05 -6.735670E-04  1.000000E+00  0.000000E+00  1.000000E+00  0.000000E+00
  0.000149500  2.051000E-02 -3.579300E-02 -6.650040E-04 -2.704580E-04  1.000000E+00  0.000000E+00  1.000000E+00  0.000000E+00
  0.000151975  2.083520E-02 -3.551410E-02  2.786150E-04 -6.053220E-04  1.000000E+00  0.000000E+00  1.000000E+00  0.000000E+00
  0.000154450  2.080270E-02 -3.237460E-02 -3.723010E-04 -1.276520E-03  1.000000E+00  0.000000E+00  1.000000E+00  0.000000E+00
  0.000156925  2.333210E-02 -3.236710E-02  2.058140E-04  2.999480E-04  1.000000E+00  0.000000E+00  1.000000E+00  0.000000E+00
  0.000159400  2.221780E-02 -3.247240E-02  4.128660E-04 -7.526320E-04  1.000000E+00  0.000000E+00  1.000000E+00  0.000000E+00
  0.000161875  2.278260E-02 -3.267790E-02 -2.243120E-04 -5.186390E-04  1.000000E+00  0.000000E+00  1.000000E+00  0.000000E+00
  0.000164350  2.165210E-02 -3.158020E-02 -4.852270E-04 -7.668070E-04  1.000000E+00  0.000000E+00  1.000000E+00  0.000000E+00
  0.000166825  2.288380E-02 -3.107160E-02  8.326570E-04 -2.619810E-04  1.000000E+00  0.000000E+00  1.000000E+00  0.000000E+00
  0.000169300  2.366880E-02 -2.897080E-02  4.888430E-04  3.092750E-04  1.000000E+00  0.000000E+00  1.000000E+00  0.000000E+00
  0.000171775  2.253480E-02 -2.857750E-02  2.718460E-04 -1.022500E-04  1.000000E+00  0.000000E+00  1.000000E+00  0.000000E+00
  0.000174250  2.447580E-02 -2.917390E-02 -8.179750E-04  4.447310E-04  1.000000E+00  0.000000E+00  1.000000E+00  0.000000E+00
  0.000176725  2.436840E-02 -2.851410E-02 -1.029850E-04 -2.019640E-04  1.000000E+00  0.000000E+00  1.000000E+00  0.000000E+00
  0.000179200  2.495550E-02 -2.705340E-02  5.648220E-04 -1.243520E-03  1.000000E+00  0.000000E+00  1.000000E+00  0.000000E+00
  0.000181675  2.408850E-02 -2.742760E-02 -2.603590E-04 -1.179330E-03  1.000000E+00  0.000000E+00  1.000000E+00  0.000000E+00
  0.000184150  2.467080E-02 -2.707250E-02 -2.891940E-05 -1.263360E-03  1.000000E+00  0.000000E+00  1.000000E+00  0.000000E+00
  0.000186625  2.361000E-02 -2.697150E-02 -1.693290E-03 -3.878840E-04  1.000000E+00  0.000000E+00  1.000000E+00  0.000000E+00
  0.000189100  2.511640E-02 -2.570500E-02 -4.814990E-04 -8.589940E-04  1.000000E+00  0.000000E+00  1.000000E+00  0.000000E+00
  0.000191575  2.474160E-02 -2.640180E-02 -1.425810E-03 -7.252370E-04  1.000000E+00  0.000000E+00  1.000000E+00  0.000000E+00
  0.000194050  2.507950E-02 -2.418180E-02  5.486050E-04 -1.001200E-03  1.000000E+00  0.000000E+00  1.000000E+00  0.000000E+00
  0.000196525  2.635520E-02 -2.390760E-02  4.079460E-04 -6.461750E-04  1.000000E+00  0.000000E+00  1.000000E+00  0.000000E+00
  0.000199000  2.531370E-02 -2.332380E-02  3.211080E-04 -2.853360E-04  1.000000E+00  0.000000E+00  1.000000E+00  0.000000E+00
  0.000201475  2.555820E-02 -2.378190E-02 -3.964240E-04 -1.264350E-03  1.000000E+00  0.000000E+00  1.000000E+00  0.000000E+00
  0.000203950  2.581630E-02 -2.259030E-02  1.920640E-04  3.902740E-04  1.000000E+00  0.000000E+00  1.000000E+00  0.000000E+00
  0.000206425  2.699020E-02 -2.230950E-02 -4.370520E-04 -5.464570E-04  1.000000E+00  0.000000E+00  1.000000E+00  0.000000E+00
  0.000208900  2.665040E-02 -2.138390E-02 -9.886210E-04 -1.686410E-04  1.000000E+00  0.000000E+00  1.000000E+00  0.000000E+00
  0.000211375  2.764670E-02 -2.193700E-02  3.108840E-04 -1.182440E-03  1.000000E+00  0.000000E+00  1.000000E+00  0.000000E+00
  0.000213850  2.680240E-02 -1.944000E-02  9.101180E-05 -1.185540E-03  1.000000E+00  0.000000E+00  1.000000E+00  0.000000E+00
  0.000216325  2.687670E-02 -2.092680E-02 -7.085140E-04 -8.769700E-04  1.000000E+00  0.000000E+00  1.000000E+00  0.000000E+00
  0.000218800  2.528030E-02 -2.073160E-02  1.976300E-04 -1.570390E-03  1.000000E+00  0.000000E+00  1.000000E+00  0.000000E+00
  0.000221275  2.915930E-02 -1.858180E-02 -2.748600E-04 -9.994900E-04  1.000000E+00  0.000000E+00  1.000000E+00  0.000000E+00
  0.000223750  2.793370E-02 -1.977330E-02  1.491760E-04 -3.400970E-04  1.000000E+00  0.000000E+00  1.000000E+00  0.000000E+00
  0.000226225  2.860760E-02 -1.787430E-02 -4.556840E-04 -3.436500E-04  1.000000E+00  0.000000E+00  1.000000E+00  0.000000E+00
  0.000228700  2.728760E-02 -1.801820E-02  2.545270E-04 -4.097070E-04  1.000000E+00  0.000000E+00  1.000000E+00  0.000000E+00
  0.000231175  2.688890E-02 -1.853170E-02 -5.734660E-04 -3.819120E-04  1.000000E+00  0.000000E+00  1.000000E+00  0.000000E+00
  0.000233650  2.862450E-02 -1.761060E-02 -6.619610E-04 -1.693800E-03  1.000000E+00  0.000000E+00  1.000000E+00  0.000000E+00
  0.000236125  2.645000E-02 -1.638870E-02 -3.609350E-05  2.525970E-04  1.000000E+00  0.000000E+00  1.000000E+00  0.000000E+00
  0.000238600  2.863120E-02 -1.740390E-02 -1.621590E-04 -8.548870E-05  1.000000E+00  0.000000E+00  1.000000E+00  0.000000E+00
  0.000241075  2.762560E-02 -1.671840E-02 -1.118310E-03 -9.221080E-04  1.000000E+00  0.000000E+00  1.000000E+00  0.000000E+00
  0.000243550  2.927930E-02 -1.724070E-02 -1.883880E-03 -4.476730E-04  1.000000E+00  0.000000E+00  1.000000E+00  0.000000E+00
  0.000246025  2.955050E-02 -1.532770E-02  5.362320E-05 -1.370720E-03  1.000000E+00  0.000000E+00  1.000000E+00  0.000000E+00
  0.000248500  2.969880E-02 -1.664870E-02 -6.820130E-04 -2.272960E-04  1.000000E+00  0.000000E+00  1.000000E+00  0.000000E+00
  0.000250975  2.985860E-02 -1.613220E-02  1.877820E-04 -2.546720E-04  1.000000E+00  0.000000E+00  1.000000E+00  0.000000E+00
  0.000253450  2.969120E-02 -1.507670E-02 -1.510740E-03 -4.486070E-04  1.000000E+00  0.000000E+00  1.000000E+00  0.000000E+00
  0.000255925  2.888960E-02 -1.358330E-02 -1.399130E-03 -4.536020E-04  1.000000E+00  0.000000E+00  1.000000E+00  0.000000E+00
  0.000258400  2.891840E-02 -1.429170E-02 -1.716700E-03 -1.189600E-04  1.000000E+00  0.000000E+00  1.000000E+00  0.000000E+00
  0.000260875  2.954990E-02 -1.423710E-02 -9.276480E-04 -3.316670E-04  1.000000E+00  0.000000E+00  1.000000E+00  0.000000E+00
  0.000263350  2.863170E-02 -1.414110E-02 -6.859490E-04 -9.532620E-04  1.000000E+00  0.000000E+00  1.000000E+00  0.000000E+00
  0.000265825  2.887670E-02 -1.351980E-02 -7.953120E-04 -2.450900E-04  1.000000E+00  0.000000E+00  1.000000E+00  0.000000E+00
  0.000268300  2.972850E-02 -1.315850E-02 -1.410480E-05 -7.224920E-04  1.000000E+00  0.000000E+00  1.000000E+00  0.000000E+00
  0.000270775  3.025470E-02 -1.284570E-02 -4.183470E-04 -1.695440E-03  1.000000E+00  0.000000E+00  1.000000E+00  0.000000E+00
  0.000273250  3.019290E-02 -1.260200E-02 -1.059420E-04 -1.608410E-03  1.000000E+00  0.000000E+00  1.000000E+00  0.000000E+00
  0.000275725  3.079040E-02 -1.248970E-02 -1.341230E-03 -2.086860E-03  1.000000E+00  0.000000E+00  1.000000E+00  0.000000E+00
  0.000278200  3.045410E-02 -1.230790E-02 -1.844750E-03 -1.333860E-03  1.000000E+00  0.000000E+00  1.000000E+00  0.000000E+00
  0.000280675  3.098300E-02 -1.207700E-02 -1.201190E-03 -7.698570E-04  1.000000E+00  0.000000E+00  1.000000E+00  0.000000E+00
  0.000283150  3.043520E-02 -1.217390E-02 -1.162830E-03 -1.974540E-03  1.000000E+00  0.000000E+00  1.000000E+00  0.000000E+00
  0.000285625  2.958660E-02 -1.060880E-02 -2.365820E-03 -1.676150E-03  1.000000E+00  0.000000E+00  1.000000E+00  0.000000E+00
  0.000288100  2.998530E-02 -1.093530E-02 -1.043660E-03 -2.384240E-03  1.000000E+00  0.000000E+00  1.000000E+00  0.000000E+00
  0.000290575  2.876430E-02 -9.648270E-03 -1.368810E-03 -1.529350E-03  1.000000E+00  0.000000E+00  1.000000E+00  0.000000E+00
  0.000293050  3.106820E-02 -9.803420E-03 -1.767430E-03 -3.911760E-04  1.000000E+00  0.000000E+00  1.000000E+00  0.000000E+00
  0.000295525  3.007950E-02 -9.770720E-03 -1.438300E-03 -8.524900E-04  1.000000E+00  0.000000E+00  1.000000E+00  0.000000E+00
  0.000298000  3.097760E-02 -1.055590E-02 -3.407640E-03 -2.441600E-03  1.000000E+00  0.000000E+00  1.000000E+00  0.000000E+00
  0.000300475  3.138180E-02 -1.030370E-02 -1.705540E-03  1.212790E-05  1.000000E+00  0.000000E+00  1.000000E+00  0.000000E+00
  0.000302950  3.094170E-02 -8.802250E-03 -1.545160E-03 -2.666530E-03  1.000000E+00  0.000000E+00  1.000000E+00  0.000000E+00
  0.000305425  3.076490E-02 -7.043140E-03 -3.275640E-03 -8.888320E-04  1.000000E+00  0.000000E+00  1.000000E+00  0.000000E+00
  0.000307900  3.130600E-02 -8.349990E-03 -3.745450E-03 -1.538990E-03  1.000000E+00  0.000000E+00  1.000000E+00  0.000000E+00
  0.000310375  3.187850E-02 -8.805900E-03 -2.265160E-03 -2.174480E-03  1.000000E+00  0.000000E+00  1.000000E+00  0.000000E+00
  0.000312850  3.047990E-02 -8.269550E-03 -1.628930E-03 -1.229350E-03  1.000000E+00  0.000000E+00  1.000000E+00  0.000000E+00
  0.000315325  3.060510E-02 -8.196890E-03 -1.023050E-03 -8.741560E-04  1.000000E+00  0.000000E+00  1.000000E+00  0.000000E+00
  0.000317800  3.226320E-02 -6.718780E-03 -4.018560E-03 -4.256200E-04  1.000000E+00  0.000000E+00  1.000000E+00  0.000000E+00
  0.000320275  3.147740E-02 -5.460210E-03 -3.624090E-03  6.537270E-06  1.000000E+00  0.000000E+00  1.000000E+00  0.000000E+00
  0.000322750  3.267230E-02 -5.400830E-03 -2.203810E-03 -6.211090E-04  1.000000E+00  0.000000E+00  1.000000E+00  0.000000E+00
  0.000325225  3.208870E-02 -7.611050E-03 -2.766580E-03 -6.757670E-04  1.000000E+00  0.000000E+00  1.000000E+00  0.000000E+00
  0.000327700  3.293620E-02 -6.224510E-03 -4.147430E-03  4.381590E-04  1.000000E+00  0.000000E+00  1.000000E+00  0.000000E+00
  0.000330175  3.166820E-02 -5.415980E-03 -6.847060E-03  1.409850E-03  1.000000E+00  0.000000E+00  1.000000E+00  0.000000E+00
  0.000332650  3.286180E-02 -5.086940E-03 -2.566600E-03 -3.569310E-04  1.000000E+00  0.000000E+00  1.000000E+00  0.000000E+00
  0.000335125  3.406980E-02 -4.084550E-03 -3.743210E-03  6.250310E-04  1.000000E+00  0.000000E+00  1.000000E+00  0.000000E+00
  0.000337600  3.289370E-02 -4.564370E-03 -3.847000E-03  1.985380E-03  1.000000E+00  0.000000E+00  1.000000E+00  0.000000E+00
  0.000340075  3.471730E-02 -4.467920E-03 -7.974890E-03  5.681220E-03  1.000000E+00  0.000000E+00  1.000000E+00  0.000000E+00
  0.000342550  3.319130E-02 -4.460860E-03 -2.871040E-03  1.049520E-03  1.000000E+00  0.000000E+00  1.000000E+00  0.000000E+00
  0.000345025  3.390670E-02 -5.359660E-03 -3.419090E-03  5.905540E-04  1.000000E+00  0.000000E+00  1.000000E+00  0.000000E+00
  0.000347500  3.506300E-02 -3.727010E-03 -4.215220E-03  2.560050E-03  1.000000E+00  0.000000E+00  1.000000E+00  0.000000E+00
  0.000349975  3.523980E-02 -4.441880E-03 -5.124930E-03  7.276080E-03  1.000000E+00  0.000000E+00  1.000000E+00  0.000000E+00
  0.000352450  3.453620E-02 -5.346870E-03 -2.503060E-03  3.225780E-03  1.000000E+00  0.000000E+00  1.000000E+00  0.000000E+00
  0.000354925  3.433030E-02 -1.588640E-03 -4.040420E-03  1.281730E-03  1.000000E+00  0.000000E+00  1.000000E+00  0.000000E+00
  0.000357400  3.381660E-02 -4.696430E-03 -4.969880E-03  2.218550E-03  1.000000E+00  0.000000E+00  1.000000E+00  0.000000E+00
  0.000359875  3.605510E-02 -3.590170E-03 -3.606520E-03  6.951320E-03  1.000000E+00  0.000000E+00  1.000000E+00  0.000000E+00
  0.000362350  3.505530E-02 -3.820120E-03 -7.571670E-04  5.865160E-03  1.000000E+00  0.000000E+00  1.000000E+00  0.000000E+00
  0.000364825  3.679400E-02 -1.346040E-03 -4.526930E-03  1.914080E-03  1.000000E+00  0.000000E+00  1.000000E+00  0.000000E+00
  0.000367300  3.526310E-02 -3.245740E-03 -5.712910E-03  5.700940E-03  1.000000E+00  0.000000E+00  1.000000E+00  0.000000E+00
  0.000369775  3.576710E-02 -3.011640E-03 -9.871520E-04  8.740010E-03  1.000000E+00  0.000000E+00  1.000000E+00  0.000000E+00
  0.000372250  3.577110E-02 -3.823360E-03  1.939550E-03  4.667980E-03  1.000000E+00  0.000000E+00  1.000000E+00  0.000000E+00
  0.000374725  3.594840E-02 -2.854820E-03 -4.841560E-03  6.147770E-03  1.000000E+00  0.000000E+00  1.000000E+00  0.000000E+00
  0.000377200  3.464770E-02 -2.993380E-03 -3.500940E-03  7.905070E-03  1.000000E+00  0.000000E+00  1.000000E+00  0.000000E+00
  0.000379675  3.641080E-02 -2.691590E-03 -8.845370E-04  8.888310E-03  1.000000E+00  0.000000E+00  1.000000E+00  0.000000E+00
  0.000382150  3.589240E-02 -4.127290E-03  1.936350E-03  4.291550E-03  1.000000E+00  0.000000E+00  1.000000E+00  0.000000E+00
  0.000384625  3.820060E-02 -2.673670E-03 -1.445840E-03  6.569980E-03  1.000000E+00  0.000000E+00  1.000000E+00  0.000000E+00
  0.000387100  3.595720E-02 -3.388430E-03 -1.442040E-03  7.683860E-03  1.000000E+00  0.000000E+00  1.000000E+00  0.000000E+00
  0.000389575  3.648400E-02 -1.357960E-03  2.991220E-03  7.434130E-03  1.000000E+00  0.000000E+00  1.000000E+00  0.000000E+00
  0.000392050  3.590590E-02 -1.869950E-03  2.422100E-03  3.623900E-03  1.000000E+00  0.000000E+00  1.000000E+00  0.000000E+00
  0.000394525  3.814990E-02 -2.667890E-03  2.495070E-03  4.987000E-03  1.000000E+00  0.000000E+00  1.000000E+00  0.000000E+00
  0.000397000  3.746090E-02 -9.012630E-04  2.017340E-03  7.405450E-03  1.000000E+00  0.000000E+00  1.000000E+00  0.000000E+00
  0.000399475  3.762130E-02 -1.398560E-03  4.612170E-03  4.978620E-03  1.000000E+00  0.000000E+00  1.000000E+00  0.000000E+00
  0.000401950  3.831990E-02 -2.705050E-03  4.668680E-03  3.545530E-03  1.000000E+00  0.000000E+00  1.000000E+00  0.000000E+00
  0.000404425  3.925130E-02 -2.008800E-03  1.455930E-03  2.461120E-03  1.000000E+00  0.000000E+00  1.000000E+00  0.000000E+00
  0.000406900  4.029730E-02 -2.954540E-03  2.947320E-03  4.334450E-03  1.000000E+00  0.000000E+00  1.000000E+00  0.000000E+00
  0.000409375  3.875090E-02 -1.304950E-03  4.802060E-03  3.577290E-03  1.000000E+00  0.000000E+00  1.000000E+00  0.000000E+00
  0.000411850  3.896080E-02 -2.384880E-03  5.115840E-03  2.426210E-03  1.000000E+00  0.000000E+00  1.000000E+00  0.000000E+00
  0.000414325  3.847630E-02 -1.347170E-03  2.431690E-03  9.799320E-04  1.000000E+00  0.000000E+00  1.000000E+00  0.000000E+00
  0.000416800  4.015980E-02 -1.587650E-03  5.261400E-03  1.755820E-03  1.000000E+00  0.000000E+00  1.000000E+00  0.000000E+00
  0.000419275  3.796280E-02 -1.232750E-04  5.681680E-03  1.630450E-03  1.000000E+00  0.000000E+00  1.000000E+00  0.000000E+00
  0.000421750  4.132240E-02 -1.234580E-03  4.758600E-03  1.421350E-03  1.000000E+00  0.000000E+00  1.000000E+00  0.000000E+00
  0.000424225  4.167830E-02 -8.972020E-04  2.275560E-03  1.688120E-03  1.000000E+00  0.000000E+00  1.000000E+00  0.000000E+00
  0.000426700  3.926210E-02 -1.366220E-03  4.155310E-03  1.909680E-03  1.000000E+00  0.000000E+00  1.000000E+00  0.000000E+00
  0.000429175  3.972100E-02 -1.793590E-03  4.921130E-03  1.536750E-03  1.000000E+00  0.000000E+00  1.000000E+00  0.000000E+00
  0.000431650  3.812620E-02 -2.830670E-03  5.954220E-03 -1.329480E-03  1.000000E+00  0.000000E+00  1.000000E+00  0.000000E+00
  0.000434125  4.087980E-02 -1.997490E-03  3.762480E-03  2.025950E-04  1.000000E+00  0.000000E+00  1.000000E+00  0.000000E+00
  0.000436600  3.869520E-02 -2.404730E-03  2.837180E-03  1.675680E-03  1.000000E+00  0.000000E+00  1.000000E+00  0.000000E+00
  0.000439075  3.891570E-02 -1.171320E-03  4.229000E-03 -2.559830E-03  1.000000E+00  0.000000E+00  1.000000E+00  0.000000E+00
  0.000441550  4.146760E-02 -1.329230E-03  3.992250E-03 -1.843240E-03  1.000000E+00  0.000000E+00  1.000000E+00  0.000000E+00
  0.000444025  4.065270E-02 -1.674930E-03  5.107100E-03 -1.528070E-03  1.000000E+00  0.000000E+00  1.000000E+00  0.000000E+00
  0.000446500  4.025780E-02 -1.731500E-03  2.834350E-03  2.848750E-04  1.000000E+00  0.000000E+00  1.000000E+00  0.000000E+00
  0.000448975  4.128520E-02 -1.959700E-03  2.726030E-03 -2.970800E-03  1.000000E+00  0.000000E+00  1.000000E+00  0.000000E+00
  0.000451450  4.120110E-02 -1.017090E-03  2.128550E-03 -3.126780E-03  1.000000E+00  0.000000E+00  1.000000E+00  0.000000E+00
  0.000453925  4.131730E-02 -1.489450E-03  1.518370E-03 -2.868980E-03  1.000000E+00  0.000000E+00  1.000000E+00  0.000000E+00
