! Anritsu VNA Master:                        Model: MS2026C/19
! SN:                                  1815009
! /card0/usr/20180209_37.s2p
! Existing Calibration Information:
! TYPE:                         Current Settings,       Active Cal Settings
! TIME:             	   09/02/2018 10:49:57 PM,    09/02/2018 11:58:48 AM
! INTERNAL TEMP:    	                   51.3 C,                    48.8 C
! # POINTS:         	                     4001,                      4001
! START FREQ:       	              100.000 kHz,               100.000 kHz
! STOP FREQ:        	               10.000 MHz,                10.000 MHz
! SOURCE POWER:     	                      Low,                       Low
! IFBW:             	                   500 Hz,                    500 Hz
! AVG FACTOR:       	                       1 ,                        1 
! REF PLANE 1:      	                     0 mm,                      0 mm
! REF PLANE 2:      	                     0 mm,                      0 mm
! CAL TYPE:         	             1P2P S11,S21,              1P2P S11,S21
! CAL METHOD:       	                     SOLT,                      SOLT
! CAL LINE TYPE:    	                     Coax,                      Coax
! DUT PORT 1:       	                N-Conn(M),                 N-Conn(M)
! DUT PORT 2:       	                N-Conn(M),                 N-Conn(M)
! CAL STATUS:       	        OK: Accuracy High,                        --
# GHZ S RI R 50.0
! FREQ.GHZ      S11RE         S11IM         S21RE         S21IM         S12RE         S12IM         S22RE         S22IM
  0.000100000  7.958070E-03 -6.117030E-02  1.701600E-04 -3.362580E-04  1.000000E+00  0.000000E+00  1.000000E+00  0.000000E+00
  0.000102475  9.426840E-03 -5.861230E-02 -6.981000E-04 -1.269370E-04  1.000000E+00  0.000000E+00  1.000000E+00  0.000000E+00
  0.000104950  1.023360E-02 -5.611150E-02  9.206860E-04 -3.223450E-04  1.000000E+00  0.000000E+00  1.000000E+00  0.000000E+00
  0.000107425  1.147940E-02 -5.398540E-02  7.420040E-04 -9.094490E-04  1.000000E+00  0.000000E+00  1.000000E+00  0.000000E+00
  0.000109900  1.257110E-02 -5.224260E-02 -1.394160E-04 -4.386750E-04  1.000000E+00  0.000000E+00  1.000000E+00  0.000000E+00
  0.000112375  1.266490E-02 -5.100630E-02  6.842530E-06 -7.892390E-04  1.000000E+00  0.000000E+00  1.000000E+00  0.000000E+00
  0.000114850  1.397430E-02 -5.066570E-02 -1.547770E-04  3.230940E-04  1.000000E+00  0.000000E+00  1.000000E+00  0.000000E+00
  0.000117325  1.654360E-02 -4.777440E-02  2.335960E-04 -5.000920E-04  1.000000E+00  0.000000E+00  1.000000E+00  0.000000E+00
  0.000119800  1.544360E-02 -4.476350E-02  2.093460E-04 -6.451380E-04  1.000000E+00  0.000000E+00  1.000000E+00  0.000000E+00
  0.000122275  1.626430E-02 -4.396560E-02  3.943510E-04 -6.284870E-04  1.000000E+00  0.000000E+00  1.000000E+00  0.000000E+00
  0.000124750  1.859890E-02 -4.390850E-02  2.218950E-04  8.721550E-04  1.000000E+00  0.000000E+00  1.000000E+00  0.000000E+00
  0.000127225  1.720300E-02 -4.214560E-02  1.068170E-04  8.452410E-04  1.000000E+00  0.000000E+00  1.000000E+00  0.000000E+00
  0.000129700  1.927840E-02 -3.956760E-02 -3.286070E-04  9.638330E-05  1.000000E+00  0.000000E+00  1.000000E+00  0.000000E+00
  0.000132175  2.072410E-02 -3.942510E-02 -6.051600E-04 -5.943390E-05  1.000000E+00  0.000000E+00  1.000000E+00  0.000000E+00
  0.000134650  2.064990E-02 -3.868930E-02 -2.945760E-04 -1.939760E-04  1.000000E+00  0.000000E+00  1.000000E+00  0.000000E+00
  0.000137125  2.126940E-02 -3.562960E-02  2.507250E-04  2.930450E-04  1.000000E+00  0.000000E+00  1.000000E+00  0.000000E+00
  0.000139600  2.358340E-02 -3.736570E-02 -7.870800E-04 -5.042840E-04  1.000000E+00  0.000000E+00  1.000000E+00  0.000000E+00
  0.000142075  2.281270E-02 -3.524550E-02  7.106160E-04  5.887060E-04  1.000000E+00  0.000000E+00  1.000000E+00  0.000000E+00
  0.000144550  2.406560E-02 -3.432540E-02  2.766770E-04  3.988200E-04  1.000000E+00  0.000000E+00  1.000000E+00  0.000000E+00
  0.000147025  2.475110E-02 -3.301200E-02 -1.883490E-05 -3.884780E-04  1.000000E+00  0.000000E+00  1.000000E+00  0.000000E+00
  0.000149500  2.475350E-02 -3.242010E-02 -1.566090E-04 -3.866590E-04  1.000000E+00  0.000000E+00  1.000000E+00  0.000000E+00
  0.000151975  2.603230E-02 -3.240620E-02  1.990090E-04 -9.169540E-05  1.000000E+00  0.000000E+00  1.000000E+00  0.000000E+00
  0.000154450  2.612310E-02 -3.094390E-02  1.590530E-04  2.898060E-04  1.000000E+00  0.000000E+00  1.000000E+00  0.000000E+00
  0.000156925  2.551480E-02 -3.062590E-02  1.118000E-03  1.116240E-03  1.000000E+00  0.000000E+00  1.000000E+00  0.000000E+00
  0.000159400  2.586740E-02 -2.906000E-02 -2.058840E-04 -1.638460E-04  1.000000E+00  0.000000E+00  1.000000E+00  0.000000E+00
  0.000161875  2.760650E-02 -3.002890E-02 -3.399140E-04  5.782810E-05  1.000000E+00  0.000000E+00  1.000000E+00  0.000000E+00
  0.000164350  2.859880E-02 -2.958000E-02  3.160360E-04  5.735110E-04  1.000000E+00  0.000000E+00  1.000000E+00  0.000000E+00
  0.000166825  2.799330E-02 -2.758350E-02 -7.550130E-04 -9.432070E-05  1.000000E+00  0.000000E+00  1.000000E+00  0.000000E+00
  0.000169300  2.965830E-02 -2.796160E-02 -8.634550E-04 -3.525620E-04  1.000000E+00  0.000000E+00  1.000000E+00  0.000000E+00
  0.000171775  2.915100E-02 -2.659320E-02 -8.975400E-04 -3.651760E-04  1.000000E+00  0.000000E+00  1.000000E+00  0.000000E+00
  0.000174250  2.921460E-02 -2.556150E-02 -2.428630E-04  2.162890E-04  1.000000E+00  0.000000E+00  1.000000E+00  0.000000E+00
  0.000176725  3.046630E-02 -2.573710E-02  1.349120E-04 -9.659850E-05  1.000000E+00  0.000000E+00  1.000000E+00  0.000000E+00
  0.000179200  2.964160E-02 -2.448790E-02 -1.945200E-04 -8.743550E-04  1.000000E+00  0.000000E+00  1.000000E+00  0.000000E+00
  0.000181675  2.989550E-02 -2.467130E-02  5.483250E-04  5.818510E-04  1.000000E+00  0.000000E+00  1.000000E+00  0.000000E+00
  0.000184150  3.124900E-02 -2.236780E-02  3.331550E-04 -4.920380E-04  1.000000E+00  0.000000E+00  1.000000E+00  0.000000E+00
  0.000186625  3.119620E-02 -2.402760E-02  7.947520E-05 -3.806090E-04  1.000000E+00  0.000000E+00  1.000000E+00  0.000000E+00
  0.000189100  3.010520E-02 -2.436350E-02 -5.188190E-04 -9.827500E-04  1.000000E+00  0.000000E+00  1.000000E+00  0.000000E+00
  0.000191575  3.065880E-02 -2.304030E-02 -5.814750E-04 -5.158230E-04  1.000000E+00  0.000000E+00  1.000000E+00  0.000000E+00
  0.000194050  3.103220E-02 -2.165310E-02  1.110690E-03 -1.020470E-04  1.000000E+00  0.000000E+00  1.000000E+00  0.000000E+00
  0.000196525  3.212480E-02 -2.124990E-02  1.365460E-04 -6.240270E-04  1.000000E+00  0.000000E+00  1.000000E+00  0.000000E+00
  0.000199000  3.197910E-02 -2.252310E-02  2.197620E-04  3.962360E-04  1.000000E+00  0.000000E+00  1.000000E+00  0.000000E+00
  0.000201475  3.463460E-02 -2.011120E-02  2.419970E-04  5.329830E-04  1.000000E+00  0.000000E+00  1.000000E+00  0.000000E+00
  0.000203950  3.159290E-02 -2.091400E-02 -3.616020E-05  7.901340E-04  1.000000E+00  0.000000E+00  1.000000E+00  0.000000E+00
  0.000206425  3.283020E-02 -2.127610E-02  1.044890E-04 -1.206600E-04  1.000000E+00  0.000000E+00  1.000000E+00  0.000000E+00
  0.000208900  3.285210E-02 -2.123120E-02  2.006540E-04 -4.859760E-05  1.000000E+00  0.000000E+00  1.000000E+00  0.000000E+00
  0.000211375  3.424900E-02 -1.991130E-02  1.346230E-03 -6.701050E-04  1.000000E+00  0.000000E+00  1.000000E+00  0.000000E+00
  0.000213850  3.288340E-02 -1.991190E-02  1.302110E-04  2.595850E-04  1.000000E+00  0.000000E+00  1.000000E+00  0.000000E+00
  0.000216325  3.286410E-02 -1.973400E-02  4.650950E-04 -1.502520E-04  1.000000E+00  0.000000E+00  1.000000E+00  0.000000E+00
  0.000218800  3.492810E-02 -2.024290E-02  4.929660E-04 -7.746320E-04  1.000000E+00  0.000000E+00  1.000000E+00  0.000000E+00
  0.000221275  3.502700E-02 -1.826670E-02  1.396090E-03  6.324090E-04  1.000000E+00  0.000000E+00  1.000000E+00  0.000000E+00
  0.000223750  3.490750E-02 -2.000890E-02  4.818650E-04  8.822340E-05  1.000000E+00  0.000000E+00  1.000000E+00  0.000000E+00
  0.000226225  3.508940E-02 -1.791930E-02  5.262160E-04 -2.629400E-04  1.000000E+00  0.000000E+00  1.000000E+00  0.000000E+00
  0.000228700  3.387170E-02 -1.955100E-02  1.608630E-04  1.145700E-04  1.000000E+00  0.000000E+00  1.000000E+00  0.000000E+00
  0.000231175  3.320740E-02 -1.645180E-02 -2.796020E-05  2.096630E-05  1.000000E+00  0.000000E+00  1.000000E+00  0.000000E+00
  0.000233650  3.504970E-02 -1.700600E-02  2.338790E-04 -8.883960E-04  1.000000E+00  0.000000E+00  1.000000E+00  0.000000E+00
  0.000236125  3.426830E-02 -1.759800E-02  5.938390E-04 -1.019000E-04  1.000000E+00  0.000000E+00  1.000000E+00  0.000000E+00
  0.000238600  3.582090E-02 -1.750280E-02 -5.094020E-04 -5.517600E-04  1.000000E+00  0.000000E+00  1.000000E+00  0.000000E+00
  0.000241075  3.448900E-02 -1.730810E-02  2.145230E-04  5.574060E-04  1.000000E+00  0.000000E+00  1.000000E+00  0.000000E+00
  0.000243550  3.538970E-02 -1.725560E-02  1.249620E-03 -6.352640E-04  1.000000E+00  0.000000E+00  1.000000E+00  0.000000E+00
  0.000246025  3.584480E-02 -1.710120E-02  5.889900E-04  2.569380E-05  1.000000E+00  0.000000E+00  1.000000E+00  0.000000E+00
  0.000248500  3.599920E-02 -1.673300E-02 -2.641140E-05 -3.729270E-04  1.000000E+00  0.000000E+00  1.000000E+00  0.000000E+00
  0.000250975  3.571580E-02 -1.740690E-02 -8.169840E-04  7.823520E-04  1.000000E+00  0.000000E+00  1.000000E+00  0.000000E+00
  0.000253450  3.678290E-02 -1.511100E-02  4.965880E-04 -8.626020E-04  1.000000E+00  0.000000E+00  1.000000E+00  0.000000E+00
  0.000255925  3.686020E-02 -1.476850E-02  7.707700E-05  6.507120E-04  1.000000E+00  0.000000E+00  1.000000E+00  0.000000E+00
  0.000258400  3.597690E-02 -1.432580E-02 -2.213790E-04 -1.547230E-04  1.000000E+00  0.000000E+00  1.000000E+00  0.000000E+00
  0.000260875  3.678880E-02 -1.500570E-02  4.715340E-04  1.541370E-04  1.000000E+00  0.000000E+00  1.000000E+00  0.000000E+00
  0.000263350  3.588330E-02 -1.447980E-02  2.257890E-04 -1.014940E-03  1.000000E+00  0.000000E+00  1.000000E+00  0.000000E+00
  0.000265825  3.551650E-02 -1.431800E-02 -1.268070E-03  5.058600E-04  1.000000E+00  0.000000E+00  1.000000E+00  0.000000E+00
  0.000268300  3.692610E-02 -1.528420E-02  3.700800E-05  1.231820E-03  1.000000E+00  0.000000E+00  1.000000E+00  0.000000E+00
  0.000270775  3.605110E-02 -1.354060E-02 -1.560420E-04  7.829680E-04  1.000000E+00  0.000000E+00  1.000000E+00  0.000000E+00
  0.000273250  3.544380E-02 -1.270260E-02  1.424220E-04  1.170680E-04  1.000000E+00  0.000000E+00  1.000000E+00  0.000000E+00
  0.000275725  3.774420E-02 -1.297340E-02  6.570270E-04 -1.643890E-04  1.000000E+00  0.000000E+00  1.000000E+00  0.000000E+00
  0.000278200  3.677100E-02 -1.305890E-02  1.295760E-03 -9.298020E-04  1.000000E+00  0.000000E+00  1.000000E+00  0.000000E+00
  0.000280675  3.657530E-02 -1.287930E-02  2.300250E-04  7.077590E-04  1.000000E+00  0.000000E+00  1.000000E+00  0.000000E+00
  0.000283150  3.806850E-02 -1.438720E-02  8.211660E-04  2.345560E-04  1.000000E+00  0.000000E+00  1.000000E+00  0.000000E+00
  0.000285625  3.675940E-02 -1.381530E-02 -6.025470E-04 -1.188820E-04  1.000000E+00  0.000000E+00  1.000000E+00  0.000000E+00
  0.000288100  3.676880E-02 -1.203540E-02  1.080900E-04  4.143040E-04  1.000000E+00  0.000000E+00  1.000000E+00  0.000000E+00
  0.000290575  3.675860E-02 -1.217190E-02 -6.523990E-04 -8.675590E-04  1.000000E+00  0.000000E+00  1.000000E+00  0.000000E+00
  0.000293050  3.928630E-02 -1.229470E-02 -6.147790E-04  1.304740E-04  1.000000E+00  0.000000E+00  1.000000E+00  0.000000E+00
  0.000295525  3.754860E-02 -9.750410E-03  2.192310E-04  2.007510E-04  1.000000E+00  0.000000E+00  1.000000E+00  0.000000E+00
  0.000298000  3.594560E-02 -1.019830E-02 -7.334870E-04 -4.412810E-04  1.000000E+00  0.000000E+00  1.000000E+00  0.000000E+00
  0.000300475  3.783800E-02 -1.272180E-02 -3.444830E-04  4.254290E-04  1.000000E+00  0.000000E+00  1.000000E+00  0.000000E+00
  0.000302950  3.760320E-02 -1.127060E-02  9.416040E-04  6.639520E-04  1.000000E+00  0.000000E+00  1.000000E+00  0.000000E+00
  0.000305425  3.902140E-02 -1.172580E-02  5.904920E-04  7.032590E-04  1.000000E+00  0.000000E+00  1.000000E+00  0.000000E+00
  0.000307900  3.912940E-02 -1.192190E-02  5.954480E-04 -4.068730E-04  1.000000E+00  0.000000E+00  1.000000E+00  0.000000E+00
  0.000310375  3.974220E-02 -1.202090E-02 -3.928640E-04  2.169280E-06  1.000000E+00  0.000000E+00  1.000000E+00  0.000000E+00
  0.000312850  3.853390E-02 -1.228460E-02  3.198280E-04  1.097360E-03  1.000000E+00  0.000000E+00  1.000000E+00  0.000000E+00
  0.000315325  3.712910E-02 -1.106930E-02 -1.727220E-04 -1.200750E-03  1.000000E+00  0.000000E+00  1.000000E+00  0.000000E+00
  0.000317800  3.980650E-02 -9.869880E-03 -9.029250E-04 -1.502590E-04  1.000000E+00  0.000000E+00  1.000000E+00  0.000000E+00
  0.000320275  3.862180E-02 -8.596620E-03 -6.065930E-04 -1.991660E-04  1.000000E+00  0.000000E+00  1.000000E+00  0.000000E+00
  0.000322750  3.892500E-02 -1.036030E-02  3.797750E-04 -6.819780E-04  1.000000E+00  0.000000E+00  1.000000E+00  0.000000E+00
  0.000325225  3.851970E-02 -1.026350E-02 -2.918860E-05  5.445320E-04  1.000000E+00  0.000000E+00  1.000000E+00  0.000000E+00
  0.000327700  3.931380E-02 -9.516630E-03 -7.495080E-04 -1.006190E-04  1.000000E+00  0.000000E+00  1.000000E+00  0.000000E+00
  0.000330175  3.732200E-02 -9.821540E-03  1.358280E-04  3.236480E-04  1.000000E+00  0.000000E+00  1.000000E+00  0.000000E+00
  0.000332650  3.859420E-02 -8.903670E-03  2.441040E-04  1.416590E-04  1.000000E+00  0.000000E+00  1.000000E+00  0.000000E+00
  0.000335125  3.921000E-02 -1.076960E-02  2.753520E-04 -9.637980E-05  1.000000E+00  0.000000E+00  1.000000E+00  0.000000E+00
  0.000337600  3.841660E-02 -9.516130E-03  4.231540E-04 -1.718600E-04  1.000000E+00  0.000000E+00  1.000000E+00  0.000000E+00
  0.000340075  3.916450E-02 -9.324230E-03  3.404670E-04 -8.315160E-05  1.000000E+00  0.000000E+00  1.000000E+00  0.000000E+00
  0.000342550  3.916550E-02 -9.016470E-03 -5.961410E-05 -5.897140E-04  1.000000E+00  0.000000E+00  1.000000E+00  0.000000E+00
  0.000345025  3.921840E-02 -8.945460E-03  1.308470E-04 -5.550530E-04  1.000000E+00  0.000000E+00  1.000000E+00  0.000000E+00
  0.000347500  3.999670E-02 -9.750360E-03  3.225330E-04  2.433740E-04  1.000000E+00  0.000000E+00  1.000000E+00  0.000000E+00
  0.000349975  3.804410E-02 -7.264300E-03  9.660200E-05 -1.208530E-03  1.000000E+00  0.000000E+00  1.000000E+00  0.000000E+00
  0.000352450  3.922040E-02 -7.931910E-03  1.300390E-03  4.927710E-04  1.000000E+00  0.000000E+00  1.000000E+00  0.000000E+00
  0.000354925  4.092100E-02 -8.873450E-03  7.116190E-04 -2.186470E-04  1.000000E+00  0.000000E+00  1.000000E+00  0.000000E+00
  0.000357400  3.902020E-02 -8.209480E-03 -4.986570E-04  9.646430E-04  1.000000E+00  0.000000E+00  1.000000E+00  0.000000E+00
  0.000359875  4.037670E-02 -8.128330E-03 -5.242480E-04  4.174500E-04  1.000000E+00  0.000000E+00  1.000000E+00  0.000000E+00
  0.000362350  4.077180E-02 -8.230990E-03  1.043760E-03 -3.510370E-04  1.000000E+00  0.000000E+00  1.000000E+00  0.000000E+00
  0.000364825  3.962220E-02 -7.393080E-03  1.671570E-04  4.339360E-04  1.000000E+00  0.000000E+00  1.000000E+00  0.000000E+00
  0.000367300  4.117980E-02 -9.224960E-03 -1.181760E-04  1.296970E-04  1.000000E+00  0.000000E+00  1.000000E+00  0.000000E+00
  0.000369775  3.915080E-02 -7.940380E-03  2.339030E-04 -9.755750E-05  1.000000E+00  0.000000E+00  1.000000E+00  0.000000E+00
  0.000372250  3.973650E-02 -9.118170E-03  9.556670E-04 -4.589920E-04  1.000000E+00  0.000000E+00  1.000000E+00  0.000000E+00
  0.000374725  4.056390E-02 -8.271090E-03  5.153050E-04 -3.434320E-04  1.000000E+00  0.000000E+00  1.000000E+00  0.000000E+00
  0.000377200  4.020390E-02 -8.125280E-03 -2.539280E-04  2.102240E-04  1.000000E+00  0.000000E+00  1.000000E+00  0.000000E+00
  0.000379675  3.916570E-02 -8.496980E-03 -7.534280E-04 -7.207990E-04  1.000000E+00  0.000000E+00  1.000000E+00  0.000000E+00
  0.000382150  4.048560E-02 -7.222050E-03 -1.638100E-04 -5.424810E-04  1.000000E+00  0.000000E+00  1.000000E+00  0.000000E+00
  0.000384625  4.160010E-02 -8.202540E-03 -4.252570E-04  7.577220E-04  1.000000E+00  0.000000E+00  1.000000E+00  0.000000E+00
  0.000387100  4.047690E-02 -7.896560E-03 -3.443500E-04 -5.999880E-04  1.000000E+00  0.000000E+00  1.000000E+00  0.000000E+00
  0.000389575  4.094060E-02 -7.800780E-03  1.276230E-03  3.629210E-04  1.000000E+00  0.000000E+00  1.000000E+00  0.000000E+00
  0.000392050  4.265350E-02 -6.748240E-03  1.033720E-03 -3.778830E-04  1.000000E+00  0.000000E+00  1.000000E+00  0.000000E+00
  0.000394525  4.115440E-02 -8.205900E-03 -2.817560E-04 -4.987430E-04  1.000000E+00  0.000000E+00  1.000000E+00  0.000000E+00
  0.000397000  4.075860E-02 -7.767200E-03  3.529840E-04  3.520030E-04  1.000000E+00  0.000000E+00  1.000000E+00  0.000000E+00
  0.000399475  4.279450E-02 -7.133030E-03  2.369400E-04 -3.053810E-04  1.000000E+00  0.000000E+00  1.000000E+00  0.000000E+00
  0.000401950  3.983940E-02 -8.723150E-03  1.908750E-04  3.076310E-04  1.000000E+00  0.000000E+00  1.000000E+00  0.000000E+00
  0.000404425  4.234070E-02 -5.742710E-03 -4.124680E-04  5.975330E-04  1.000000E+00  0.000000E+00  1.000000E+00  0.000000E+00
  0.000406900  4.189590E-02 -7.269570E-03 -8.278390E-04  1.192610E-04  1.000000E+00  0.000000E+00  1.000000E+00  0.000000E+00
  0.000409375  4.218350E-02 -8.759770E-03 -1.280150E-04  6.434370E-04  1.000000E+00  0.000000E+00  1.000000E+00  0.000000E+00
  0.000411850  4.029310E-02 -8.746730E-03 -1.453380E-04 -7.292880E-05  1.000000E+00  0.000000E+00  1.000000E+00  0.000000E+00
  0.000414325  4.322470E-02 -8.009710E-03 -6.358880E-04 -8.519350E-05  1.000000E+00  0.000000E+00  1.000000E+00  0.000000E+00
  0.000416800  4.135420E-02 -6.224120E-03  6.589600E-04 -6.038010E-07  1.000000E+00  0.000000E+00  1.000000E+00  0.000000E+00
  0.000419275  4.073900E-02 -7.901920E-03 -1.050810E-03 -1.163970E-04  1.000000E+00  0.000000E+00  1.000000E+00  0.000000E+00
  0.000421750  4.262310E-02 -5.505090E-03 -6.535690E-04 -6.194430E-04  1.000000E+00  0.000000E+00  1.000000E+00  0.000000E+00
  0.000424225  4.316900E-02 -6.145310E-03  2.293340E-04  6.114030E-04  1.000000E+00  0.000000E+00  1.000000E+00  0.000000E+00
  0.000426700  4.181570E-02 -5.649630E-03  1.157390E-03 -7.059770E-04  1.000000E+00  0.000000E+00  1.000000E+00  0.000000E+00
  0.000429175  4.206660E-02 -8.073310E-03  1.624100E-04 -1.002700E-03  1.000000E+00  0.000000E+00  1.000000E+00  0.000000E+00
  0.000431650  4.214420E-02 -6.467530E-03  2.057730E-04  9.313910E-05  1.000000E+00  0.000000E+00  1.000000E+00  0.000000E+00
  0.000434125  4.280010E-02 -7.919360E-03  1.803180E-04 -3.954480E-04  1.000000E+00  0.000000E+00  1.000000E+00  0.000000E+00
  0.000436600  4.143000E-02 -6.270140E-03  1.660640E-04  3.937000E-04  1.000000E+00  0.000000E+00  1.000000E+00  0.000000E+00
  0.000439075  4.239850E-02 -6.318490E-03 -6.147120E-04 -1.131680E-04  1.000000E+00  0.000000E+00  1.000000E+00  0.000000E+00
  0.000441550  4.227380E-02 -7.008560E-03  5.046920E-04  2.952170E-04  1.000000E+00  0.000000E+00  1.000000E+00  0.000000E+00
  0.000444025  4.194690E-02 -4.742830E-03  1.044610E-03 -2.379160E-04  1.000000E+00  0.000000E+00  1.000000E+00  0.000000E+00
  0.000446500  4.093580E-02 -6.254480E-03  6.820000E-04 -2.140190E-04  1.000000E+00  0.000000E+00  1.000000E+00  0.000000E+00
  0.000448975  4.105540E-02 -6.230820E-03  6.379680E-04 -2.194670E-03  1.000000E+00  0.000000E+00  1.000000E+00  0.000000E+00
  0.000451450  4.265050E-02 -7.192030E-03 -7.468200E-04  9.509060E-05  1.000000E+00  0.000000E+00  1.000000E+00  0.000000E+00
  0.000453925  4.315130E-02 -6.587420E-03  7.288170E-04 -2.678490E-04  1.000000E+00  0.000000E+00  1.000000E+00  0.000000E+00
