! Anritsu VNA Master:                        Model: MS2026C/19
! SN:                                  1815009
! /card0/usr/20180902_6.s2p
! Existing Calibration Information:
! TYPE:                         Current Settings,       Active Cal Settings
! TIME:             	   09/02/2018 12:35:41 PM,    09/02/2018 11:58:48 AM
! INTERNAL TEMP:    	                   52.8 C,                    48.8 C
! # POINTS:         	                     4001,                      4001
! START FREQ:       	              100.000 kHz,               100.000 kHz
! STOP FREQ:        	               10.000 MHz,                10.000 MHz
! SOURCE POWER:     	                      Low,                       Low
! IFBW:             	                   500 Hz,                    500 Hz
! AVG FACTOR:       	                       5 ,                        1 
! REF PLANE 1:      	                     0 mm,                      0 mm
! REF PLANE 2:      	                     0 mm,                      0 mm
! CAL TYPE:         	             1P2P S11,S21,              1P2P S11,S21
! CAL METHOD:       	                     SOLT,                      SOLT
! CAL LINE TYPE:    	                     Coax,                      Coax
! DUT PORT 1:       	                N-Conn(M),                 N-Conn(M)
! DUT PORT 2:       	                N-Conn(M),                 N-Conn(M)
! CAL STATUS:       	        OK: Accuracy High,                        --
# GHZ S RI R 50.0
! FREQ.GHZ      S11RE         S11IM         S21RE         S21IM         S12RE         S12IM         S22RE         S22IM
  0.000100000  4.072700E-03 -5.919570E-02  1.385610E-01  3.581000E-01  1.000000E+00  0.000000E+00  1.000000E+00  0.000000E+00
  0.000102475  6.514340E-03 -5.636310E-02  1.506940E-01  3.547190E-01  1.000000E+00  0.000000E+00  1.000000E+00  0.000000E+00
  0.000104950  6.531280E-03 -5.429470E-02  1.625970E-01  3.503610E-01  1.000000E+00  0.000000E+00  1.000000E+00  0.000000E+00
  0.000107425  8.679680E-03 -5.216410E-02  1.744690E-01  3.464580E-01  1.000000E+00  0.000000E+00  1.000000E+00  0.000000E+00
  0.000109900  9.764240E-03 -5.084850E-02  1.858680E-01  3.419010E-01  1.000000E+00  0.000000E+00  1.000000E+00  0.000000E+00
  0.000112375  1.113660E-02 -4.901030E-02  1.948790E-01  3.361620E-01  1.000000E+00  0.000000E+00  1.000000E+00  0.000000E+00
  0.000114850  1.172280E-02 -4.681450E-02  2.052230E-01  3.320270E-01  1.000000E+00  0.000000E+00  1.000000E+00  0.000000E+00
  0.000117325  1.333090E-02 -4.533410E-02  2.142280E-01  3.252830E-01  1.000000E+00  0.000000E+00  1.000000E+00  0.000000E+00
  0.000119800  1.373780E-02 -4.367440E-02  2.229180E-01  3.201360E-01  1.000000E+00  0.000000E+00  1.000000E+00  0.000000E+00
  0.000122275  1.472860E-02 -4.119690E-02  2.315240E-01  3.151360E-01  1.000000E+00  0.000000E+00  1.000000E+00  0.000000E+00
  0.000124750  1.626670E-02 -4.097630E-02  2.400280E-01  3.099680E-01  1.000000E+00  0.000000E+00  1.000000E+00  0.000000E+00
  0.000127225  1.621050E-02 -3.942090E-02  2.467010E-01  3.041860E-01  1.000000E+00  0.000000E+00  1.000000E+00  0.000000E+00
  0.000129700  1.767390E-02 -3.648970E-02  2.548920E-01  2.981460E-01  1.000000E+00  0.000000E+00  1.000000E+00  0.000000E+00
  0.000132175  1.874840E-02 -3.687040E-02  2.618370E-01  2.936980E-01  1.000000E+00  0.000000E+00  1.000000E+00  0.000000E+00
  0.000134650  1.927010E-02 -3.684590E-02  2.682430E-01  2.879990E-01  1.000000E+00  0.000000E+00  1.000000E+00  0.000000E+00
  0.000137125  1.989880E-02 -3.452270E-02  2.742660E-01  2.818420E-01  1.000000E+00  0.000000E+00  1.000000E+00  0.000000E+00
  0.000139600  2.114290E-02 -3.411060E-02  2.811860E-01  2.772560E-01  1.000000E+00  0.000000E+00  1.000000E+00  0.000000E+00
  0.000142075  2.211280E-02 -3.275360E-02  2.869470E-01  2.723190E-01  1.000000E+00  0.000000E+00  1.000000E+00  0.000000E+00
  0.000144550  2.213080E-02 -3.161840E-02  2.903450E-01  2.655870E-01  1.000000E+00  0.000000E+00  1.000000E+00  0.000000E+00
  0.000147025  2.345930E-02 -3.030430E-02  2.957360E-01  2.595260E-01  1.000000E+00  0.000000E+00  1.000000E+00  0.000000E+00
  0.000149500  2.460130E-02 -2.981970E-02  3.003320E-01  2.561470E-01  1.000000E+00  0.000000E+00  1.000000E+00  0.000000E+00
  0.000151975  2.400690E-02 -2.943040E-02  3.050680E-01  2.499600E-01  1.000000E+00  0.000000E+00  1.000000E+00  0.000000E+00
  0.000154450  2.480040E-02 -2.711930E-02  3.095810E-01  2.451880E-01  1.000000E+00  0.000000E+00  1.000000E+00  0.000000E+00
  0.000156925  2.624920E-02 -2.668120E-02  3.123960E-01  2.390770E-01  1.000000E+00  0.000000E+00  1.000000E+00  0.000000E+00
  0.000159400  2.581070E-02 -2.686110E-02  3.171300E-01  2.341090E-01  1.000000E+00  0.000000E+00  1.000000E+00  0.000000E+00
  0.000161875  2.679240E-02 -2.678450E-02  3.210920E-01  2.292730E-01  1.000000E+00  0.000000E+00  1.000000E+00  0.000000E+00
  0.000164350  2.765200E-02 -2.575150E-02  3.242820E-01  2.250150E-01  1.000000E+00  0.000000E+00  1.000000E+00  0.000000E+00
  0.000166825  2.754610E-02 -2.569480E-02  3.273360E-01  2.199060E-01  1.000000E+00  0.000000E+00  1.000000E+00  0.000000E+00
  0.000169300  2.843060E-02 -2.476500E-02  3.307500E-01  2.151070E-01  1.000000E+00  0.000000E+00  1.000000E+00  0.000000E+00
  0.000171775  2.834680E-02 -2.391150E-02  3.341910E-01  2.103590E-01  1.000000E+00  0.000000E+00  1.000000E+00  0.000000E+00
  0.000174250  2.875440E-02 -2.295740E-02  3.364470E-01  2.057750E-01  1.000000E+00  0.000000E+00  1.000000E+00  0.000000E+00
  0.000176725  2.941570E-02 -2.366620E-02  3.393090E-01  2.016920E-01  1.000000E+00  0.000000E+00  1.000000E+00  0.000000E+00
  0.000179200  2.953150E-02 -2.202270E-02  3.434540E-01  1.970970E-01  1.000000E+00  0.000000E+00  1.000000E+00  0.000000E+00
  0.000181675  2.984980E-02 -2.252680E-02  3.451870E-01  1.911800E-01  1.000000E+00  0.000000E+00  1.000000E+00  0.000000E+00
  0.000184150  3.086220E-02 -2.192800E-02  3.480980E-01  1.881190E-01  1.000000E+00  0.000000E+00  1.000000E+00  0.000000E+00
  0.000186625  3.081510E-02 -2.083660E-02  3.501570E-01  1.824860E-01  1.000000E+00  0.000000E+00  1.000000E+00  0.000000E+00
  0.000189100  3.066130E-02 -2.069200E-02  3.518030E-01  1.783830E-01  1.000000E+00  0.000000E+00  1.000000E+00  0.000000E+00
  0.000191575  3.037840E-02 -2.071570E-02  3.549970E-01  1.751250E-01  1.000000E+00  0.000000E+00  1.000000E+00  0.000000E+00
  0.000194050  3.136840E-02 -2.017940E-02  3.565620E-01  1.706200E-01  1.000000E+00  0.000000E+00  1.000000E+00  0.000000E+00
  0.000196525  3.161260E-02 -1.963420E-02  3.581080E-01  1.652110E-01  1.000000E+00  0.000000E+00  1.000000E+00  0.000000E+00
  0.000199000  3.241630E-02 -1.925050E-02  3.603340E-01  1.629010E-01  1.000000E+00  0.000000E+00  1.000000E+00  0.000000E+00
  0.000201475  3.227030E-02 -1.876660E-02  3.615130E-01  1.590670E-01  1.000000E+00  0.000000E+00  1.000000E+00  0.000000E+00
  0.000203950  3.240550E-02 -1.828920E-02  3.630330E-01  1.546160E-01  1.000000E+00  0.000000E+00  1.000000E+00  0.000000E+00
  0.000206425  3.331440E-02 -1.774460E-02  3.649700E-01  1.508190E-01  1.000000E+00  0.000000E+00  1.000000E+00  0.000000E+00
  0.000208900  3.321640E-02 -1.820390E-02  3.669650E-01  1.465180E-01  1.000000E+00  0.000000E+00  1.000000E+00  0.000000E+00
  0.000211375  3.380820E-02 -1.746130E-02  3.675930E-01  1.429980E-01  1.000000E+00  0.000000E+00  1.000000E+00  0.000000E+00
  0.000213850  3.345220E-02 -1.664870E-02  3.700990E-01  1.391940E-01  1.000000E+00  0.000000E+00  1.000000E+00  0.000000E+00
  0.000216325  3.391150E-02 -1.722980E-02  3.713990E-01  1.352650E-01  1.000000E+00  0.000000E+00  1.000000E+00  0.000000E+00
  0.000218800  3.480220E-02 -1.671660E-02  3.715080E-01  1.324180E-01  1.000000E+00  0.000000E+00  1.000000E+00  0.000000E+00
  0.000221275  3.503570E-02 -1.523350E-02  3.722570E-01  1.283660E-01  1.000000E+00  0.000000E+00  1.000000E+00  0.000000E+00
  0.000223750  3.455470E-02 -1.560880E-02  3.743200E-01  1.250120E-01  1.000000E+00  0.000000E+00  1.000000E+00  0.000000E+00
  0.000226225  3.542800E-02 -1.486670E-02  3.753710E-01  1.209640E-01  1.000000E+00  0.000000E+00  1.000000E+00  0.000000E+00
  0.000228700  3.428420E-02 -1.568270E-02  3.760820E-01  1.174150E-01  1.000000E+00  0.000000E+00  1.000000E+00  0.000000E+00
  0.000231175  3.490920E-02 -1.526090E-02  3.769720E-01  1.147690E-01  1.000000E+00  0.000000E+00  1.000000E+00  0.000000E+00
  0.000233650  3.518050E-02 -1.512710E-02  3.774240E-01  1.113690E-01  1.000000E+00  0.000000E+00  1.000000E+00  0.000000E+00
  0.000236125  3.519280E-02 -1.445110E-02  3.786360E-01  1.080520E-01  1.000000E+00  0.000000E+00  1.000000E+00  0.000000E+00
  0.000238600  3.589690E-02 -1.426540E-02  3.791530E-01  1.053700E-01  1.000000E+00  0.000000E+00  1.000000E+00  0.000000E+00
  0.000241075  3.546680E-02 -1.400640E-02  3.806830E-01  1.020600E-01  1.000000E+00  0.000000E+00  1.000000E+00  0.000000E+00
  0.000243550  3.584010E-02 -1.349690E-02  3.809370E-01  9.799340E-02  1.000000E+00  0.000000E+00  1.000000E+00  0.000000E+00
  0.000246025  3.636170E-02 -1.321380E-02  3.810860E-01  9.495000E-02  1.000000E+00  0.000000E+00  1.000000E+00  0.000000E+00
  0.000248500  3.599460E-02 -1.254860E-02  3.823300E-01  9.152180E-02  1.000000E+00  0.000000E+00  1.000000E+00  0.000000E+00
  0.000250975  3.717430E-02 -1.368490E-02  3.825720E-01  8.799990E-02  1.000000E+00  0.000000E+00  1.000000E+00  0.000000E+00
  0.000253450  3.716250E-02 -1.229970E-02  3.832220E-01  8.607230E-02  1.000000E+00  0.000000E+00  1.000000E+00  0.000000E+00
  0.000255925  3.615760E-02 -1.164700E-02  3.835000E-01  8.236250E-02  1.000000E+00  0.000000E+00  1.000000E+00  0.000000E+00
  0.000258400  3.708890E-02 -1.205230E-02  3.841400E-01  7.887910E-02  1.000000E+00  0.000000E+00  1.000000E+00  0.000000E+00
  0.000260875  3.783150E-02 -1.154230E-02  3.846800E-01  7.562310E-02  1.000000E+00  0.000000E+00  1.000000E+00  0.000000E+00
  0.000263350  3.682940E-02 -1.024860E-02  3.848780E-01  7.353320E-02  1.000000E+00  0.000000E+00  1.000000E+00  0.000000E+00
  0.000265825  3.725550E-02 -1.165550E-02  3.848380E-01  6.987330E-02  1.000000E+00  0.000000E+00  1.000000E+00  0.000000E+00
  0.000268300  3.815230E-02 -1.091430E-02  3.857880E-01  6.669890E-02  1.000000E+00  0.000000E+00  1.000000E+00  0.000000E+00
  0.000270775  3.771260E-02 -1.015930E-02  3.862440E-01  6.544990E-02  1.000000E+00  0.000000E+00  1.000000E+00  0.000000E+00
  0.000273250  3.839390E-02 -1.013220E-02  3.854900E-01  6.117150E-02  1.000000E+00  0.000000E+00  1.000000E+00  0.000000E+00
  0.000275725  3.827900E-02 -1.038950E-02  3.872700E-01  5.932910E-02  1.000000E+00  0.000000E+00  1.000000E+00  0.000000E+00
  0.000278200  3.872050E-02 -9.676250E-03  3.862180E-01  5.629600E-02  1.000000E+00  0.000000E+00  1.000000E+00  0.000000E+00
  0.000280675  3.882910E-02 -9.888750E-03  3.856040E-01  5.309200E-02  1.000000E+00  0.000000E+00  1.000000E+00  0.000000E+00
  0.000283150  3.862690E-02 -1.024660E-02  3.864960E-01  5.103200E-02  1.000000E+00  0.000000E+00  1.000000E+00  0.000000E+00
  0.000285625  3.849050E-02 -1.006180E-02  3.869270E-01  4.875510E-02  1.000000E+00  0.000000E+00  1.000000E+00  0.000000E+00
  0.000288100  3.819260E-02 -9.153930E-03  3.869960E-01  4.487600E-02  1.000000E+00  0.000000E+00  1.000000E+00  0.000000E+00
  0.000290575  3.881430E-02 -7.875650E-03  3.880360E-01  4.395810E-02  1.000000E+00  0.000000E+00  1.000000E+00  0.000000E+00
  0.000293050  3.965200E-02 -9.095000E-03  3.868890E-01  4.068360E-02  1.000000E+00  0.000000E+00  1.000000E+00  0.000000E+00
  0.000295525  3.972190E-02 -6.932970E-03  3.874640E-01  3.785710E-02  1.000000E+00  0.000000E+00  1.000000E+00  0.000000E+00
  0.000298000  3.850300E-02 -8.675820E-03  3.868680E-01  3.421050E-02  1.000000E+00  0.000000E+00  1.000000E+00  0.000000E+00
  0.000300475  3.976790E-02 -8.346220E-03  3.870870E-01  3.258460E-02  1.000000E+00  0.000000E+00  1.000000E+00  0.000000E+00
  0.000302950  3.946350E-02 -7.872960E-03  3.866730E-01  3.019340E-02  1.000000E+00  0.000000E+00  1.000000E+00  0.000000E+00
  0.000305425  3.982380E-02 -6.936580E-03  3.870090E-01  2.821260E-02  1.000000E+00  0.000000E+00  1.000000E+00  0.000000E+00
  0.000307900  4.037580E-02 -7.703310E-03  3.862310E-01  2.511760E-02  1.000000E+00  0.000000E+00  1.000000E+00  0.000000E+00
  0.000310375  4.141430E-02 -7.951950E-03  3.857700E-01  2.338060E-02  1.000000E+00  0.000000E+00  1.000000E+00  0.000000E+00
  0.000312850  4.113810E-02 -6.821880E-03  3.861060E-01  2.100720E-02  1.000000E+00  0.000000E+00  1.000000E+00  0.000000E+00
  0.000315325  4.036130E-02 -7.046320E-03  3.859390E-01  1.800650E-02  1.000000E+00  0.000000E+00  1.000000E+00  0.000000E+00
  0.000317800  4.138240E-02 -5.924520E-03  3.863040E-01  1.526640E-02  1.000000E+00  0.000000E+00  1.000000E+00  0.000000E+00
  0.000320275  4.116370E-02 -5.643490E-03  3.847780E-01  1.362070E-02  1.000000E+00  0.000000E+00  1.000000E+00  0.000000E+00
  0.000322750  4.076050E-02 -6.454030E-03  3.845210E-01  1.166900E-02  1.000000E+00  0.000000E+00  1.000000E+00  0.000000E+00
  0.000325225  4.107710E-02 -7.017020E-03  3.839340E-01  1.063240E-02  1.000000E+00  0.000000E+00  1.000000E+00  0.000000E+00
  0.000327700  4.191030E-02 -5.970180E-03  3.848420E-01  7.055730E-03  1.000000E+00  0.000000E+00  1.000000E+00  0.000000E+00
  0.000330175  4.200620E-02 -6.792830E-03  3.830190E-01  5.010120E-03  1.000000E+00  0.000000E+00  1.000000E+00  0.000000E+00
  0.000332650  4.124700E-02 -5.756730E-03  3.832630E-01  3.081130E-03  1.000000E+00  0.000000E+00  1.000000E+00  0.000000E+00
  0.000335125  4.295040E-02 -6.580550E-03  3.830860E-01  2.013860E-03  1.000000E+00  0.000000E+00  1.000000E+00  0.000000E+00
  0.000337600  4.267690E-02 -5.562220E-03  3.836220E-01 -6.289450E-04  1.000000E+00  0.000000E+00  1.000000E+00  0.000000E+00
  0.000340075  4.384570E-02 -6.498980E-03  3.847680E-01 -2.432150E-03  1.000000E+00  0.000000E+00  1.000000E+00  0.000000E+00
  0.000342550  4.306810E-02 -5.507770E-03  3.839510E-01 -4.763110E-03  1.000000E+00  0.000000E+00  1.000000E+00  0.000000E+00
  0.000345025  4.319680E-02 -6.236640E-03  3.847840E-01 -6.464260E-03  1.000000E+00  0.000000E+00  1.000000E+00  0.000000E+00
  0.000347500  4.356910E-02 -6.232460E-03  3.828000E-01 -8.722920E-03  1.000000E+00  0.000000E+00  1.000000E+00  0.000000E+00
  0.000349975  4.307760E-02 -4.854400E-03  3.842860E-01 -1.052770E-02  1.000000E+00  0.000000E+00  1.000000E+00  0.000000E+00
  0.000352450  4.428650E-02 -6.081000E-03  3.847980E-01 -1.210110E-02  1.000000E+00  0.000000E+00  1.000000E+00  0.000000E+00
  0.000354925  4.466120E-02 -5.227000E-03  3.833930E-01 -1.551300E-02  1.000000E+00  0.000000E+00  1.000000E+00  0.000000E+00
  0.000357400  4.364410E-02 -6.077510E-03  3.841680E-01 -1.700910E-02  1.000000E+00  0.000000E+00  1.000000E+00  0.000000E+00
  0.000359875  4.453680E-02 -5.193870E-03  3.831320E-01 -1.869130E-02  1.000000E+00  0.000000E+00  1.000000E+00  0.000000E+00
  0.000362350  4.379420E-02 -5.669800E-03  3.833920E-01 -2.133020E-02  1.000000E+00  0.000000E+00  1.000000E+00  0.000000E+00
  0.000364825  4.466830E-02 -5.533570E-03  3.828350E-01 -2.371790E-02  1.000000E+00  0.000000E+00  1.000000E+00  0.000000E+00
  0.000367300  4.516880E-02 -6.351230E-03  3.820120E-01 -2.500970E-02  1.000000E+00  0.000000E+00  1.000000E+00  0.000000E+00
  0.000369775  4.496340E-02 -5.056010E-03  3.816750E-01 -2.665450E-02  1.000000E+00  0.000000E+00  1.000000E+00  0.000000E+00
  0.000372250  4.494390E-02 -5.513080E-03  3.814290E-01 -2.906390E-02  1.000000E+00  0.000000E+00  1.000000E+00  0.000000E+00
  0.000374725  4.541380E-02 -5.763310E-03  3.807120E-01 -3.069670E-02  1.000000E+00  0.000000E+00  1.000000E+00  0.000000E+00
  0.000377200  4.485990E-02 -5.443190E-03  3.810030E-01 -3.164070E-02  1.000000E+00  0.000000E+00  1.000000E+00  0.000000E+00
  0.000379675  4.557040E-02 -6.209400E-03  3.797400E-01 -3.418130E-02  1.000000E+00  0.000000E+00  1.000000E+00  0.000000E+00
  0.000382150  4.525250E-02 -6.216550E-03  3.797610E-01 -3.521530E-02  1.000000E+00  0.000000E+00  1.000000E+00  0.000000E+00
  0.000384625  4.663080E-02 -6.420450E-03  3.802700E-01 -3.749660E-02  1.000000E+00  0.000000E+00  1.000000E+00  0.000000E+00
  0.000387100  4.457290E-02 -5.795790E-03  3.795750E-01 -3.873120E-02  1.000000E+00  0.000000E+00  1.000000E+00  0.000000E+00
  0.000389575  4.583050E-02 -5.078770E-03  3.790760E-01 -4.060040E-02  1.000000E+00  0.000000E+00  1.000000E+00  0.000000E+00
  0.000392050  4.517530E-02 -5.590290E-03  3.787820E-01 -4.288380E-02  1.000000E+00  0.000000E+00  1.000000E+00  0.000000E+00
  0.000394525  4.583480E-02 -5.742430E-03  3.788380E-01 -4.433390E-02  1.000000E+00  0.000000E+00  1.000000E+00  0.000000E+00
  0.000397000  4.509240E-02 -5.692790E-03  3.782400E-01 -4.601840E-02  1.000000E+00  0.000000E+00  1.000000E+00  0.000000E+00
  0.000399475  4.672710E-02 -7.007670E-03  3.786460E-01 -4.807140E-02  1.000000E+00  0.000000E+00  1.000000E+00  0.000000E+00
  0.000401950  4.603810E-02 -7.209990E-03  3.779540E-01 -5.039630E-02  1.000000E+00  0.000000E+00  1.000000E+00  0.000000E+00
  0.000404425  4.708700E-02 -5.700150E-03  3.775050E-01 -5.322880E-02  1.000000E+00  0.000000E+00  1.000000E+00  0.000000E+00
  0.000406900  4.611290E-02 -7.005600E-03  3.756850E-01 -5.450920E-02  1.000000E+00  0.000000E+00  1.000000E+00  0.000000E+00
  0.000409375  4.630870E-02 -6.513940E-03  3.759810E-01 -5.604320E-02  1.000000E+00  0.000000E+00  1.000000E+00  0.000000E+00
  0.000411850  4.631580E-02 -7.768380E-03  3.752180E-01 -5.826130E-02  1.000000E+00  0.000000E+00  1.000000E+00  0.000000E+00
  0.000414325  4.620450E-02 -5.788080E-03  3.751910E-01 -5.987120E-02  1.000000E+00  0.000000E+00  1.000000E+00  0.000000E+00
  0.000416800  4.590980E-02 -6.542070E-03  3.747870E-01 -6.153500E-02  1.000000E+00  0.000000E+00  1.000000E+00  0.000000E+00
  0.000419275  4.607700E-02 -6.763950E-03  3.733360E-01 -6.373310E-02  1.000000E+00  0.000000E+00  1.000000E+00  0.000000E+00
  0.000421750  4.699310E-02 -6.768480E-03  3.724170E-01 -6.491260E-02  1.000000E+00  0.000000E+00  1.000000E+00  0.000000E+00
  0.000424225  4.810230E-02 -6.087990E-03  3.715570E-01 -6.758990E-02  1.000000E+00  0.000000E+00  1.000000E+00  0.000000E+00
  0.000426700  4.598340E-02 -7.066730E-03  3.707490E-01 -6.895840E-02  1.000000E+00  0.000000E+00  1.000000E+00  0.000000E+00
  0.000429175  4.601950E-02 -6.559770E-03  3.698570E-01 -7.007870E-02  1.000000E+00  0.000000E+00  1.000000E+00  0.000000E+00
  0.000431650  4.615630E-02 -7.017770E-03  3.674890E-01 -7.122530E-02  1.000000E+00  0.000000E+00  1.000000E+00  0.000000E+00
  0.000434125  4.739230E-02 -7.103430E-03  3.678010E-01 -7.285400E-02  1.000000E+00  0.000000E+00  1.000000E+00  0.000000E+00
  0.000436600  4.612750E-02 -6.945900E-03  3.655520E-01 -7.318880E-02  1.000000E+00  0.000000E+00  1.000000E+00  0.000000E+00
  0.000439075  4.691460E-02 -6.213680E-03  3.653630E-01 -7.447670E-02  1.000000E+00  0.000000E+00  1.000000E+00  0.000000E+00
  0.000441550  4.716720E-02 -6.232920E-03  3.654740E-01 -7.599300E-02  1.000000E+00  0.000000E+00  1.000000E+00  0.000000E+00
  0.000444025  4.588070E-02 -6.247470E-03  3.653470E-01 -7.717100E-02  1.000000E+00  0.000000E+00  1.000000E+00  0.000000E+00
  0.000446500  4.650340E-02 -6.624540E-03  3.644300E-01 -7.687690E-02  1.000000E+00  0.000000E+00  1.000000E+00  0.000000E+00
  0.000448975  4.684710E-02 -5.708510E-03  3.629500E-01 -7.801840E-02  1.000000E+00  0.000000E+00  1.000000E+00  0.000000E+00
  0.000451450  4.674360E-02 -6.802660E-03  3.639010E-01 -7.849820E-02  1.000000E+00  0.000000E+00  1.000000E+00  0.000000E+00
  0.000453925  4.605840E-02 -6.830620E-03  3.621500E-01 -7.940340E-02  1.000000E+00  0.000000E+00  1.000000E+00  0.000000E+00
