! Anritsu VNA Master:                        Model: MS2026C/19
! SN:                                  1815009
! /card0/usr/20180902_46.s2p
! Existing Calibration Information:
! TYPE:                         Current Settings,       Active Cal Settings
! TIME:             	   09/03/2018 12:18:42 AM,    09/02/2018 11:58:48 AM
! INTERNAL TEMP:    	                   50.5 C,                    48.8 C
! # POINTS:         	                     4001,                      4001
! START FREQ:       	              100.000 kHz,               100.000 kHz
! STOP FREQ:        	               10.000 MHz,                10.000 MHz
! SOURCE POWER:     	                      Low,                       Low
! IFBW:             	                   500 Hz,                    500 Hz
! AVG FACTOR:       	                       1 ,                        1 
! REF PLANE 1:      	                     0 mm,                      0 mm
! REF PLANE 2:      	                     0 mm,                      0 mm
! CAL TYPE:         	             1P2P S11,S21,              1P2P S11,S21
! CAL METHOD:       	                     SOLT,                      SOLT
! CAL LINE TYPE:    	                     Coax,                      Coax
! DUT PORT 1:       	                N-Conn(M),                 N-Conn(M)
! DUT PORT 2:       	                N-Conn(M),                 N-Conn(M)
! CAL STATUS:       	        OK: Accuracy High,                        --
# GHZ S RI R 50.0
! FREQ.GHZ      S11RE         S11IM         S21RE         S21IM         S12RE         S12IM         S22RE         S22IM
  0.000100000  7.083580E-03 -6.331760E-02  4.596340E-04 -2.392060E-04  1.000000E+00  0.000000E+00  1.000000E+00  0.000000E+00
  0.000102475  8.561480E-03 -5.912690E-02  3.282310E-04  3.213610E-04  1.000000E+00  0.000000E+00  1.000000E+00  0.000000E+00
  0.000104950  9.156630E-03 -5.755760E-02  2.988190E-04 -1.698020E-04  1.000000E+00  0.000000E+00  1.000000E+00  0.000000E+00
  0.000107425  1.132650E-02 -5.543450E-02 -3.974510E-04 -3.187860E-05  1.000000E+00  0.000000E+00  1.000000E+00  0.000000E+00
  0.000109900  1.234990E-02 -5.371930E-02 -2.876460E-04 -2.458750E-04  1.000000E+00  0.000000E+00  1.000000E+00  0.000000E+00
  0.000112375  1.250750E-02 -5.209400E-02  4.442800E-04  6.523590E-04  1.000000E+00  0.000000E+00  1.000000E+00  0.000000E+00
  0.000114850  1.435340E-02 -4.997960E-02 -1.915600E-05  1.134600E-03  1.000000E+00  0.000000E+00  1.000000E+00  0.000000E+00
  0.000117325  1.629110E-02 -4.886290E-02 -4.380960E-04  7.169780E-05  1.000000E+00  0.000000E+00  1.000000E+00  0.000000E+00
  0.000119800  1.630470E-02 -4.591940E-02  4.649820E-04  4.428850E-04  1.000000E+00  0.000000E+00  1.000000E+00  0.000000E+00
  0.000122275  1.667690E-02 -4.502830E-02 -4.972630E-05  2.293400E-05  1.000000E+00  0.000000E+00  1.000000E+00  0.000000E+00
  0.000124750  1.773860E-02 -4.311990E-02 -7.312780E-05  4.842270E-04  1.000000E+00  0.000000E+00  1.000000E+00  0.000000E+00
  0.000127225  1.831940E-02 -4.188430E-02 -2.259480E-04  7.100110E-04  1.000000E+00  0.000000E+00  1.000000E+00  0.000000E+00
  0.000129700  2.018950E-02 -3.891370E-02 -1.696410E-04  1.643420E-04  1.000000E+00  0.000000E+00  1.000000E+00  0.000000E+00
  0.000132175  1.950850E-02 -4.013210E-02 -1.160460E-04  5.069880E-04  1.000000E+00  0.000000E+00  1.000000E+00  0.000000E+00
  0.000134650  2.051030E-02 -3.955740E-02  5.147490E-04  6.309500E-06  1.000000E+00  0.000000E+00  1.000000E+00  0.000000E+00
  0.000137125  1.999440E-02 -3.809060E-02  3.763490E-04  8.534830E-04  1.000000E+00  0.000000E+00  1.000000E+00  0.000000E+00
  0.000139600  2.222160E-02 -3.699200E-02  5.406290E-04  1.737710E-04  1.000000E+00  0.000000E+00  1.000000E+00  0.000000E+00
  0.000142075  2.272080E-02 -3.523750E-02  4.117350E-04 -1.485230E-04  1.000000E+00  0.000000E+00  1.000000E+00  0.000000E+00
  0.000144550  2.320560E-02 -3.675290E-02  6.746150E-04  4.634330E-05  1.000000E+00  0.000000E+00  1.000000E+00  0.000000E+00
  0.000147025  2.409150E-02 -3.417770E-02  1.108170E-03 -2.500930E-04  1.000000E+00  0.000000E+00  1.000000E+00  0.000000E+00
  0.000149500  2.442100E-02 -3.312490E-02  9.609900E-04 -4.045240E-04  1.000000E+00  0.000000E+00  1.000000E+00  0.000000E+00
  0.000151975  2.526880E-02 -3.247420E-02  8.297140E-04 -3.887830E-05  1.000000E+00  0.000000E+00  1.000000E+00  0.000000E+00
  0.000154450  2.484830E-02 -3.065470E-02  9.100600E-04  1.318240E-07  1.000000E+00  0.000000E+00  1.000000E+00  0.000000E+00
  0.000156925  2.562510E-02 -3.092630E-02  6.854860E-04 -2.250350E-04  1.000000E+00  0.000000E+00  1.000000E+00  0.000000E+00
  0.000159400  2.542990E-02 -2.966210E-02  3.234720E-05 -1.294900E-04  1.000000E+00  0.000000E+00  1.000000E+00  0.000000E+00
  0.000161875  2.720220E-02 -2.870570E-02  7.397800E-04 -3.745410E-07  1.000000E+00  0.000000E+00  1.000000E+00  0.000000E+00
  0.000164350  2.721410E-02 -2.942920E-02  3.769270E-04 -3.634930E-04  1.000000E+00  0.000000E+00  1.000000E+00  0.000000E+00
  0.000166825  2.821270E-02 -2.854260E-02  1.916140E-04 -7.282240E-04  1.000000E+00  0.000000E+00  1.000000E+00  0.000000E+00
  0.000169300  2.880370E-02 -2.896840E-02  2.457530E-04 -9.403390E-04  1.000000E+00  0.000000E+00  1.000000E+00  0.000000E+00
  0.000171775  2.868500E-02 -2.681760E-02 -5.081300E-05 -1.436810E-04  1.000000E+00  0.000000E+00  1.000000E+00  0.000000E+00
  0.000174250  2.728610E-02 -2.607740E-02 -7.560610E-05 -3.019810E-04  1.000000E+00  0.000000E+00  1.000000E+00  0.000000E+00
  0.000176725  2.878260E-02 -2.738270E-02 -4.394880E-04  1.338880E-04  1.000000E+00  0.000000E+00  1.000000E+00  0.000000E+00
  0.000179200  2.931620E-02 -2.627120E-02 -4.594210E-04 -5.183490E-04  1.000000E+00  0.000000E+00  1.000000E+00  0.000000E+00
  0.000181675  2.907620E-02 -2.670630E-02  8.911730E-04 -5.703610E-04  1.000000E+00  0.000000E+00  1.000000E+00  0.000000E+00
  0.000184150  3.049900E-02 -2.407830E-02  1.039970E-03 -1.168410E-03  1.000000E+00  0.000000E+00  1.000000E+00  0.000000E+00
  0.000186625  3.058530E-02 -2.377420E-02  4.739170E-04 -1.619690E-03  1.000000E+00  0.000000E+00  1.000000E+00  0.000000E+00
  0.000189100  3.015380E-02 -2.548020E-02 -1.857590E-04 -3.499310E-04  1.000000E+00  0.000000E+00  1.000000E+00  0.000000E+00
  0.000191575  2.839620E-02 -2.385340E-02  3.946480E-04 -1.103980E-03  1.000000E+00  0.000000E+00  1.000000E+00  0.000000E+00
  0.000194050  3.055490E-02 -2.378050E-02 -1.697990E-04 -1.386350E-04  1.000000E+00  0.000000E+00  1.000000E+00  0.000000E+00
  0.000196525  3.043470E-02 -2.271370E-02  5.181530E-04  3.406850E-05  1.000000E+00  0.000000E+00  1.000000E+00  0.000000E+00
  0.000199000  3.186060E-02 -2.233720E-02  6.234150E-04 -2.462010E-04  1.000000E+00  0.000000E+00  1.000000E+00  0.000000E+00
  0.000201475  3.152790E-02 -2.239840E-02 -1.136040E-03 -1.577010E-04  1.000000E+00  0.000000E+00  1.000000E+00  0.000000E+00
  0.000203950  3.124260E-02 -2.223790E-02  8.590350E-05  5.473970E-04  1.000000E+00  0.000000E+00  1.000000E+00  0.000000E+00
  0.000206425  3.249090E-02 -2.240790E-02  2.978730E-04 -1.585050E-04  1.000000E+00  0.000000E+00  1.000000E+00  0.000000E+00
  0.000208900  3.167810E-02 -2.035310E-02 -8.747140E-05 -7.440670E-04  1.000000E+00  0.000000E+00  1.000000E+00  0.000000E+00
  0.000211375  3.294200E-02 -2.089100E-02  2.753560E-04 -8.997750E-04  1.000000E+00  0.000000E+00  1.000000E+00  0.000000E+00
  0.000213850  3.185500E-02 -1.967140E-02  5.881910E-04  8.635100E-04  1.000000E+00  0.000000E+00  1.000000E+00  0.000000E+00
  0.000216325  3.189700E-02 -2.099360E-02 -7.371030E-04 -5.713220E-04  1.000000E+00  0.000000E+00  1.000000E+00  0.000000E+00
  0.000218800  3.211600E-02 -1.981530E-02 -5.388190E-04 -4.710090E-04  1.000000E+00  0.000000E+00  1.000000E+00  0.000000E+00
  0.000221275  3.372690E-02 -1.850240E-02  5.183590E-04 -5.883840E-04  1.000000E+00  0.000000E+00  1.000000E+00  0.000000E+00
  0.000223750  3.317610E-02 -1.934550E-02  7.714270E-04  5.575970E-05  1.000000E+00  0.000000E+00  1.000000E+00  0.000000E+00
  0.000226225  3.411030E-02 -1.851440E-02  5.147830E-04  3.260980E-04  1.000000E+00  0.000000E+00  1.000000E+00  0.000000E+00
  0.000228700  3.377880E-02 -1.875010E-02  6.081930E-04 -1.193990E-03  1.000000E+00  0.000000E+00  1.000000E+00  0.000000E+00
  0.000231175  3.290110E-02 -1.796570E-02 -6.805140E-04 -1.077900E-03  1.000000E+00  0.000000E+00  1.000000E+00  0.000000E+00
  0.000233650  3.324770E-02 -1.753350E-02  1.212500E-04 -1.958710E-03  1.000000E+00  0.000000E+00  1.000000E+00  0.000000E+00
  0.000236125  3.353590E-02 -1.705890E-02  7.476580E-04  2.115060E-04  1.000000E+00  0.000000E+00  1.000000E+00  0.000000E+00
  0.000238600  3.391920E-02 -1.778510E-02  1.077260E-03  2.555630E-04  1.000000E+00  0.000000E+00  1.000000E+00  0.000000E+00
  0.000241075  3.516590E-02 -1.768010E-02  4.016860E-05  6.465010E-04  1.000000E+00  0.000000E+00  1.000000E+00  0.000000E+00
  0.000243550  3.507060E-02 -1.629980E-02  5.418560E-04 -8.556290E-04  1.000000E+00  0.000000E+00  1.000000E+00  0.000000E+00
  0.000246025  3.678450E-02 -1.802970E-02 -1.139430E-04  3.371200E-04  1.000000E+00  0.000000E+00  1.000000E+00  0.000000E+00
  0.000248500  3.444300E-02 -1.596680E-02 -2.254780E-04 -5.683930E-04  1.000000E+00  0.000000E+00  1.000000E+00  0.000000E+00
  0.000250975  3.552190E-02 -1.770980E-02 -5.624700E-04 -1.066950E-03  1.000000E+00  0.000000E+00  1.000000E+00  0.000000E+00
  0.000253450  3.495630E-02 -1.447650E-02  4.894780E-04 -4.354380E-04  1.000000E+00  0.000000E+00  1.000000E+00  0.000000E+00
  0.000255925  3.311880E-02 -1.374640E-02  1.033820E-03 -5.479240E-04  1.000000E+00  0.000000E+00  1.000000E+00  0.000000E+00
  0.000258400  3.562730E-02 -1.549560E-02  4.313110E-04 -9.191960E-04  1.000000E+00  0.000000E+00  1.000000E+00  0.000000E+00
  0.000260875  3.554720E-02 -1.467670E-02 -3.311500E-04  1.405460E-04  1.000000E+00  0.000000E+00  1.000000E+00  0.000000E+00
  0.000263350  3.728440E-02 -1.538220E-02 -1.971750E-03  1.636190E-04  1.000000E+00  0.000000E+00  1.000000E+00  0.000000E+00
  0.000265825  3.461500E-02 -1.583160E-02 -3.477820E-04 -1.031830E-03  1.000000E+00  0.000000E+00  1.000000E+00  0.000000E+00
  0.000268300  3.645610E-02 -1.502500E-02 -4.491130E-04 -3.150460E-04  1.000000E+00  0.000000E+00  1.000000E+00  0.000000E+00
  0.000270775  3.575160E-02 -1.453920E-02 -9.563470E-04 -3.546900E-04  1.000000E+00  0.000000E+00  1.000000E+00  0.000000E+00
  0.000273250  3.702820E-02 -1.454750E-02 -2.436630E-04 -1.666230E-03  1.000000E+00  0.000000E+00  1.000000E+00  0.000000E+00
  0.000275725  3.682000E-02 -1.251370E-02  7.663310E-04 -6.590820E-04  1.000000E+00  0.000000E+00  1.000000E+00  0.000000E+00
  0.000278200  3.680690E-02 -1.349610E-02 -4.568160E-04 -4.913150E-04  1.000000E+00  0.000000E+00  1.000000E+00  0.000000E+00
  0.000280675  3.579220E-02 -1.330980E-02 -6.385250E-04 -1.311260E-03  1.000000E+00  0.000000E+00  1.000000E+00  0.000000E+00
  0.000283150  3.541510E-02 -1.358880E-02 -1.144310E-04 -7.496040E-04  1.000000E+00  0.000000E+00  1.000000E+00  0.000000E+00
  0.000285625  3.731790E-02 -1.378370E-02 -7.048730E-04 -3.399690E-04  1.000000E+00  0.000000E+00  1.000000E+00  0.000000E+00
  0.000288100  3.533610E-02 -1.467820E-02 -8.545730E-04  1.203890E-04  1.000000E+00  0.000000E+00  1.000000E+00  0.000000E+00
  0.000290575  3.714160E-02 -1.166250E-02 -2.413600E-04 -1.794400E-03  1.000000E+00  0.000000E+00  1.000000E+00  0.000000E+00
  0.000293050  3.760670E-02 -1.299890E-02 -7.824690E-04 -8.310810E-04  1.000000E+00  0.000000E+00  1.000000E+00  0.000000E+00
  0.000295525  3.678430E-02 -1.146760E-02 -3.397080E-04 -1.061370E-03  1.000000E+00  0.000000E+00  1.000000E+00  0.000000E+00
  0.000298000  3.523980E-02 -1.221520E-02 -8.924240E-04 -6.815640E-04  1.000000E+00  0.000000E+00  1.000000E+00  0.000000E+00
  0.000300475  3.765620E-02 -1.334160E-02  2.131660E-04 -7.132470E-04  1.000000E+00  0.000000E+00  1.000000E+00  0.000000E+00
  0.000302950  3.595580E-02 -1.144730E-02  5.952050E-04  2.459770E-04  1.000000E+00  0.000000E+00  1.000000E+00  0.000000E+00
  0.000305425  3.833740E-02 -1.157580E-02 -1.571610E-03 -1.159420E-04  1.000000E+00  0.000000E+00  1.000000E+00  0.000000E+00
  0.000307900  3.742140E-02 -1.156800E-02 -9.499440E-04 -4.161860E-04  1.000000E+00  0.000000E+00  1.000000E+00  0.000000E+00
  0.000310375  3.948530E-02 -1.184060E-02 -1.002890E-03  2.355650E-04  1.000000E+00  0.000000E+00  1.000000E+00  0.000000E+00
  0.000312850  3.773440E-02 -1.068890E-02 -1.065090E-03 -2.405190E-04  1.000000E+00  0.000000E+00  1.000000E+00  0.000000E+00
  0.000315325  3.797020E-02 -1.121340E-02  2.659070E-04 -6.094430E-04  1.000000E+00  0.000000E+00  1.000000E+00  0.000000E+00
  0.000317800  3.858110E-02 -9.823820E-03 -8.785530E-05 -1.268340E-04  1.000000E+00  0.000000E+00  1.000000E+00  0.000000E+00
  0.000320275  3.747440E-02 -9.103280E-03  5.310510E-04 -2.879880E-04  1.000000E+00  0.000000E+00  1.000000E+00  0.000000E+00
  0.000322750  3.737680E-02 -1.015690E-02 -9.907410E-04  3.843350E-04  1.000000E+00  0.000000E+00  1.000000E+00  0.000000E+00
  0.000325225  3.826120E-02 -9.289350E-03  7.362340E-05 -5.631280E-04  1.000000E+00  0.000000E+00  1.000000E+00  0.000000E+00
  0.000327700  3.892430E-02 -9.710110E-03 -4.262090E-04  1.018090E-04  1.000000E+00  0.000000E+00  1.000000E+00  0.000000E+00
  0.000330175  3.917220E-02 -9.359000E-03  6.364140E-04 -1.017810E-04  1.000000E+00  0.000000E+00  1.000000E+00  0.000000E+00
  0.000332650  3.768510E-02 -9.000350E-03 -1.082590E-03 -6.192520E-04  1.000000E+00  0.000000E+00  1.000000E+00  0.000000E+00
  0.000335125  3.701530E-02 -9.279710E-03 -8.225700E-04 -6.795100E-04  1.000000E+00  0.000000E+00  1.000000E+00  0.000000E+00
  0.000337600  3.933180E-02 -8.266800E-03 -8.307200E-04 -9.516870E-04  1.000000E+00  0.000000E+00  1.000000E+00  0.000000E+00
  0.000340075  3.909690E-02 -9.607310E-03 -3.261080E-04 -1.125700E-03  1.000000E+00  0.000000E+00  1.000000E+00  0.000000E+00
  0.000342550  3.791430E-02 -8.673050E-03  1.294390E-04 -2.975740E-04  1.000000E+00  0.000000E+00  1.000000E+00  0.000000E+00
  0.000345025  3.871420E-02 -1.006150E-02  2.989350E-04  9.886200E-06  1.000000E+00  0.000000E+00  1.000000E+00  0.000000E+00
  0.000347500  3.946630E-02 -1.002200E-02 -2.295540E-03 -5.285560E-04  1.000000E+00  0.000000E+00  1.000000E+00  0.000000E+00
  0.000349975  4.015280E-02 -7.537020E-03 -5.900550E-04 -1.180740E-03  1.000000E+00  0.000000E+00  1.000000E+00  0.000000E+00
  0.000352450  3.903310E-02 -8.388940E-03 -4.250230E-04 -8.230350E-04  1.000000E+00  0.000000E+00  1.000000E+00  0.000000E+00
  0.000354925  3.836570E-02 -8.430770E-03  1.772300E-04 -5.665010E-04  1.000000E+00  0.000000E+00  1.000000E+00  0.000000E+00
  0.000357400  3.877760E-02 -7.747380E-03 -6.389890E-04 -6.729000E-04  1.000000E+00  0.000000E+00  1.000000E+00  0.000000E+00
  0.000359875  4.160300E-02 -8.174430E-03 -2.462280E-03  2.350250E-04  1.000000E+00  0.000000E+00  1.000000E+00  0.000000E+00
  0.000362350  3.971230E-02 -8.634700E-03 -3.555720E-05 -3.886630E-04  1.000000E+00  0.000000E+00  1.000000E+00  0.000000E+00
  0.000364825  4.052210E-02 -8.194110E-03 -8.773720E-04  5.158920E-05  1.000000E+00  0.000000E+00  1.000000E+00  0.000000E+00
  0.000367300  4.016070E-02 -8.691510E-03 -8.924200E-04 -1.851390E-03  1.000000E+00  0.000000E+00  1.000000E+00  0.000000E+00
  0.000369775  3.963620E-02 -7.712180E-03 -1.370510E-03  9.261790E-05  1.000000E+00  0.000000E+00  1.000000E+00  0.000000E+00
  0.000372250  4.066100E-02 -7.782430E-03 -8.941200E-04  8.408740E-05  1.000000E+00  0.000000E+00  1.000000E+00  0.000000E+00
  0.000374725  3.958350E-02 -7.059950E-03  2.095470E-05 -4.132180E-04  1.000000E+00  0.000000E+00  1.000000E+00  0.000000E+00
  0.000377200  3.918940E-02 -7.244150E-03 -1.180700E-03  2.127800E-04  1.000000E+00  0.000000E+00  1.000000E+00  0.000000E+00
  0.000379675  4.121270E-02 -9.657410E-03 -1.347490E-03  2.482720E-04  1.000000E+00  0.000000E+00  1.000000E+00  0.000000E+00
  0.000382150  4.059250E-02 -8.316670E-03 -9.387060E-04 -3.299280E-04  1.000000E+00  0.000000E+00  1.000000E+00  0.000000E+00
  0.000384625  4.126200E-02 -7.242560E-03  5.666090E-04 -5.928750E-04  1.000000E+00  0.000000E+00  1.000000E+00  0.000000E+00
  0.000387100  3.962780E-02 -7.336950E-03 -1.490480E-03 -4.712910E-05  1.000000E+00  0.000000E+00  1.000000E+00  0.000000E+00
  0.000389575  4.028840E-02 -8.353490E-03 -9.924110E-04 -5.700300E-04  1.000000E+00  0.000000E+00  1.000000E+00  0.000000E+00
  0.000392050  4.104660E-02 -7.157640E-03 -3.506060E-04 -1.119160E-03  1.000000E+00  0.000000E+00  1.000000E+00  0.000000E+00
  0.000394525  4.008300E-02 -6.540680E-03 -1.932980E-03 -5.109180E-04  1.000000E+00  0.000000E+00  1.000000E+00  0.000000E+00
  0.000397000  4.115860E-02 -7.551560E-03  2.453410E-04 -6.052120E-04  1.000000E+00  0.000000E+00  1.000000E+00  0.000000E+00
  0.000399475  4.067580E-02 -7.950440E-03 -1.030800E-03  4.609290E-04  1.000000E+00  0.000000E+00  1.000000E+00  0.000000E+00
  0.000401950  3.954850E-02 -8.556450E-03  7.213240E-04  7.894080E-04  1.000000E+00  0.000000E+00  1.000000E+00  0.000000E+00
  0.000404425  4.258980E-02 -7.164060E-03 -5.078140E-04 -4.442600E-04  1.000000E+00  0.000000E+00  1.000000E+00  0.000000E+00
  0.000406900  4.206590E-02 -8.347280E-03 -3.281330E-04  1.383610E-05  1.000000E+00  0.000000E+00  1.000000E+00  0.000000E+00
  0.000409375  4.099490E-02 -7.205500E-03 -9.339460E-04  2.500700E-04  1.000000E+00  0.000000E+00  1.000000E+00  0.000000E+00
  0.000411850  4.177780E-02 -7.789980E-03 -1.445940E-03  2.567440E-04  1.000000E+00  0.000000E+00  1.000000E+00  0.000000E+00
  0.000414325  4.286330E-02 -6.481040E-03 -2.986030E-04  9.098110E-04  1.000000E+00  0.000000E+00  1.000000E+00  0.000000E+00
  0.000416800  4.114570E-02 -7.778380E-03  1.607430E-04 -6.207230E-04  1.000000E+00  0.000000E+00  1.000000E+00  0.000000E+00
  0.000419275  4.125920E-02 -7.626820E-03  3.990190E-04  1.051180E-03  1.000000E+00  0.000000E+00  1.000000E+00  0.000000E+00
  0.000421750  4.165480E-02 -7.331980E-03 -2.313090E-04  3.191580E-04  1.000000E+00  0.000000E+00  1.000000E+00  0.000000E+00
  0.000424225  4.261990E-02 -6.202050E-03 -1.669210E-03  1.579460E-03  1.000000E+00  0.000000E+00  1.000000E+00  0.000000E+00
  0.000426700  4.095250E-02 -6.637750E-03 -1.650780E-03  8.492940E-05  1.000000E+00  0.000000E+00  1.000000E+00  0.000000E+00
  0.000429175  4.122860E-02 -8.272680E-03  4.452810E-04 -4.918790E-04  1.000000E+00  0.000000E+00  1.000000E+00  0.000000E+00
  0.000431650  4.151530E-02 -6.500100E-03 -9.817490E-04  2.805040E-04  1.000000E+00  0.000000E+00  1.000000E+00  0.000000E+00
  0.000434125  4.258230E-02 -8.068120E-03 -6.184950E-04 -6.725140E-05  1.000000E+00  0.000000E+00  1.000000E+00  0.000000E+00
  0.000436600  4.180400E-02 -6.095820E-03 -8.897580E-04 -4.957720E-04  1.000000E+00  0.000000E+00  1.000000E+00  0.000000E+00
  0.000439075  4.257520E-02 -7.580770E-03 -1.914270E-03 -3.000580E-04  1.000000E+00  0.000000E+00  1.000000E+00  0.000000E+00
  0.000441550  4.150150E-02 -6.702480E-03 -3.412790E-04  2.834740E-04  1.000000E+00  0.000000E+00  1.000000E+00  0.000000E+00
  0.000444025  4.102430E-02 -7.506070E-03  8.702260E-04  7.226570E-04  1.000000E+00  0.000000E+00  1.000000E+00  0.000000E+00
  0.000446500  4.218220E-02 -8.347750E-03 -1.331050E-04 -7.383790E-04  1.000000E+00  0.000000E+00  1.000000E+00  0.000000E+00
  0.000448975  4.274180E-02 -5.387220E-03  1.527580E-04 -2.327380E-04  1.000000E+00  0.000000E+00  1.000000E+00  0.000000E+00
  0.000451450  4.075870E-02 -6.599900E-03  2.659210E-04 -4.768700E-04  1.000000E+00  0.000000E+00  1.000000E+00  0.000000E+00
  0.000453925  4.155640E-02 -6.678660E-03  7.174810E-04 -1.234670E-03  1.000000E+00  0.000000E+00  1.000000E+00  0.000000E+00
