! Anritsu VNA Master:                        Model: MS2026C/19
! SN:                                  1815009
! /card0/usr/20180902_1.s2p
! Existing Calibration Information:
! TYPE:                         Current Settings,       Active Cal Settings
! TIME:             	   09/02/2018 12:26:19 PM,    09/02/2018 11:58:48 AM
! INTERNAL TEMP:    	                   52.0 C,                    48.8 C
! # POINTS:         	                     4001,                      4001
! START FREQ:       	              100.000 kHz,               100.000 kHz
! STOP FREQ:        	               10.000 MHz,                10.000 MHz
! SOURCE POWER:     	                      Low,                       Low
! IFBW:             	                   500 Hz,                    500 Hz
! AVG FACTOR:       	                       1 ,                        1 
! REF PLANE 1:      	                     0 mm,                      0 mm
! REF PLANE 2:      	                     0 mm,                      0 mm
! CAL TYPE:         	             1P2P S11,S21,              1P2P S11,S21
! CAL METHOD:       	                     SOLT,                      SOLT
! CAL LINE TYPE:    	                     Coax,                      Coax
! DUT PORT 1:       	                N-Conn(M),                 N-Conn(M)
! DUT PORT 2:       	                N-Conn(M),                 N-Conn(M)
! CAL STATUS:       	        OK: Accuracy High,                        --
# GHZ S RI R 50.0
! FREQ.GHZ      S11RE         S11IM         S21RE         S21IM         S12RE         S12IM         S22RE         S22IM
  0.000100000  5.154590E-04 -5.895830E-02 -8.117370E-04 -1.969680E-03  1.000000E+00  0.000000E+00  1.000000E+00  0.000000E+00
  0.000102475  2.539410E-03 -5.669720E-02 -6.765010E-04 -2.845380E-03  1.000000E+00  0.000000E+00  1.000000E+00  0.000000E+00
  0.000104950  2.761350E-03 -5.403570E-02  3.434740E-04 -3.446440E-03  1.000000E+00  0.000000E+00  1.000000E+00  0.000000E+00
  0.000107425  4.459880E-03 -5.146970E-02 -1.371370E-03 -2.293250E-03  1.000000E+00  0.000000E+00  1.000000E+00  0.000000E+00
  0.000109900  4.888060E-03 -5.101510E-02 -1.149190E-03 -2.654680E-03  1.000000E+00  0.000000E+00  1.000000E+00  0.000000E+00
  0.000112375  7.823910E-03 -4.789660E-02  5.317790E-05 -1.561390E-03  1.000000E+00  0.000000E+00  1.000000E+00  0.000000E+00
  0.000114850  6.708500E-03 -4.626870E-02 -1.168870E-03 -2.336260E-03  1.000000E+00  0.000000E+00  1.000000E+00  0.000000E+00
  0.000117325  9.467390E-03 -4.446450E-02 -9.648860E-04 -2.722050E-03  1.000000E+00  0.000000E+00  1.000000E+00  0.000000E+00
  0.000119800  9.958310E-03 -4.359670E-02 -2.407870E-03 -1.129610E-03  1.000000E+00  0.000000E+00  1.000000E+00  0.000000E+00
  0.000122275  1.121210E-02 -4.141890E-02 -1.407130E-03 -9.976820E-04  1.000000E+00  0.000000E+00  1.000000E+00  0.000000E+00
  0.000124750  1.232590E-02 -4.081930E-02 -8.611580E-04 -1.439370E-03  1.000000E+00  0.000000E+00  1.000000E+00  0.000000E+00
  0.000127225  1.237580E-02 -3.876100E-02 -1.738610E-03 -1.946120E-03  1.000000E+00  0.000000E+00  1.000000E+00  0.000000E+00
  0.000129700  1.201030E-02 -3.676190E-02 -1.061940E-03 -1.756700E-03  1.000000E+00  0.000000E+00  1.000000E+00  0.000000E+00
  0.000132175  1.473760E-02 -3.642420E-02 -8.261690E-05 -1.260300E-03  1.000000E+00  0.000000E+00  1.000000E+00  0.000000E+00
  0.000134650  1.633340E-02 -3.627470E-02 -1.393650E-03 -1.819330E-03  1.000000E+00  0.000000E+00  1.000000E+00  0.000000E+00
  0.000137125  1.584830E-02 -3.408800E-02 -1.994950E-03 -6.807580E-04  1.000000E+00  0.000000E+00  1.000000E+00  0.000000E+00
  0.000139600  1.668010E-02 -3.564220E-02 -2.662760E-03 -9.601440E-04  1.000000E+00  0.000000E+00  1.000000E+00  0.000000E+00
  0.000142075  1.752460E-02 -3.238130E-02 -6.867440E-04 -2.013870E-03  1.000000E+00  0.000000E+00  1.000000E+00  0.000000E+00
  0.000144550  1.878220E-02 -3.108750E-02 -1.028610E-03 -1.656970E-03  1.000000E+00  0.000000E+00  1.000000E+00  0.000000E+00
  0.000147025  1.876930E-02 -3.055070E-02 -1.756830E-03 -1.708210E-03  1.000000E+00  0.000000E+00  1.000000E+00  0.000000E+00
  0.000149500  2.091600E-02 -2.951540E-02 -1.823630E-03 -1.834170E-03  1.000000E+00  0.000000E+00  1.000000E+00  0.000000E+00
  0.000151975  2.026400E-02 -2.940730E-02 -2.016890E-03 -1.622730E-03  1.000000E+00  0.000000E+00  1.000000E+00  0.000000E+00
  0.000154450  2.114960E-02 -2.603860E-02 -1.066730E-03 -7.740170E-04  1.000000E+00  0.000000E+00  1.000000E+00  0.000000E+00
  0.000156925  2.187690E-02 -2.677370E-02 -1.078960E-03 -1.253400E-03  1.000000E+00  0.000000E+00  1.000000E+00  0.000000E+00
  0.000159400  2.160870E-02 -2.651720E-02 -5.633000E-04  4.039270E-04  1.000000E+00  0.000000E+00  1.000000E+00  0.000000E+00
  0.000161875  2.251900E-02 -2.648560E-02 -1.609490E-03 -1.604510E-03  1.000000E+00  0.000000E+00  1.000000E+00  0.000000E+00
  0.000164350  2.322860E-02 -2.557280E-02 -1.107200E-03 -5.631000E-04  1.000000E+00  0.000000E+00  1.000000E+00  0.000000E+00
  0.000166825  2.419130E-02 -2.492070E-02 -1.225360E-03  2.158010E-04  1.000000E+00  0.000000E+00  1.000000E+00  0.000000E+00
  0.000169300  2.368350E-02 -2.481010E-02 -1.617700E-03 -1.320920E-03  1.000000E+00  0.000000E+00  1.000000E+00  0.000000E+00
  0.000171775  2.485770E-02 -2.470700E-02 -2.934770E-03 -1.180980E-03  1.000000E+00  0.000000E+00  1.000000E+00  0.000000E+00
  0.000174250  2.494250E-02 -2.229240E-02 -1.191320E-03  3.486010E-04  1.000000E+00  0.000000E+00  1.000000E+00  0.000000E+00
  0.000176725  2.548190E-02 -2.266770E-02 -3.328340E-04 -1.375750E-03  1.000000E+00  0.000000E+00  1.000000E+00  0.000000E+00
  0.000179200  2.481650E-02 -2.162120E-02 -1.979940E-03 -6.447780E-04  1.000000E+00  0.000000E+00  1.000000E+00  0.000000E+00
  0.000181675  2.468750E-02 -2.222890E-02 -2.006740E-03 -2.036100E-03  1.000000E+00  0.000000E+00  1.000000E+00  0.000000E+00
  0.000184150  2.524700E-02 -2.047180E-02 -7.640460E-04 -6.963800E-04  1.000000E+00  0.000000E+00  1.000000E+00  0.000000E+00
  0.000186625  2.774760E-02 -1.986630E-02 -1.562490E-03  4.370180E-04  1.000000E+00  0.000000E+00  1.000000E+00  0.000000E+00
  0.000189100  2.614800E-02 -1.922320E-02 -5.307510E-04  8.281020E-05  1.000000E+00  0.000000E+00  1.000000E+00  0.000000E+00
  0.000191575  2.712970E-02 -2.011380E-02 -8.356610E-04 -1.295550E-03  1.000000E+00  0.000000E+00  1.000000E+00  0.000000E+00
  0.000194050  2.671940E-02 -1.966140E-02 -2.017590E-03  3.214360E-04  1.000000E+00  0.000000E+00  1.000000E+00  0.000000E+00
  0.000196525  2.819340E-02 -1.809080E-02 -1.002140E-03 -1.764130E-03  1.000000E+00  0.000000E+00  1.000000E+00  0.000000E+00
  0.000199000  2.790200E-02 -1.838880E-02 -1.969300E-03 -1.163260E-04  1.000000E+00  0.000000E+00  1.000000E+00  0.000000E+00
  0.000201475  2.740020E-02 -1.738840E-02 -5.444920E-04 -1.436230E-03  1.000000E+00  0.000000E+00  1.000000E+00  0.000000E+00
  0.000203950  2.759470E-02 -1.713080E-02 -1.157910E-03 -1.349840E-03  1.000000E+00  0.000000E+00  1.000000E+00  0.000000E+00
  0.000206425  2.995780E-02 -1.750570E-02 -1.213160E-03 -2.295990E-04  1.000000E+00  0.000000E+00  1.000000E+00  0.000000E+00
  0.000208900  2.855820E-02 -1.692510E-02 -1.371760E-03 -1.550170E-03  1.000000E+00  0.000000E+00  1.000000E+00  0.000000E+00
  0.000211375  3.105350E-02 -1.711500E-02 -1.245160E-03 -1.769110E-03  1.000000E+00  0.000000E+00  1.000000E+00  0.000000E+00
  0.000213850  2.991860E-02 -1.502960E-02 -1.919430E-03 -4.302150E-04  1.000000E+00  0.000000E+00  1.000000E+00  0.000000E+00
  0.000216325  2.880020E-02 -1.617000E-02 -1.281740E-03 -1.119380E-04  1.000000E+00  0.000000E+00  1.000000E+00  0.000000E+00
  0.000218800  2.869750E-02 -1.479880E-02 -6.577170E-04 -1.052070E-03  1.000000E+00  0.000000E+00  1.000000E+00  0.000000E+00
  0.000221275  3.129960E-02 -1.381380E-02 -1.622440E-03 -1.218590E-03  1.000000E+00  0.000000E+00  1.000000E+00  0.000000E+00
  0.000223750  3.019530E-02 -1.554180E-02 -1.539850E-03 -2.048830E-03  1.000000E+00  0.000000E+00  1.000000E+00  0.000000E+00
  0.000226225  3.115710E-02 -1.349460E-02 -1.741370E-03 -7.378360E-04  1.000000E+00  0.000000E+00  1.000000E+00  0.000000E+00
  0.000228700  3.018270E-02 -1.403650E-02 -1.946790E-03  3.992340E-04  1.000000E+00  0.000000E+00  1.000000E+00  0.000000E+00
  0.000231175  2.958540E-02 -1.415690E-02 -1.553350E-03 -1.504170E-03  1.000000E+00  0.000000E+00  1.000000E+00  0.000000E+00
  0.000233650  3.051920E-02 -1.249850E-02 -1.926350E-03 -1.417860E-03  1.000000E+00  0.000000E+00  1.000000E+00  0.000000E+00
  0.000236125  3.039970E-02 -1.275740E-02 -1.757500E-03 -1.021680E-03  1.000000E+00  0.000000E+00  1.000000E+00  0.000000E+00
  0.000238600  3.185470E-02 -1.197190E-02 -6.712930E-04 -8.341900E-04  1.000000E+00  0.000000E+00  1.000000E+00  0.000000E+00
  0.000241075  3.102570E-02 -1.246770E-02 -1.497390E-03 -1.386360E-03  1.000000E+00  0.000000E+00  1.000000E+00  0.000000E+00
  0.000243550  3.122670E-02 -1.231470E-02 -2.439630E-03 -1.231440E-03  1.000000E+00  0.000000E+00  1.000000E+00  0.000000E+00
  0.000246025  3.204360E-02 -1.089870E-02 -2.752780E-03 -2.098980E-03  1.000000E+00  0.000000E+00  1.000000E+00  0.000000E+00
  0.000248500  3.199030E-02 -1.183210E-02 -4.013670E-04 -1.547380E-03  1.000000E+00  0.000000E+00  1.000000E+00  0.000000E+00
  0.000250975  3.330540E-02 -1.204740E-02 -8.329060E-04 -2.681020E-03  1.000000E+00  0.000000E+00  1.000000E+00  0.000000E+00
  0.000253450  3.197720E-02 -1.024730E-02 -1.751020E-03 -2.112790E-04  1.000000E+00  0.000000E+00  1.000000E+00  0.000000E+00
  0.000255925  3.192050E-02 -9.768050E-03 -3.431040E-03 -1.336680E-03  1.000000E+00  0.000000E+00  1.000000E+00  0.000000E+00
  0.000258400  3.288860E-02 -9.379010E-03 -2.451100E-03 -8.308920E-04  1.000000E+00  0.000000E+00  1.000000E+00  0.000000E+00
  0.000260875  3.277280E-02 -1.004490E-02 -6.605860E-04  8.939150E-04  1.000000E+00  0.000000E+00  1.000000E+00  0.000000E+00
  0.000263350  3.144920E-02 -8.102360E-03 -2.496870E-03 -1.161700E-03  1.000000E+00  0.000000E+00  1.000000E+00  0.000000E+00
  0.000265825  3.039470E-02 -8.660120E-03 -2.368360E-03 -7.212520E-04  1.000000E+00  0.000000E+00  1.000000E+00  0.000000E+00
  0.000268300  3.226780E-02 -8.814840E-03 -3.162270E-03 -1.974870E-03  1.000000E+00  0.000000E+00  1.000000E+00  0.000000E+00
  0.000270775  3.218650E-02 -8.959730E-03 -6.701740E-04 -1.102630E-03  1.000000E+00  0.000000E+00  1.000000E+00  0.000000E+00
  0.000273250  3.383340E-02 -7.607360E-03 -5.082050E-04 -2.079480E-03  1.000000E+00  0.000000E+00  1.000000E+00  0.000000E+00
  0.000275725  3.374760E-02 -7.446900E-03 -2.817400E-03 -1.947460E-03  1.000000E+00  0.000000E+00  1.000000E+00  0.000000E+00
  0.000278200  3.325850E-02 -6.693340E-03 -3.300840E-03 -1.763920E-03  1.000000E+00  0.000000E+00  1.000000E+00  0.000000E+00
  0.000280675  3.389960E-02 -7.362790E-03 -1.941820E-03 -1.521890E-03  1.000000E+00  0.000000E+00  1.000000E+00  0.000000E+00
  0.000283150  3.344600E-02 -6.439950E-03 -3.201120E-03 -1.896460E-03  1.000000E+00  0.000000E+00  1.000000E+00  0.000000E+00
  0.000285625  3.303660E-02 -6.239390E-03 -1.185920E-03 -5.499990E-04  1.000000E+00  0.000000E+00  1.000000E+00  0.000000E+00
  0.000288100  3.235650E-02 -5.376690E-03 -3.967320E-03 -2.068850E-03  1.000000E+00  0.000000E+00  1.000000E+00  0.000000E+00
  0.000290575  3.293030E-02 -5.149580E-03 -2.484140E-03 -1.613720E-03  1.000000E+00  0.000000E+00  1.000000E+00  0.000000E+00
  0.000293050  3.542890E-02 -4.532450E-03 -2.217170E-03 -2.306120E-03  1.000000E+00  0.000000E+00  1.000000E+00  0.000000E+00
  0.000295525  3.410630E-02 -3.799350E-03 -1.324490E-03 -1.401290E-03  1.000000E+00  0.000000E+00  1.000000E+00  0.000000E+00
  0.000298000  3.428470E-02 -4.012990E-03 -4.573520E-03 -2.828840E-03  1.000000E+00  0.000000E+00  1.000000E+00  0.000000E+00
  0.000300475  3.666100E-02 -4.411050E-03 -5.588750E-03 -2.275600E-03  1.000000E+00  0.000000E+00  1.000000E+00  0.000000E+00
  0.000302950  3.458840E-02 -4.942690E-03 -4.021490E-03 -7.830350E-04  1.000000E+00  0.000000E+00  1.000000E+00  0.000000E+00
  0.000305425  3.441940E-02 -3.215370E-03 -1.737510E-03 -2.736280E-03  1.000000E+00  0.000000E+00  1.000000E+00  0.000000E+00
  0.000307900  3.521760E-02 -3.053400E-03 -4.677760E-03 -1.528360E-03  1.000000E+00  0.000000E+00  1.000000E+00  0.000000E+00
  0.000310375  3.707710E-02 -4.420350E-03 -9.382610E-03 -3.422170E-03  1.000000E+00  0.000000E+00  1.000000E+00  0.000000E+00
  0.000312850  3.593690E-02 -3.967310E-03 -2.668520E-03 -1.078420E-03  1.000000E+00  0.000000E+00  1.000000E+00  0.000000E+00
  0.000315325  3.568740E-02 -2.792440E-03 -2.133930E-03 -1.687280E-03  1.000000E+00  0.000000E+00  1.000000E+00  0.000000E+00
  0.000317800  3.771340E-02 -1.271250E-03 -3.535330E-03  9.777920E-04  1.000000E+00  0.000000E+00  1.000000E+00  0.000000E+00
  0.000320275  3.650550E-02 -6.715490E-05 -1.235940E-02 -2.224280E-04  1.000000E+00  0.000000E+00  1.000000E+00  0.000000E+00
  0.000322750  3.478240E-02 -2.488010E-03 -3.608980E-03 -1.761510E-03  1.000000E+00  0.000000E+00  1.000000E+00  0.000000E+00
  0.000325225  3.624470E-02 -2.028930E-03 -2.889130E-03 -1.219880E-03  1.000000E+00  0.000000E+00  1.000000E+00  0.000000E+00
  0.000327700  3.736970E-02 -1.685910E-03 -4.290720E-03 -1.192070E-03  1.000000E+00  0.000000E+00  1.000000E+00  0.000000E+00
  0.000330175  3.764310E-02  1.071440E-04 -1.317850E-02  2.926860E-03  1.000000E+00  0.000000E+00  1.000000E+00  0.000000E+00
  0.000332650  3.813670E-02 -6.572510E-04 -8.058220E-03  3.654410E-04  1.000000E+00  0.000000E+00  1.000000E+00  0.000000E+00
  0.000335125  3.856960E-02  1.561150E-04 -2.400750E-03 -1.291180E-03  1.000000E+00  0.000000E+00  1.000000E+00  0.000000E+00
  0.000337600  3.783280E-02  8.097080E-05 -3.892710E-03 -5.834020E-04  1.000000E+00  0.000000E+00  1.000000E+00  0.000000E+00
  0.000340075  4.129800E-02 -1.649220E-03 -9.151370E-03  7.061850E-03  1.000000E+00  0.000000E+00  1.000000E+00  0.000000E+00
  0.000342550  4.008010E-02 -1.572670E-03 -8.810400E-03  1.029570E-02  1.000000E+00  0.000000E+00  1.000000E+00  0.000000E+00
  0.000345025  3.981750E-02 -1.081240E-03 -3.878500E-03  5.118480E-04  1.000000E+00  0.000000E+00  1.000000E+00  0.000000E+00
  0.000347500  3.952810E-02 -1.231880E-03 -6.479400E-03  4.841620E-04  1.000000E+00  0.000000E+00  1.000000E+00  0.000000E+00
  0.000349975  4.011990E-02  7.559550E-04 -6.836790E-03  4.153920E-03  1.000000E+00  0.000000E+00  1.000000E+00  0.000000E+00
  0.000352450  4.281240E-02 -2.460260E-03 -1.376500E-03  1.270810E-02  1.000000E+00  0.000000E+00  1.000000E+00  0.000000E+00
  0.000354925  4.123940E-02  1.559830E-03 -5.249840E-03  3.455810E-04  1.000000E+00  0.000000E+00  1.000000E+00  0.000000E+00
  0.000357400  4.088340E-02  6.599520E-04 -7.552860E-03  1.546620E-03  1.000000E+00  0.000000E+00  1.000000E+00  0.000000E+00
  0.000359875  4.100770E-02  8.015410E-04 -4.682770E-03  3.492340E-03  1.000000E+00  0.000000E+00  1.000000E+00  0.000000E+00
  0.000362350  4.063300E-02 -8.643000E-04  2.022020E-03  9.604840E-03  1.000000E+00  0.000000E+00  1.000000E+00  0.000000E+00
  0.000364825  4.226560E-02  2.079290E-03 -5.268320E-03  4.923530E-03  1.000000E+00  0.000000E+00  1.000000E+00  0.000000E+00
  0.000367300  4.202180E-02  5.502210E-04 -6.399270E-03  1.174390E-03  1.000000E+00  0.000000E+00  1.000000E+00  0.000000E+00
  0.000369775  4.259050E-02  8.841390E-04 -6.416520E-03  4.822040E-03  1.000000E+00  0.000000E+00  1.000000E+00  0.000000E+00
  0.000372250  4.194070E-02 -1.113560E-03 -3.132590E-04  9.003330E-03  1.000000E+00  0.000000E+00  1.000000E+00  0.000000E+00
  0.000374725  4.305930E-02 -1.020380E-03 -2.080970E-03  6.353430E-03  1.000000E+00  0.000000E+00  1.000000E+00  0.000000E+00
  0.000377200  4.257620E-02  7.442460E-04 -6.680630E-03  4.462970E-03  1.000000E+00  0.000000E+00  1.000000E+00  0.000000E+00
  0.000379675  4.552320E-02 -4.873670E-04 -5.152590E-03  7.124560E-03  1.000000E+00  0.000000E+00  1.000000E+00  0.000000E+00
  0.000382150  4.459520E-02 -1.447480E-03  8.361130E-06  6.711540E-03  1.000000E+00  0.000000E+00  1.000000E+00  0.000000E+00
  0.000384625  4.436110E-02 -1.583830E-03  2.209310E-03  5.718010E-03  1.000000E+00  0.000000E+00  1.000000E+00  0.000000E+00
  0.000387100  4.364760E-02  2.725610E-05 -5.860050E-03  6.364030E-03  1.000000E+00  0.000000E+00  1.000000E+00  0.000000E+00
  0.000389575  4.473460E-02  3.388750E-04 -3.653960E-03  1.045340E-02  1.000000E+00  0.000000E+00  1.000000E+00  0.000000E+00
  0.000392050  4.527420E-02  1.614010E-05  1.995210E-03  7.902700E-03  1.000000E+00  0.000000E+00  1.000000E+00  0.000000E+00
  0.000394525  4.423760E-02  4.276520E-04  3.357400E-03  5.811370E-03  1.000000E+00  0.000000E+00  1.000000E+00  0.000000E+00
  0.000397000  4.455420E-02 -1.019420E-03 -9.859040E-04  8.072070E-03  1.000000E+00  0.000000E+00  1.000000E+00  0.000000E+00
  0.000399475  4.665260E-02 -1.917630E-03  4.269590E-04  1.067240E-02  1.000000E+00  0.000000E+00  1.000000E+00  0.000000E+00
  0.000401950  4.608480E-02 -1.672710E-03  3.710110E-03  7.572970E-03  1.000000E+00  0.000000E+00  1.000000E+00  0.000000E+00
  0.000404425  4.612050E-02 -1.541890E-03  2.219340E-03  4.099620E-03  1.000000E+00  0.000000E+00  1.000000E+00  0.000000E+00
  0.000406900  4.547900E-02 -1.165290E-03  2.747490E-03  5.763970E-03  1.000000E+00  0.000000E+00  1.000000E+00  0.000000E+00
  0.000409375  4.609030E-02 -1.546050E-03  3.074080E-03  7.278130E-03  1.000000E+00  0.000000E+00  1.000000E+00  0.000000E+00
  0.000411850  4.529890E-02 -2.639260E-03  3.899100E-03  5.767720E-03  1.000000E+00  0.000000E+00  1.000000E+00  0.000000E+00
  0.000414325  4.688740E-02 -2.548980E-03  4.648260E-03  2.580230E-03  1.000000E+00  0.000000E+00  1.000000E+00  0.000000E+00
  0.000416800  4.572150E-02 -2.395710E-03  2.629450E-03  3.594060E-03  1.000000E+00  0.000000E+00  1.000000E+00  0.000000E+00
  0.000419275  4.684820E-02 -1.842920E-03  4.026970E-03  4.493850E-03  1.000000E+00  0.000000E+00  1.000000E+00  0.000000E+00
  0.000421750  4.827260E-02 -1.974160E-03  6.595680E-03  3.311580E-03  1.000000E+00  0.000000E+00  1.000000E+00  0.000000E+00
  0.000424225  4.822400E-02 -1.407990E-03  4.824030E-03  2.919020E-03  1.000000E+00  0.000000E+00  1.000000E+00  0.000000E+00
  0.000426700  4.674760E-02 -3.788470E-03  2.054910E-03  1.175010E-03  1.000000E+00  0.000000E+00  1.000000E+00  0.000000E+00
  0.000429175  4.612460E-02 -2.555280E-03  4.411110E-03  2.247480E-03  1.000000E+00  0.000000E+00  1.000000E+00  0.000000E+00
  0.000431650  4.653350E-02 -1.531920E-03  5.295020E-03  2.018740E-03  1.000000E+00  0.000000E+00  1.000000E+00  0.000000E+00
  0.000434125  4.715170E-02 -2.384090E-03  5.542040E-03  1.351010E-03  1.000000E+00  0.000000E+00  1.000000E+00  0.000000E+00
  0.000436600  4.683840E-02 -2.421420E-03  3.070790E-03  3.026750E-03  1.000000E+00  0.000000E+00  1.000000E+00  0.000000E+00
  0.000439075  4.687080E-02 -1.734280E-03  2.951260E-03  1.331600E-03  1.000000E+00  0.000000E+00  1.000000E+00  0.000000E+00
  0.000441550  4.702020E-02 -1.961340E-03  4.117490E-03  2.836100E-05  1.000000E+00  0.000000E+00  1.000000E+00  0.000000E+00
  0.000444025  4.566240E-02 -2.855410E-03  5.329520E-03 -1.219810E-03  1.000000E+00  0.000000E+00  1.000000E+00  0.000000E+00
  0.000446500  4.737920E-02 -2.438710E-03  2.823720E-03  9.441540E-04  1.000000E+00  0.000000E+00  1.000000E+00  0.000000E+00
  0.000448975  4.665320E-02 -2.532410E-03  2.512130E-03 -8.931090E-05  1.000000E+00  0.000000E+00  1.000000E+00  0.000000E+00
  0.000451450  4.770810E-02 -2.635280E-03  2.314550E-03 -1.403460E-03  1.000000E+00  0.000000E+00  1.000000E+00  0.000000E+00
  0.000453925  4.667400E-02 -3.933320E-03  2.499910E-03 -2.865740E-03  1.000000E+00  0.000000E+00  1.000000E+00  0.000000E+00
