! Anritsu VNA Master:                        Model: MS2026C/19
! SN:                                  1815009
! /card0/usr/20180902_15.s2p
! Existing Calibration Information:
! TYPE:                         Current Settings,       Active Cal Settings
! TIME:             	   09/02/2018 12:49:23 PM,    09/02/2018 11:58:48 AM
! INTERNAL TEMP:    	                   53.8 C,                    48.8 C
! # POINTS:         	                     4001,                      4001
! START FREQ:       	              100.000 kHz,               100.000 kHz
! STOP FREQ:        	               10.000 MHz,                10.000 MHz
! SOURCE POWER:     	                      Low,                       Low
! IFBW:             	                   500 Hz,                    500 Hz
! AVG FACTOR:       	                       1 ,                        1 
! REF PLANE 1:      	                     0 mm,                      0 mm
! REF PLANE 2:      	                     0 mm,                      0 mm
! CAL TYPE:         	             1P2P S11,S21,              1P2P S11,S21
! CAL METHOD:       	                     SOLT,                      SOLT
! CAL LINE TYPE:    	                     Coax,                      Coax
! DUT PORT 1:       	                N-Conn(M),                 N-Conn(M)
! DUT PORT 2:       	                N-Conn(M),                 N-Conn(M)
! CAL STATUS:       	?T: Accuracy moderate (|Temp diff| > 5.0 C),                        --
# GHZ S RI R 50.0
! FREQ.GHZ      S11RE         S11IM         S21RE         S21IM         S12RE         S12IM         S22RE         S22IM
  0.000100000  1.331560E-03 -5.994900E-02 -1.421190E-03 -2.780640E-03  1.000000E+00  0.000000E+00  1.000000E+00  0.000000E+00
  0.000102475  3.635840E-03 -5.719000E-02  9.415430E-04 -2.051510E-03  1.000000E+00  0.000000E+00  1.000000E+00  0.000000E+00
  0.000104950  4.217050E-03 -5.501860E-02 -6.758820E-04 -1.360030E-03  1.000000E+00  0.000000E+00  1.000000E+00  0.000000E+00
  0.000107425  5.250810E-03 -5.317620E-02 -8.238740E-05 -2.978690E-03  1.000000E+00  0.000000E+00  1.000000E+00  0.000000E+00
  0.000109900  5.868800E-03 -5.144410E-02  5.237140E-04 -3.463720E-03  1.000000E+00  0.000000E+00  1.000000E+00  0.000000E+00
  0.000112375  8.202570E-03 -5.017410E-02 -4.247880E-04 -1.699570E-03  1.000000E+00  0.000000E+00  1.000000E+00  0.000000E+00
  0.000114850  8.094890E-03 -4.716680E-02 -3.879050E-04 -3.019590E-03  1.000000E+00  0.000000E+00  1.000000E+00  0.000000E+00
  0.000117325  1.125080E-02 -4.693830E-02 -1.937820E-04 -2.932340E-03  1.000000E+00  0.000000E+00  1.000000E+00  0.000000E+00
  0.000119800  1.131530E-02 -4.412910E-02 -6.071040E-04 -2.328040E-03  1.000000E+00  0.000000E+00  1.000000E+00  0.000000E+00
  0.000122275  1.215190E-02 -4.151890E-02 -2.942650E-04 -2.073980E-03  1.000000E+00  0.000000E+00  1.000000E+00  0.000000E+00
  0.000124750  1.309190E-02 -4.244860E-02 -1.763030E-03 -1.489100E-03  1.000000E+00  0.000000E+00  1.000000E+00  0.000000E+00
  0.000127225  1.263350E-02 -3.981350E-02 -8.137040E-04 -1.461170E-03  1.000000E+00  0.000000E+00  1.000000E+00  0.000000E+00
  0.000129700  1.515000E-02 -3.660490E-02 -1.370640E-03 -1.822310E-03  1.000000E+00  0.000000E+00  1.000000E+00  0.000000E+00
  0.000132175  1.594650E-02 -3.843270E-02 -9.724420E-04 -1.461110E-03  1.000000E+00  0.000000E+00  1.000000E+00  0.000000E+00
  0.000134650  1.681860E-02 -3.750150E-02 -1.007360E-03 -5.423890E-04  1.000000E+00  0.000000E+00  1.000000E+00  0.000000E+00
  0.000137125  1.730840E-02 -3.559850E-02 -1.837890E-03  2.984610E-04  1.000000E+00  0.000000E+00  1.000000E+00  0.000000E+00
  0.000139600  1.793310E-02 -3.478640E-02 -2.135830E-03 -7.655610E-04  1.000000E+00  0.000000E+00  1.000000E+00  0.000000E+00
  0.000142075  1.980170E-02 -3.484850E-02 -1.438070E-03 -1.405470E-03  1.000000E+00  0.000000E+00  1.000000E+00  0.000000E+00
  0.000144550  1.890670E-02 -3.277990E-02 -1.172060E-03 -4.093740E-04  1.000000E+00  0.000000E+00  1.000000E+00  0.000000E+00
  0.000147025  2.073330E-02 -3.112790E-02 -4.687880E-04 -9.625640E-04  1.000000E+00  0.000000E+00  1.000000E+00  0.000000E+00
  0.000149500  2.206600E-02 -3.055620E-02 -2.350930E-03 -2.252950E-03  1.000000E+00  0.000000E+00  1.000000E+00  0.000000E+00
  0.000151975  2.135030E-02 -2.958640E-02 -2.753300E-03 -1.761200E-03  1.000000E+00  0.000000E+00  1.000000E+00  0.000000E+00
  0.000154450  2.185730E-02 -2.832970E-02 -1.658520E-03 -4.571440E-04  1.000000E+00  0.000000E+00  1.000000E+00  0.000000E+00
  0.000156925  2.241940E-02 -2.780710E-02 -1.357620E-03 -1.405860E-03  1.000000E+00  0.000000E+00  1.000000E+00  0.000000E+00
  0.000159400  2.188160E-02 -2.694180E-02 -7.267430E-04 -1.094910E-03  1.000000E+00  0.000000E+00  1.000000E+00  0.000000E+00
  0.000161875  2.336500E-02 -2.751150E-02 -7.575940E-04 -2.420750E-03  1.000000E+00  0.000000E+00  1.000000E+00  0.000000E+00
  0.000164350  2.469150E-02 -2.706550E-02  4.220480E-04  2.778590E-04  1.000000E+00  0.000000E+00  1.000000E+00  0.000000E+00
  0.000166825  2.534230E-02 -2.638560E-02 -1.260200E-03 -4.103800E-04  1.000000E+00  0.000000E+00  1.000000E+00  0.000000E+00
  0.000169300  2.515400E-02 -2.570020E-02 -1.418720E-03 -9.401920E-04  1.000000E+00  0.000000E+00  1.000000E+00  0.000000E+00
  0.000171775  2.586620E-02 -2.389390E-02 -1.946740E-03 -1.014700E-03  1.000000E+00  0.000000E+00  1.000000E+00  0.000000E+00
  0.000174250  2.579620E-02 -2.372720E-02 -9.893799E-04  1.903180E-04  1.000000E+00  0.000000E+00  1.000000E+00  0.000000E+00
  0.000176725  2.630990E-02 -2.497300E-02 -6.325640E-04 -4.440670E-04  1.000000E+00  0.000000E+00  1.000000E+00  0.000000E+00
  0.000179200  2.633330E-02 -2.376510E-02 -2.609160E-03 -2.881790E-04  1.000000E+00  0.000000E+00  1.000000E+00  0.000000E+00
  0.000181675  2.678740E-02 -2.326710E-02 -1.940570E-03 -3.834580E-04  1.000000E+00  0.000000E+00  1.000000E+00  0.000000E+00
  0.000184150  2.724620E-02 -2.178160E-02  7.054670E-04 -1.397510E-03  1.000000E+00  0.000000E+00  1.000000E+00  0.000000E+00
  0.000186625  2.708140E-02 -2.172190E-02 -1.262380E-03 -5.558320E-04  1.000000E+00  0.000000E+00  1.000000E+00  0.000000E+00
  0.000189100  2.673300E-02 -2.028020E-02 -6.585090E-04 -1.474550E-03  1.000000E+00  0.000000E+00  1.000000E+00  0.000000E+00
  0.000191575  2.794490E-02 -2.055400E-02 -1.557390E-03 -8.835300E-04  1.000000E+00  0.000000E+00  1.000000E+00  0.000000E+00
  0.000194050  2.739340E-02 -2.067830E-02 -1.502120E-03 -1.966420E-03  1.000000E+00  0.000000E+00  1.000000E+00  0.000000E+00
  0.000196525  2.868820E-02 -1.968080E-02 -1.405740E-03 -1.591630E-03  1.000000E+00  0.000000E+00  1.000000E+00  0.000000E+00
  0.000199000  2.965030E-02 -2.007410E-02 -1.213430E-04 -1.817530E-03  1.000000E+00  0.000000E+00  1.000000E+00  0.000000E+00
  0.000201475  2.883340E-02 -1.877010E-02 -1.077430E-03 -8.004930E-04  1.000000E+00  0.000000E+00  1.000000E+00  0.000000E+00
  0.000203950  2.858520E-02 -1.704670E-02 -1.570110E-03 -1.166050E-03  1.000000E+00  0.000000E+00  1.000000E+00  0.000000E+00
  0.000206425  2.959730E-02 -1.865670E-02 -1.478470E-03 -1.778390E-03  1.000000E+00  0.000000E+00  1.000000E+00  0.000000E+00
  0.000208900  2.906270E-02 -1.921260E-02 -2.166390E-03  2.617730E-04  1.000000E+00  0.000000E+00  1.000000E+00  0.000000E+00
  0.000211375  3.059330E-02 -1.837530E-02 -3.790140E-04 -1.333450E-03  1.000000E+00  0.000000E+00  1.000000E+00  0.000000E+00
  0.000213850  3.025820E-02 -1.705380E-02 -1.804650E-03 -2.241670E-03  1.000000E+00  0.000000E+00  1.000000E+00  0.000000E+00
  0.000216325  3.051060E-02 -1.720010E-02  2.534370E-04 -3.035720E-04  1.000000E+00  0.000000E+00  1.000000E+00  0.000000E+00
  0.000218800  3.130430E-02 -1.687310E-02 -1.160710E-03 -1.337250E-03  1.000000E+00  0.000000E+00  1.000000E+00  0.000000E+00
  0.000221275  3.193140E-02 -1.541480E-02  3.838380E-04 -3.787560E-04  1.000000E+00  0.000000E+00  1.000000E+00  0.000000E+00
  0.000223750  3.086940E-02 -1.735230E-02 -3.022600E-03 -1.724530E-03  1.000000E+00  0.000000E+00  1.000000E+00  0.000000E+00
  0.000226225  3.083900E-02 -1.595370E-02 -1.079930E-03 -1.465290E-03  1.000000E+00  0.000000E+00  1.000000E+00  0.000000E+00
  0.000228700  3.162320E-02 -1.579530E-02 -6.297850E-05 -2.297460E-03  1.000000E+00  0.000000E+00  1.000000E+00  0.000000E+00
  0.000231175  3.004940E-02 -1.472420E-02 -2.945540E-03 -1.337750E-03  1.000000E+00  0.000000E+00  1.000000E+00  0.000000E+00
  0.000233650  3.146680E-02 -1.559540E-02 -1.690190E-03 -6.522960E-04  1.000000E+00  0.000000E+00  1.000000E+00  0.000000E+00
  0.000236125  3.168530E-02 -1.307970E-02 -1.509240E-03 -3.401770E-03  1.000000E+00  0.000000E+00  1.000000E+00  0.000000E+00
  0.000238600  3.181260E-02 -1.432570E-02  1.174820E-04 -1.798440E-03  1.000000E+00  0.000000E+00  1.000000E+00  0.000000E+00
  0.000241075  3.262950E-02 -1.387290E-02 -4.602640E-04 -4.999500E-04  1.000000E+00  0.000000E+00  1.000000E+00  0.000000E+00
  0.000243550  3.114390E-02 -1.293000E-02 -1.735600E-03  2.397830E-04  1.000000E+00  0.000000E+00  1.000000E+00  0.000000E+00
  0.000246025  3.325350E-02 -1.441710E-02 -2.866690E-03 -1.745120E-03  1.000000E+00  0.000000E+00  1.000000E+00  0.000000E+00
  0.000248500  3.219610E-02 -1.201280E-02 -1.986680E-03 -1.105180E-03  1.000000E+00  0.000000E+00  1.000000E+00  0.000000E+00
  0.000250975  3.232680E-02 -1.335480E-02 -1.872340E-03 -8.447290E-04  1.000000E+00  0.000000E+00  1.000000E+00  0.000000E+00
  0.000253450  3.137590E-02 -1.327280E-02 -2.243540E-03 -1.494810E-03  1.000000E+00  0.000000E+00  1.000000E+00  0.000000E+00
  0.000255925  3.177940E-02 -1.191070E-02 -2.196890E-03 -1.020760E-03  1.000000E+00  0.000000E+00  1.000000E+00  0.000000E+00
  0.000258400  3.340730E-02 -1.205870E-02 -2.201390E-03 -1.920620E-03  1.000000E+00  0.000000E+00  1.000000E+00  0.000000E+00
  0.000260875  3.401270E-02 -1.112070E-02 -7.430240E-04 -1.363290E-03  1.000000E+00  0.000000E+00  1.000000E+00  0.000000E+00
  0.000263350  3.382790E-02 -9.264870E-03 -7.243990E-04 -1.245250E-03  1.000000E+00  0.000000E+00  1.000000E+00  0.000000E+00
  0.000265825  3.384550E-02 -1.176940E-02 -1.672970E-03 -1.841030E-03  1.000000E+00  0.000000E+00  1.000000E+00  0.000000E+00
  0.000268300  3.373160E-02 -1.020940E-02 -3.640270E-03 -2.749920E-03  1.000000E+00  0.000000E+00  1.000000E+00  0.000000E+00
  0.000270775  3.271070E-02 -9.994300E-03 -1.642200E-03 -9.823460E-04  1.000000E+00  0.000000E+00  1.000000E+00  0.000000E+00
  0.000273250  3.384940E-02 -1.126900E-02 -2.321240E-03 -1.257460E-03  1.000000E+00  0.000000E+00  1.000000E+00  0.000000E+00
  0.000275725  3.406090E-02 -9.960940E-03 -1.035030E-03 -1.076750E-03  1.000000E+00  0.000000E+00  1.000000E+00  0.000000E+00
  0.000278200  3.380860E-02 -8.021470E-03 -3.584490E-03 -2.986310E-03  1.000000E+00  0.000000E+00  1.000000E+00  0.000000E+00
  0.000280675  3.352590E-02 -8.067620E-03 -2.041350E-03  6.570660E-04  1.000000E+00  0.000000E+00  1.000000E+00  0.000000E+00
  0.000283150  3.373050E-02 -8.960530E-03 -1.690090E-03 -1.485930E-04  1.000000E+00  0.000000E+00  1.000000E+00  0.000000E+00
  0.000285625  3.484550E-02 -1.047280E-02 -2.323250E-03 -1.231550E-03  1.000000E+00  0.000000E+00  1.000000E+00  0.000000E+00
  0.000288100  3.413280E-02 -7.379360E-03 -4.506820E-03 -3.844720E-03  1.000000E+00  0.000000E+00  1.000000E+00  0.000000E+00
  0.000290575  3.519550E-02 -6.765500E-03 -3.021210E-03 -2.493790E-03  1.000000E+00  0.000000E+00  1.000000E+00  0.000000E+00
  0.000293050  3.533460E-02 -7.554010E-03 -2.327710E-03 -1.540780E-03  1.000000E+00  0.000000E+00  1.000000E+00  0.000000E+00
  0.000295525  3.581810E-02 -6.076390E-03 -2.666610E-03 -1.924030E-03  1.000000E+00  0.000000E+00  1.000000E+00  0.000000E+00
  0.000298000  3.453800E-02 -6.272780E-03 -4.732150E-03 -3.446280E-03  1.000000E+00  0.000000E+00  1.000000E+00  0.000000E+00
  0.000300475  3.508210E-02 -7.435600E-03 -4.739990E-03 -4.575270E-03  1.000000E+00  0.000000E+00  1.000000E+00  0.000000E+00
  0.000302950  3.431790E-02 -6.373430E-03 -1.698060E-03 -2.101700E-03  1.000000E+00  0.000000E+00  1.000000E+00  0.000000E+00
  0.000305425  3.474800E-02 -5.336050E-03 -2.239250E-03 -7.654740E-04  1.000000E+00  0.000000E+00  1.000000E+00  0.000000E+00
  0.000307900  3.510300E-02 -5.479210E-03 -4.552280E-03 -1.335950E-03  1.000000E+00  0.000000E+00  1.000000E+00  0.000000E+00
  0.000310375  3.701000E-02 -6.244210E-03 -8.252110E-03 -5.490200E-03  1.000000E+00  0.000000E+00  1.000000E+00  0.000000E+00
  0.000312850  3.813700E-02 -4.688240E-03 -2.779280E-03 -3.321070E-03  1.000000E+00  0.000000E+00  1.000000E+00  0.000000E+00
  0.000315325  3.542380E-02 -4.711320E-03 -2.402080E-03 -2.428260E-03  1.000000E+00  0.000000E+00  1.000000E+00  0.000000E+00
  0.000317800  3.621360E-02 -4.063950E-03 -3.378760E-03 -1.898310E-03  1.000000E+00  0.000000E+00  1.000000E+00  0.000000E+00
  0.000320275  3.870010E-02 -1.233640E-03 -1.214040E-02 -2.066540E-03  1.000000E+00  0.000000E+00  1.000000E+00  0.000000E+00
  0.000322750  3.706280E-02 -4.669620E-03 -6.139870E-03 -1.228990E-03  1.000000E+00  0.000000E+00  1.000000E+00  0.000000E+00
  0.000325225  3.702370E-02 -4.346000E-03 -3.611520E-03 -2.666460E-03  1.000000E+00  0.000000E+00  1.000000E+00  0.000000E+00
  0.000327700  3.712350E-02 -2.433580E-03 -4.572270E-03 -1.846230E-03  1.000000E+00  0.000000E+00  1.000000E+00  0.000000E+00
  0.000330175  3.896420E-02 -1.988200E-03 -1.219030E-02  1.416700E-03  1.000000E+00  0.000000E+00  1.000000E+00  0.000000E+00
  0.000332650  3.803600E-02 -3.968470E-03 -1.269080E-02  2.597510E-03  1.000000E+00  0.000000E+00  1.000000E+00  0.000000E+00
  0.000335125  3.733990E-02 -2.633410E-03 -3.475850E-03 -2.409870E-03  1.000000E+00  0.000000E+00  1.000000E+00  0.000000E+00
  0.000337600  3.855480E-02 -2.094810E-03 -4.476340E-03 -1.841250E-03  1.000000E+00  0.000000E+00  1.000000E+00  0.000000E+00
  0.000340075  3.998270E-02 -2.415550E-03 -7.391160E-03  2.923960E-03  1.000000E+00  0.000000E+00  1.000000E+00  0.000000E+00
  0.000342550  4.156930E-02 -3.500480E-03 -9.759420E-03  1.155240E-02  1.000000E+00  0.000000E+00  1.000000E+00  0.000000E+00
  0.000345025  3.904200E-02 -2.161130E-03 -5.331390E-03 -2.135720E-03  1.000000E+00  0.000000E+00  1.000000E+00  0.000000E+00
  0.000347500  3.947660E-02 -1.163300E-03 -5.936580E-03  5.298530E-06  1.000000E+00  0.000000E+00  1.000000E+00  0.000000E+00
  0.000349975  4.076960E-02 -1.995040E-05 -7.510920E-03  1.061420E-03  1.000000E+00  0.000000E+00  1.000000E+00  0.000000E+00
  0.000352450  4.173360E-02 -4.312730E-03 -9.216130E-04  1.184620E-02  1.000000E+00  0.000000E+00  1.000000E+00  0.000000E+00
  0.000354925  4.144630E-02 -2.202630E-03 -6.463960E-03  1.373870E-03  1.000000E+00  0.000000E+00  1.000000E+00  0.000000E+00
  0.000357400  4.110790E-02 -1.155610E-03 -6.011280E-03  1.383090E-04  1.000000E+00  0.000000E+00  1.000000E+00  0.000000E+00
  0.000359875  4.151180E-02 -2.445800E-04 -5.814340E-03  2.023390E-03  1.000000E+00  0.000000E+00  1.000000E+00  0.000000E+00
  0.000362350  4.206280E-02 -2.736090E-03 -1.846980E-03  9.840070E-03  1.000000E+00  0.000000E+00  1.000000E+00  0.000000E+00
  0.000364825  4.214960E-02 -5.666970E-04 -4.476130E-03  5.567660E-03  1.000000E+00  0.000000E+00  1.000000E+00  0.000000E+00
  0.000367300  4.203930E-02 -1.602190E-03 -7.209110E-03  1.214420E-03  1.000000E+00  0.000000E+00  1.000000E+00  0.000000E+00
  0.000369775  4.236410E-02 -1.047800E-03 -6.041020E-03  4.078130E-03  1.000000E+00  0.000000E+00  1.000000E+00  0.000000E+00
  0.000372250  4.284250E-02 -3.264190E-03 -2.308710E-03  6.958070E-03  1.000000E+00  0.000000E+00  1.000000E+00  0.000000E+00
  0.000374725  4.233070E-02 -2.372580E-03  1.553670E-04  7.801820E-03  1.000000E+00  0.000000E+00  1.000000E+00  0.000000E+00
  0.000377200  4.313960E-02 -4.280190E-04 -7.183880E-03  3.521650E-03  1.000000E+00  0.000000E+00  1.000000E+00  0.000000E+00
  0.000379675  4.356340E-02 -3.254200E-03 -7.073680E-03  6.958190E-03  1.000000E+00  0.000000E+00  1.000000E+00  0.000000E+00
  0.000382150  4.418040E-02 -1.472270E-03 -1.277920E-03  6.713340E-03  1.000000E+00  0.000000E+00  1.000000E+00  0.000000E+00
  0.000384625  4.432900E-02 -3.053130E-03  1.227660E-03  4.655790E-03  1.000000E+00  0.000000E+00  1.000000E+00  0.000000E+00
  0.000387100  4.217460E-02 -2.976180E-03 -4.588620E-03  5.346670E-03  1.000000E+00  0.000000E+00  1.000000E+00  0.000000E+00
  0.000389575  4.493800E-02 -1.435290E-03 -1.852900E-03  9.007760E-03  1.000000E+00  0.000000E+00  1.000000E+00  0.000000E+00
  0.000392050  4.429160E-02 -1.690080E-03  3.887150E-04  7.478930E-03  1.000000E+00  0.000000E+00  1.000000E+00  0.000000E+00
  0.000394525  4.461800E-02 -1.902510E-03  1.667520E-03  4.922400E-03  1.000000E+00  0.000000E+00  1.000000E+00  0.000000E+00
  0.000397000  4.481950E-02 -2.272260E-03  1.025070E-03  6.976690E-03  1.000000E+00  0.000000E+00  1.000000E+00  0.000000E+00
  0.000399475  4.511340E-02 -1.726140E-03 -7.633400E-04  7.761330E-03  1.000000E+00  0.000000E+00  1.000000E+00  0.000000E+00
  0.000401950  4.489660E-02 -2.910530E-03  2.421710E-03  6.809190E-03  1.000000E+00  0.000000E+00  1.000000E+00  0.000000E+00
  0.000404425  4.493230E-02 -2.450630E-03  2.730280E-03  3.982270E-03  1.000000E+00  0.000000E+00  1.000000E+00  0.000000E+00
  0.000406900  4.588920E-02 -4.056630E-03  1.640820E-03  3.692900E-03  1.000000E+00  0.000000E+00  1.000000E+00  0.000000E+00
  0.000409375  4.497490E-02 -3.026400E-03  3.220450E-03  5.645760E-03  1.000000E+00  0.000000E+00  1.000000E+00  0.000000E+00
  0.000411850  4.521570E-02 -3.766080E-03  3.222210E-03  3.759210E-03  1.000000E+00  0.000000E+00  1.000000E+00  0.000000E+00
  0.000414325  4.568350E-02 -1.165160E-03  3.066100E-03  3.178410E-03  1.000000E+00  0.000000E+00  1.000000E+00  0.000000E+00
  0.000416800  4.496460E-02 -2.650220E-03  3.891500E-04  2.607460E-03  1.000000E+00  0.000000E+00  1.000000E+00  0.000000E+00
  0.000419275  4.634830E-02 -1.972620E-03  3.700310E-03  2.876140E-03  1.000000E+00  0.000000E+00  1.000000E+00  0.000000E+00
  0.000421750  4.591940E-02 -1.267760E-03  4.740890E-03  2.390980E-03  1.000000E+00  0.000000E+00  1.000000E+00  0.000000E+00
  0.000424225  4.668990E-02 -1.420950E-03  3.651410E-03  2.236420E-03  1.000000E+00  0.000000E+00  1.000000E+00  0.000000E+00
  0.000426700  4.553420E-02 -4.273740E-03  7.292440E-04  2.693870E-03  1.000000E+00  0.000000E+00  1.000000E+00  0.000000E+00
  0.000429175  4.618150E-02 -3.710280E-03  3.619450E-03  9.558290E-04  1.000000E+00  0.000000E+00  1.000000E+00  0.000000E+00
  0.000431650  4.673530E-02 -3.100610E-03  3.937160E-03  1.931310E-03  1.000000E+00  0.000000E+00  1.000000E+00  0.000000E+00
  0.000434125  4.683650E-02 -4.148620E-03  2.999410E-03 -8.193980E-05  1.000000E+00  0.000000E+00  1.000000E+00  0.000000E+00
  0.000436600  4.576060E-02 -4.740640E-03  2.859310E-03  6.169930E-04  1.000000E+00  0.000000E+00  1.000000E+00  0.000000E+00
  0.000439075  4.566770E-02 -3.170260E-03  1.998580E-03  4.608140E-04  1.000000E+00  0.000000E+00  1.000000E+00  0.000000E+00
  0.000441550  4.771450E-02 -2.454320E-03  2.598970E-03  1.392230E-03  1.000000E+00  0.000000E+00  1.000000E+00  0.000000E+00
  0.000444025  4.569760E-02 -2.612090E-03  1.945080E-03 -6.948770E-04  1.000000E+00  0.000000E+00  1.000000E+00  0.000000E+00
  0.000446500  4.651000E-02 -4.628540E-03  5.190660E-04 -1.018380E-03  1.000000E+00  0.000000E+00  1.000000E+00  0.000000E+00
  0.000448975  4.467450E-02 -2.631820E-03  6.400330E-04 -1.831120E-04  1.000000E+00  0.000000E+00  1.000000E+00  0.000000E+00
  0.000451450  4.647370E-02 -3.921370E-03  8.151900E-04 -1.831850E-03  1.000000E+00  0.000000E+00  1.000000E+00  0.000000E+00
  0.000453925  4.617140E-02 -3.665120E-03  1.464020E-03 -3.768290E-03  1.000000E+00  0.000000E+00  1.000000E+00  0.000000E+00
