! Anritsu VNA Master:                        Model: MS2026C/19
! SN:                                  1815009
! /card0/usr/20180902_20.s2p
! Existing Calibration Information:
! TYPE:                         Current Settings,       Active Cal Settings
! TIME:             	   09/02/2018 02:25:38 PM,    09/02/2018 11:58:48 AM
! INTERNAL TEMP:    	                   46.8 C,                    48.8 C
! # POINTS:         	                     4001,                      4001
! START FREQ:       	              100.000 kHz,               100.000 kHz
! STOP FREQ:        	               10.000 MHz,                10.000 MHz
! SOURCE POWER:     	                      Low,                       Low
! IFBW:             	                   500 Hz,                    500 Hz
! AVG FACTOR:       	                       5 ,                        1 
! REF PLANE 1:      	                     0 mm,                      0 mm
! REF PLANE 2:      	                     0 mm,                      0 mm
! CAL TYPE:         	             1P2P S11,S21,              1P2P S11,S21
! CAL METHOD:       	                     SOLT,                      SOLT
! CAL LINE TYPE:    	                     Coax,                      Coax
! DUT PORT 1:       	                N-Conn(M),                 N-Conn(M)
! DUT PORT 2:       	                N-Conn(M),                 N-Conn(M)
! CAL STATUS:       	        OK: Accuracy High,                        --
# GHZ S RI R 50.0
! FREQ.GHZ      S11RE         S11IM         S21RE         S21IM         S12RE         S12IM         S22RE         S22IM
  0.000100000  5.749600E-03 -6.195730E-02  8.690370E-01  2.294240E+00  1.000000E+00  0.000000E+00  1.000000E+00  0.000000E+00
  0.000102475  8.099340E-03 -5.929010E-02  9.455710E-01  2.273930E+00  1.000000E+00  0.000000E+00  1.000000E+00  0.000000E+00
  0.000104950  7.763990E-03 -5.715050E-02  1.023370E+00  2.250640E+00  1.000000E+00  0.000000E+00  1.000000E+00  0.000000E+00
  0.000107425  9.462850E-03 -5.527940E-02  1.093040E+00  2.220520E+00  1.000000E+00  0.000000E+00  1.000000E+00  0.000000E+00
  0.000109900  1.072100E-02 -5.398570E-02  1.163430E+00  2.196670E+00  1.000000E+00  0.000000E+00  1.000000E+00  0.000000E+00
  0.000112375  1.177140E-02 -5.235620E-02  1.232130E+00  2.165690E+00  1.000000E+00  0.000000E+00  1.000000E+00  0.000000E+00
  0.000114850  1.219920E-02 -5.044050E-02  1.294230E+00  2.135800E+00  1.000000E+00  0.000000E+00  1.000000E+00  0.000000E+00
  0.000117325  1.420310E-02 -4.890800E-02  1.346950E+00  2.096400E+00  1.000000E+00  0.000000E+00  1.000000E+00  0.000000E+00
  0.000119800  1.414590E-02 -4.729080E-02  1.405660E+00  2.064730E+00  1.000000E+00  0.000000E+00  1.000000E+00  0.000000E+00
  0.000122275  1.491060E-02 -4.480220E-02  1.460100E+00  2.033980E+00  1.000000E+00  0.000000E+00  1.000000E+00  0.000000E+00
  0.000124750  1.613510E-02 -4.477730E-02  1.512660E+00  1.998480E+00  1.000000E+00  0.000000E+00  1.000000E+00  0.000000E+00
  0.000127225  1.541330E-02 -4.342140E-02  1.561880E+00  1.968710E+00  1.000000E+00  0.000000E+00  1.000000E+00  0.000000E+00
  0.000129700  1.751730E-02 -4.070190E-02  1.611910E+00  1.931930E+00  1.000000E+00  0.000000E+00  1.000000E+00  0.000000E+00
  0.000132175  1.799300E-02 -4.076680E-02  1.656210E+00  1.904250E+00  1.000000E+00  0.000000E+00  1.000000E+00  0.000000E+00
  0.000134650  1.801100E-02 -4.054790E-02  1.693140E+00  1.865810E+00  1.000000E+00  0.000000E+00  1.000000E+00  0.000000E+00
  0.000137125  1.921040E-02 -3.821420E-02  1.733170E+00  1.835880E+00  1.000000E+00  0.000000E+00  1.000000E+00  0.000000E+00
  0.000139600  2.023780E-02 -3.772220E-02  1.773230E+00  1.802250E+00  1.000000E+00  0.000000E+00  1.000000E+00  0.000000E+00
  0.000142075  2.088420E-02 -3.654540E-02  1.808410E+00  1.767200E+00  1.000000E+00  0.000000E+00  1.000000E+00  0.000000E+00
  0.000144550  2.061260E-02 -3.599470E-02  1.836350E+00  1.727240E+00  1.000000E+00  0.000000E+00  1.000000E+00  0.000000E+00
  0.000147025  2.156580E-02 -3.470270E-02  1.868380E+00  1.696710E+00  1.000000E+00  0.000000E+00  1.000000E+00  0.000000E+00
  0.000149500  2.241790E-02 -3.418480E-02  1.899230E+00  1.660120E+00  1.000000E+00  0.000000E+00  1.000000E+00  0.000000E+00
  0.000151975  2.163770E-02 -3.342210E-02  1.922420E+00  1.631380E+00  1.000000E+00  0.000000E+00  1.000000E+00  0.000000E+00
  0.000154450  2.243280E-02 -3.126490E-02  1.947790E+00  1.597750E+00  1.000000E+00  0.000000E+00  1.000000E+00  0.000000E+00
  0.000156925  2.327430E-02 -3.124210E-02  1.984350E+00  1.571650E+00  1.000000E+00  0.000000E+00  1.000000E+00  0.000000E+00
  0.000159400  2.296890E-02 -3.040920E-02  2.002240E+00  1.535920E+00  1.000000E+00  0.000000E+00  1.000000E+00  0.000000E+00
  0.000161875  2.417050E-02 -3.040260E-02  2.026910E+00  1.510630E+00  1.000000E+00  0.000000E+00  1.000000E+00  0.000000E+00
  0.000164350  2.483230E-02 -2.951910E-02  2.052600E+00  1.478300E+00  1.000000E+00  0.000000E+00  1.000000E+00  0.000000E+00
  0.000166825  2.454180E-02 -2.842220E-02  2.075020E+00  1.441400E+00  1.000000E+00  0.000000E+00  1.000000E+00  0.000000E+00
  0.000169300  2.529790E-02 -2.813940E-02  2.093020E+00  1.423120E+00  1.000000E+00  0.000000E+00  1.000000E+00  0.000000E+00
  0.000171775  2.466320E-02 -2.669980E-02  2.113690E+00  1.388590E+00  1.000000E+00  0.000000E+00  1.000000E+00  0.000000E+00
  0.000174250  2.545320E-02 -2.592360E-02  2.131040E+00  1.365980E+00  1.000000E+00  0.000000E+00  1.000000E+00  0.000000E+00
  0.000176725  2.590740E-02 -2.601150E-02  2.145520E+00  1.338330E+00  1.000000E+00  0.000000E+00  1.000000E+00  0.000000E+00
  0.000179200  2.613240E-02 -2.506550E-02  2.165930E+00  1.306570E+00  1.000000E+00  0.000000E+00  1.000000E+00  0.000000E+00
  0.000181675  2.554710E-02 -2.508830E-02  2.185720E+00  1.283360E+00  1.000000E+00  0.000000E+00  1.000000E+00  0.000000E+00
  0.000184150  2.729770E-02 -2.366240E-02  2.204580E+00  1.250970E+00  1.000000E+00  0.000000E+00  1.000000E+00  0.000000E+00
  0.000186625  2.641410E-02 -2.382510E-02  2.212480E+00  1.234850E+00  1.000000E+00  0.000000E+00  1.000000E+00  0.000000E+00
  0.000189100  2.668870E-02 -2.341190E-02  2.229700E+00  1.199540E+00  1.000000E+00  0.000000E+00  1.000000E+00  0.000000E+00
  0.000191575  2.657010E-02 -2.325270E-02  2.237790E+00  1.175230E+00  1.000000E+00  0.000000E+00  1.000000E+00  0.000000E+00
  0.000194050  2.758370E-02 -2.254760E-02  2.256570E+00  1.150170E+00  1.000000E+00  0.000000E+00  1.000000E+00  0.000000E+00
  0.000196525  2.779430E-02 -2.143640E-02  2.267630E+00  1.127160E+00  1.000000E+00  0.000000E+00  1.000000E+00  0.000000E+00
  0.000199000  2.778970E-02 -2.096350E-02  2.277280E+00  1.099600E+00  1.000000E+00  0.000000E+00  1.000000E+00  0.000000E+00
  0.000201475  2.865040E-02 -2.044310E-02  2.292710E+00  1.072990E+00  1.000000E+00  0.000000E+00  1.000000E+00  0.000000E+00
  0.000203950  2.821120E-02 -2.019730E-02  2.298370E+00  1.053140E+00  1.000000E+00  0.000000E+00  1.000000E+00  0.000000E+00
  0.000206425  2.917480E-02 -1.923760E-02  2.313630E+00  1.033600E+00  1.000000E+00  0.000000E+00  1.000000E+00  0.000000E+00
  0.000208900  2.866030E-02 -2.053220E-02  2.320390E+00  1.003770E+00  1.000000E+00  0.000000E+00  1.000000E+00  0.000000E+00
  0.000211375  3.012980E-02 -1.935760E-02  2.328660E+00  9.883090E-01  1.000000E+00  0.000000E+00  1.000000E+00  0.000000E+00
  0.000213850  2.959730E-02 -1.796710E-02  2.339440E+00  9.586350E-01  1.000000E+00  0.000000E+00  1.000000E+00  0.000000E+00
  0.000216325  2.928130E-02 -1.859120E-02  2.342690E+00  9.413110E-01  1.000000E+00  0.000000E+00  1.000000E+00  0.000000E+00
  0.000218800  2.991110E-02 -1.808600E-02  2.356120E+00  9.157650E-01  1.000000E+00  0.000000E+00  1.000000E+00  0.000000E+00
  0.000221275  3.088870E-02 -1.699000E-02  2.362300E+00  8.920760E-01  1.000000E+00  0.000000E+00  1.000000E+00  0.000000E+00
  0.000223750  3.055910E-02 -1.757060E-02  2.371530E+00  8.739160E-01  1.000000E+00  0.000000E+00  1.000000E+00  0.000000E+00
  0.000226225  3.168500E-02 -1.629800E-02  2.381770E+00  8.534600E-01  1.000000E+00  0.000000E+00  1.000000E+00  0.000000E+00
  0.000228700  3.075840E-02 -1.742760E-02  2.383640E+00  8.327910E-01  1.000000E+00  0.000000E+00  1.000000E+00  0.000000E+00
  0.000231175  3.064220E-02 -1.729290E-02  2.390310E+00  8.103870E-01  1.000000E+00  0.000000E+00  1.000000E+00  0.000000E+00
  0.000233650  3.049150E-02 -1.604450E-02  2.399340E+00  7.903900E-01  1.000000E+00  0.000000E+00  1.000000E+00  0.000000E+00
  0.000236125  3.110070E-02 -1.512410E-02  2.401840E+00  7.705000E-01  1.000000E+00  0.000000E+00  1.000000E+00  0.000000E+00
  0.000238600  3.219300E-02 -1.535000E-02  2.406000E+00  7.489000E-01  1.000000E+00  0.000000E+00  1.000000E+00  0.000000E+00
  0.000241075  3.167660E-02 -1.504290E-02  2.417410E+00  7.310760E-01  1.000000E+00  0.000000E+00  1.000000E+00  0.000000E+00
  0.000243550  3.121000E-02 -1.483540E-02  2.417750E+00  7.061900E-01  1.000000E+00  0.000000E+00  1.000000E+00  0.000000E+00
  0.000246025  3.291020E-02 -1.481620E-02  2.416270E+00  6.898740E-01  1.000000E+00  0.000000E+00  1.000000E+00  0.000000E+00
  0.000248500  3.233550E-02 -1.391470E-02  2.431720E+00  6.693380E-01  1.000000E+00  0.000000E+00  1.000000E+00  0.000000E+00
  0.000250975  3.265900E-02 -1.486400E-02  2.428530E+00  6.512520E-01  1.000000E+00  0.000000E+00  1.000000E+00  0.000000E+00
  0.000253450  3.291800E-02 -1.323060E-02  2.435850E+00  6.306080E-01  1.000000E+00  0.000000E+00  1.000000E+00  0.000000E+00
  0.000255925  3.163430E-02 -1.269960E-02  2.432150E+00  6.149840E-01  1.000000E+00  0.000000E+00  1.000000E+00  0.000000E+00
  0.000258400  3.317690E-02 -1.215160E-02  2.441240E+00  5.928450E-01  1.000000E+00  0.000000E+00  1.000000E+00  0.000000E+00
  0.000260875  3.313160E-02 -1.285660E-02  2.445260E+00  5.772370E-01  1.000000E+00  0.000000E+00  1.000000E+00  0.000000E+00
  0.000263350  3.335740E-02 -1.176510E-02  2.452080E+00  5.542960E-01  1.000000E+00  0.000000E+00  1.000000E+00  0.000000E+00
  0.000265825  3.313910E-02 -1.263100E-02  2.451210E+00  5.454830E-01  1.000000E+00  0.000000E+00  1.000000E+00  0.000000E+00
  0.000268300  3.345780E-02 -1.226770E-02  2.449740E+00  5.264390E-01  1.000000E+00  0.000000E+00  1.000000E+00  0.000000E+00
  0.000270775  3.299350E-02 -1.082860E-02  2.453930E+00  5.053780E-01  1.000000E+00  0.000000E+00  1.000000E+00  0.000000E+00
  0.000273250  3.382950E-02 -1.072660E-02  2.455880E+00  4.894520E-01  1.000000E+00  0.000000E+00  1.000000E+00  0.000000E+00
  0.000275725  3.443820E-02 -1.126950E-02  2.459030E+00  4.695170E-01  1.000000E+00  0.000000E+00  1.000000E+00  0.000000E+00
  0.000278200  3.441560E-02 -1.135890E-02  2.460490E+00  4.523850E-01  1.000000E+00  0.000000E+00  1.000000E+00  0.000000E+00
  0.000280675  3.417780E-02 -1.111690E-02  2.463750E+00  4.407620E-01  1.000000E+00  0.000000E+00  1.000000E+00  0.000000E+00
  0.000283150  3.447220E-02 -1.103680E-02  2.463070E+00  4.189640E-01  1.000000E+00  0.000000E+00  1.000000E+00  0.000000E+00
  0.000285625  3.423770E-02 -1.071040E-02  2.463360E+00  4.122160E-01  1.000000E+00  0.000000E+00  1.000000E+00  0.000000E+00
  0.000288100  3.443760E-02 -9.223780E-03  2.465120E+00  3.882490E-01  1.000000E+00  0.000000E+00  1.000000E+00  0.000000E+00
  0.000290575  3.437190E-02 -9.073260E-03  2.465460E+00  3.794850E-01  1.000000E+00  0.000000E+00  1.000000E+00  0.000000E+00
  0.000293050  3.522520E-02 -9.008190E-03  2.470470E+00  3.595230E-01  1.000000E+00  0.000000E+00  1.000000E+00  0.000000E+00
  0.000295525  3.548800E-02 -8.023170E-03  2.470830E+00  3.471280E-01  1.000000E+00  0.000000E+00  1.000000E+00  0.000000E+00
  0.000298000  3.488340E-02 -9.376910E-03  2.472280E+00  3.322470E-01  1.000000E+00  0.000000E+00  1.000000E+00  0.000000E+00
  0.000300475  3.562140E-02 -9.404760E-03  2.473250E+00  3.172770E-01  1.000000E+00  0.000000E+00  1.000000E+00  0.000000E+00
  0.000302950  3.573370E-02 -8.535420E-03  2.472600E+00  2.996930E-01  1.000000E+00  0.000000E+00  1.000000E+00  0.000000E+00
  0.000305425  3.593520E-02 -8.109210E-03  2.471430E+00  2.819450E-01  1.000000E+00  0.000000E+00  1.000000E+00  0.000000E+00
  0.000307900  3.580530E-02 -8.615040E-03  2.470520E+00  2.696900E-01  1.000000E+00  0.000000E+00  1.000000E+00  0.000000E+00
  0.000310375  3.676470E-02 -8.568190E-03  2.475050E+00  2.541600E-01  1.000000E+00  0.000000E+00  1.000000E+00  0.000000E+00
  0.000312850  3.651360E-02 -8.085310E-03  2.475170E+00  2.433670E-01  1.000000E+00  0.000000E+00  1.000000E+00  0.000000E+00
  0.000315325  3.593040E-02 -8.828810E-03  2.473890E+00  2.303530E-01  1.000000E+00  0.000000E+00  1.000000E+00  0.000000E+00
  0.000317800  3.665580E-02 -6.093460E-03  2.477470E+00  2.115250E-01  1.000000E+00  0.000000E+00  1.000000E+00  0.000000E+00
  0.000320275  3.664490E-02 -6.112280E-03  2.477090E+00  2.005810E-01  1.000000E+00  0.000000E+00  1.000000E+00  0.000000E+00
  0.000322750  3.685820E-02 -7.014800E-03  2.473800E+00  1.886760E-01  1.000000E+00  0.000000E+00  1.000000E+00  0.000000E+00
  0.000325225  3.676530E-02 -7.010970E-03  2.469400E+00  1.780120E-01  1.000000E+00  0.000000E+00  1.000000E+00  0.000000E+00
  0.000327700  3.740920E-02 -6.673930E-03  2.470630E+00  1.528710E-01  1.000000E+00  0.000000E+00  1.000000E+00  0.000000E+00
  0.000330175  3.761730E-02 -6.835950E-03  2.471000E+00  1.436360E-01  1.000000E+00  0.000000E+00  1.000000E+00  0.000000E+00
  0.000332650  3.648300E-02 -5.990130E-03  2.471010E+00  1.288980E-01  1.000000E+00  0.000000E+00  1.000000E+00  0.000000E+00
  0.000335125  3.773720E-02 -6.140970E-03  2.473400E+00  1.200610E-01  1.000000E+00  0.000000E+00  1.000000E+00  0.000000E+00
  0.000337600  3.834280E-02 -5.971390E-03  2.468980E+00  1.107200E-01  1.000000E+00  0.000000E+00  1.000000E+00  0.000000E+00
  0.000340075  3.863900E-02 -6.931000E-03  2.476290E+00  9.372650E-02  1.000000E+00  0.000000E+00  1.000000E+00  0.000000E+00
  0.000342550  3.732260E-02 -6.329800E-03  2.471980E+00  8.017300E-02  1.000000E+00  0.000000E+00  1.000000E+00  0.000000E+00
  0.000345025  3.824230E-02 -6.343830E-03  2.474380E+00  6.842190E-02  1.000000E+00  0.000000E+00  1.000000E+00  0.000000E+00
  0.000347500  3.829680E-02 -6.906480E-03  2.470470E+00  5.757720E-02  1.000000E+00  0.000000E+00  1.000000E+00  0.000000E+00
  0.000349975  3.882090E-02 -4.687280E-03  2.473120E+00  3.644460E-02  1.000000E+00  0.000000E+00  1.000000E+00  0.000000E+00
  0.000352450  3.940230E-02 -5.860910E-03  2.471940E+00  2.688240E-02  1.000000E+00  0.000000E+00  1.000000E+00  0.000000E+00
  0.000354925  3.912010E-02 -5.099530E-03  2.467480E+00  1.569530E-02  1.000000E+00  0.000000E+00  1.000000E+00  0.000000E+00
  0.000357400  3.853840E-02 -5.943660E-03  2.468240E+00  2.249610E-03  1.000000E+00  0.000000E+00  1.000000E+00  0.000000E+00
  0.000359875  3.939050E-02 -5.573260E-03  2.469850E+00 -4.792210E-03  1.000000E+00  0.000000E+00  1.000000E+00  0.000000E+00
  0.000362350  3.960560E-02 -5.664390E-03  2.460920E+00 -1.612120E-02  1.000000E+00  0.000000E+00  1.000000E+00  0.000000E+00
  0.000364825  4.018670E-02 -4.363110E-03  2.461640E+00 -2.617780E-02  1.000000E+00  0.000000E+00  1.000000E+00  0.000000E+00
  0.000367300  4.017010E-02 -5.809550E-03  2.457900E+00 -4.505590E-02  1.000000E+00  0.000000E+00  1.000000E+00  0.000000E+00
  0.000369775  3.924920E-02 -4.951800E-03  2.456190E+00 -5.464890E-02  1.000000E+00  0.000000E+00  1.000000E+00  0.000000E+00
  0.000372250  3.966260E-02 -5.172640E-03  2.456160E+00 -6.255820E-02  1.000000E+00  0.000000E+00  1.000000E+00  0.000000E+00
  0.000374725  3.964990E-02 -5.358300E-03  2.458050E+00 -7.721960E-02  1.000000E+00  0.000000E+00  1.000000E+00  0.000000E+00
  0.000377200  3.944050E-02 -5.095980E-03  2.453860E+00 -8.920460E-02  1.000000E+00  0.000000E+00  1.000000E+00  0.000000E+00
  0.000379675  4.028870E-02 -5.883610E-03  2.451810E+00 -9.750300E-02  1.000000E+00  0.000000E+00  1.000000E+00  0.000000E+00
  0.000382150  4.028490E-02 -5.773950E-03  2.447410E+00 -1.114920E-01  1.000000E+00  0.000000E+00  1.000000E+00  0.000000E+00
  0.000384625  4.103950E-02 -5.346830E-03  2.444340E+00 -1.237560E-01  1.000000E+00  0.000000E+00  1.000000E+00  0.000000E+00
  0.000387100  3.993990E-02 -5.252530E-03  2.443490E+00 -1.314620E-01  1.000000E+00  0.000000E+00  1.000000E+00  0.000000E+00
  0.000389575  4.024840E-02 -5.563410E-03  2.444240E+00 -1.417380E-01  1.000000E+00  0.000000E+00  1.000000E+00  0.000000E+00
  0.000392050  4.036160E-02 -3.761490E-03  2.440630E+00 -1.538230E-01  1.000000E+00  0.000000E+00  1.000000E+00  0.000000E+00
  0.000394525  4.021170E-02 -4.550130E-03  2.436990E+00 -1.656280E-01  1.000000E+00  0.000000E+00  1.000000E+00  0.000000E+00
  0.000397000  4.005680E-02 -4.198730E-03  2.433920E+00 -1.706060E-01  1.000000E+00  0.000000E+00  1.000000E+00  0.000000E+00
  0.000399475  4.165620E-02 -5.146940E-03  2.432570E+00 -1.876520E-01  1.000000E+00  0.000000E+00  1.000000E+00  0.000000E+00
  0.000401950  4.064780E-02 -5.497990E-03  2.431630E+00 -2.031960E-01  1.000000E+00  0.000000E+00  1.000000E+00  0.000000E+00
  0.000404425  4.136830E-02 -3.347100E-03  2.425630E+00 -2.127430E-01  1.000000E+00  0.000000E+00  1.000000E+00  0.000000E+00
  0.000406900  4.096250E-02 -5.601840E-03  2.421090E+00 -2.221260E-01  1.000000E+00  0.000000E+00  1.000000E+00  0.000000E+00
  0.000409375  4.115690E-02 -5.259280E-03  2.419480E+00 -2.299540E-01  1.000000E+00  0.000000E+00  1.000000E+00  0.000000E+00
  0.000411850  4.126840E-02 -6.186910E-03  2.414470E+00 -2.401300E-01  1.000000E+00  0.000000E+00  1.000000E+00  0.000000E+00
  0.000414325  4.124030E-02 -3.988820E-03  2.409080E+00 -2.542770E-01  1.000000E+00  0.000000E+00  1.000000E+00  0.000000E+00
  0.000416800  4.129310E-02 -3.980270E-03  2.409220E+00 -2.611090E-01  1.000000E+00  0.000000E+00  1.000000E+00  0.000000E+00
  0.000419275  4.162060E-02 -5.292690E-03  2.399430E+00 -2.733740E-01  1.000000E+00  0.000000E+00  1.000000E+00  0.000000E+00
  0.000421750  4.278860E-02 -4.382940E-03  2.397000E+00 -2.778470E-01  1.000000E+00  0.000000E+00  1.000000E+00  0.000000E+00
  0.000424225  4.250840E-02 -4.543960E-03  2.391370E+00 -2.936360E-01  1.000000E+00  0.000000E+00  1.000000E+00  0.000000E+00
  0.000426700  4.148950E-02 -5.130900E-03  2.383230E+00 -3.005240E-01  1.000000E+00  0.000000E+00  1.000000E+00  0.000000E+00
  0.000429175  4.180010E-02 -5.045680E-03  2.381980E+00 -3.025160E-01  1.000000E+00  0.000000E+00  1.000000E+00  0.000000E+00
  0.000431650  4.219840E-02 -4.344440E-03  2.371060E+00 -3.079500E-01  1.000000E+00  0.000000E+00  1.000000E+00  0.000000E+00
  0.000434125  4.264960E-02 -5.283970E-03  2.370420E+00 -3.192970E-01  1.000000E+00  0.000000E+00  1.000000E+00  0.000000E+00
  0.000436600  4.154000E-02 -4.185800E-03  2.356230E+00 -3.222940E-01  1.000000E+00  0.000000E+00  1.000000E+00  0.000000E+00
  0.000439075  4.259800E-02 -4.610980E-03  2.356850E+00 -3.268510E-01  1.000000E+00  0.000000E+00  1.000000E+00  0.000000E+00
  0.000441550  4.239750E-02 -4.093750E-03  2.363690E+00 -3.334460E-01  1.000000E+00  0.000000E+00  1.000000E+00  0.000000E+00
  0.000444025  4.200390E-02 -3.975970E-03  2.356480E+00 -3.362060E-01  1.000000E+00  0.000000E+00  1.000000E+00  0.000000E+00
  0.000446500  4.231500E-02 -4.913530E-03  2.358800E+00 -3.406200E-01  1.000000E+00  0.000000E+00  1.000000E+00  0.000000E+00
  0.000448975  4.188210E-02 -3.988600E-03  2.354680E+00 -3.453820E-01  1.000000E+00  0.000000E+00  1.000000E+00  0.000000E+00
  0.000451450  4.290820E-02 -4.569760E-03  2.354730E+00 -3.486470E-01  1.000000E+00  0.000000E+00  1.000000E+00  0.000000E+00
  0.000453925  4.191440E-02 -4.621470E-03  2.353450E+00 -3.508430E-01  1.000000E+00  0.000000E+00  1.000000E+00  0.000000E+00
