! Anritsu VNA Master:                        Model: MS2026C/19
! SN:                                  1815009
! /card0/usr/20180902_7.s2p
! Existing Calibration Information:
! TYPE:                         Current Settings,       Active Cal Settings
! TIME:             	   09/02/2018 12:36:35 PM,    09/02/2018 11:58:48 AM
! INTERNAL TEMP:    	                   52.8 C,                    48.8 C
! # POINTS:         	                     4001,                      4001
! START FREQ:       	              100.000 kHz,               100.000 kHz
! STOP FREQ:        	               10.000 MHz,                10.000 MHz
! SOURCE POWER:     	                      Low,                       Low
! IFBW:             	                   500 Hz,                    500 Hz
! AVG FACTOR:       	                       1 ,                        1 
! REF PLANE 1:      	                     0 mm,                      0 mm
! REF PLANE 2:      	                     0 mm,                      0 mm
! CAL TYPE:         	             1P2P S11,S21,              1P2P S11,S21
! CAL METHOD:       	                     SOLT,                      SOLT
! CAL LINE TYPE:    	                     Coax,                      Coax
! DUT PORT 1:       	                N-Conn(M),                 N-Conn(M)
! DUT PORT 2:       	                N-Conn(M),                 N-Conn(M)
! CAL STATUS:       	        OK: Accuracy High,                        --
# GHZ S RI R 50.0
! FREQ.GHZ      S11RE         S11IM         S21RE         S21IM         S12RE         S12IM         S22RE         S22IM
  0.000100000  1.675310E-03 -6.005870E-02 -4.110840E-04 -5.489250E-04  1.000000E+00  0.000000E+00  1.000000E+00  0.000000E+00
  0.000102475  2.870680E-03 -5.764200E-02  9.456020E-04 -1.060300E-03  1.000000E+00  0.000000E+00  1.000000E+00  0.000000E+00
  0.000104950  3.381190E-03 -5.499370E-02  3.311030E-04 -2.369450E-03  1.000000E+00  0.000000E+00  1.000000E+00  0.000000E+00
  0.000107425  5.311380E-03 -5.254610E-02 -2.949500E-04 -1.331060E-03  1.000000E+00  0.000000E+00  1.000000E+00  0.000000E+00
  0.000109900  6.866980E-03 -5.040160E-02 -1.802840E-04 -1.905580E-03  1.000000E+00  0.000000E+00  1.000000E+00  0.000000E+00
  0.000112375  6.771450E-03 -4.877440E-02 -3.265630E-04 -2.076730E-03  1.000000E+00  0.000000E+00  1.000000E+00  0.000000E+00
  0.000114850  8.636120E-03 -4.695060E-02 -5.293460E-04 -1.937130E-03  1.000000E+00  0.000000E+00  1.000000E+00  0.000000E+00
  0.000117325  1.070390E-02 -4.676830E-02 -1.177780E-03 -1.461060E-03  1.000000E+00  0.000000E+00  1.000000E+00  0.000000E+00
  0.000119800  1.150200E-02 -4.423820E-02 -1.063530E-03 -2.472120E-03  1.000000E+00  0.000000E+00  1.000000E+00  0.000000E+00
  0.000122275  1.313000E-02 -4.362630E-02 -1.447240E-03 -1.604180E-03  1.000000E+00  0.000000E+00  1.000000E+00  0.000000E+00
  0.000124750  1.293150E-02 -4.157720E-02 -1.582950E-03 -1.267390E-03  1.000000E+00  0.000000E+00  1.000000E+00  0.000000E+00
  0.000127225  1.195270E-02 -3.998320E-02 -2.455380E-03 -2.168850E-03  1.000000E+00  0.000000E+00  1.000000E+00  0.000000E+00
  0.000129700  1.416780E-02 -3.742790E-02 -1.571930E-03 -1.359820E-03  1.000000E+00  0.000000E+00  1.000000E+00  0.000000E+00
  0.000132175  1.566920E-02 -3.709700E-02 -1.368920E-03 -9.319540E-04  1.000000E+00  0.000000E+00  1.000000E+00  0.000000E+00
  0.000134650  1.570250E-02 -3.686470E-02 -7.677810E-04 -1.727340E-03  1.000000E+00  0.000000E+00  1.000000E+00  0.000000E+00
  0.000137125  1.815400E-02 -3.514700E-02 -1.153180E-03 -1.727720E-03  1.000000E+00  0.000000E+00  1.000000E+00  0.000000E+00
  0.000139600  1.777470E-02 -3.446490E-02 -1.251390E-03 -1.430770E-03  1.000000E+00  0.000000E+00  1.000000E+00  0.000000E+00
  0.000142075  1.851210E-02 -3.312480E-02 -3.402750E-04  2.617620E-06  1.000000E+00  0.000000E+00  1.000000E+00  0.000000E+00
  0.000144550  1.851930E-02 -3.273690E-02 -2.215060E-03 -4.217640E-04  1.000000E+00  0.000000E+00  1.000000E+00  0.000000E+00
  0.000147025  2.018540E-02 -3.071420E-02 -6.896530E-04 -6.494100E-04  1.000000E+00  0.000000E+00  1.000000E+00  0.000000E+00
  0.000149500  2.066170E-02 -3.090810E-02 -1.744610E-03 -1.314940E-03  1.000000E+00  0.000000E+00  1.000000E+00  0.000000E+00
  0.000151975  2.186410E-02 -3.079720E-02 -1.219510E-03 -1.078320E-04  1.000000E+00  0.000000E+00  1.000000E+00  0.000000E+00
  0.000154450  2.053790E-02 -2.872960E-02 -1.072580E-03 -3.772640E-04  1.000000E+00  0.000000E+00  1.000000E+00  0.000000E+00
  0.000156925  2.240270E-02 -2.644060E-02 -1.159600E-03 -8.979640E-04  1.000000E+00  0.000000E+00  1.000000E+00  0.000000E+00
  0.000159400  2.253470E-02 -2.711730E-02 -1.589570E-03 -5.430950E-04  1.000000E+00  0.000000E+00  1.000000E+00  0.000000E+00
  0.000161875  2.361460E-02 -2.689970E-02 -1.273440E-03 -9.077170E-04  1.000000E+00  0.000000E+00  1.000000E+00  0.000000E+00
  0.000164350  2.384750E-02 -2.768130E-02 -1.594580E-03 -4.120460E-04  1.000000E+00  0.000000E+00  1.000000E+00  0.000000E+00
  0.000166825  2.471660E-02 -2.601130E-02 -1.405840E-03 -1.111520E-04  1.000000E+00  0.000000E+00  1.000000E+00  0.000000E+00
  0.000169300  2.468550E-02 -2.505930E-02 -5.030930E-04 -1.176710E-03  1.000000E+00  0.000000E+00  1.000000E+00  0.000000E+00
  0.000171775  2.567600E-02 -2.377350E-02 -1.189760E-03 -8.275550E-04  1.000000E+00  0.000000E+00  1.000000E+00  0.000000E+00
  0.000174250  2.498710E-02 -2.444450E-02 -1.366670E-03 -8.992940E-04  1.000000E+00  0.000000E+00  1.000000E+00  0.000000E+00
  0.000176725  2.638690E-02 -2.373230E-02 -6.914970E-04 -2.521660E-03  1.000000E+00  0.000000E+00  1.000000E+00  0.000000E+00
  0.000179200  2.589880E-02 -2.341310E-02 -2.899360E-03 -1.559360E-03  1.000000E+00  0.000000E+00  1.000000E+00  0.000000E+00
  0.000181675  2.598650E-02 -2.309840E-02 -1.844830E-03 -1.202010E-03  1.000000E+00  0.000000E+00  1.000000E+00  0.000000E+00
  0.000184150  2.854730E-02 -2.147760E-02 -8.932030E-04 -8.579440E-04  1.000000E+00  0.000000E+00  1.000000E+00  0.000000E+00
  0.000186625  2.782070E-02 -2.117260E-02 -4.034640E-04 -9.593500E-04  1.000000E+00  0.000000E+00  1.000000E+00  0.000000E+00
  0.000189100  2.749110E-02 -2.147950E-02 -2.090280E-03 -1.043500E-03  1.000000E+00  0.000000E+00  1.000000E+00  0.000000E+00
  0.000191575  2.798380E-02 -2.047530E-02 -1.365990E-03 -7.901200E-04  1.000000E+00  0.000000E+00  1.000000E+00  0.000000E+00
  0.000194050  2.724790E-02 -2.044690E-02 -3.894120E-04  4.122590E-04  1.000000E+00  0.000000E+00  1.000000E+00  0.000000E+00
  0.000196525  2.784080E-02 -1.943580E-02 -2.433760E-04 -2.489960E-05  1.000000E+00  0.000000E+00  1.000000E+00  0.000000E+00
  0.000199000  2.816810E-02 -1.908840E-02 -9.291470E-04 -1.789700E-03  1.000000E+00  0.000000E+00  1.000000E+00  0.000000E+00
  0.000201475  2.901410E-02 -1.872010E-02 -1.154900E-03 -2.024220E-03  1.000000E+00  0.000000E+00  1.000000E+00  0.000000E+00
  0.000203950  2.853360E-02 -1.859260E-02 -6.793100E-04 -9.587840E-04  1.000000E+00  0.000000E+00  1.000000E+00  0.000000E+00
  0.000206425  3.083820E-02 -1.967150E-02 -3.195850E-04 -1.061700E-04  1.000000E+00  0.000000E+00  1.000000E+00  0.000000E+00
  0.000208900  2.932790E-02 -1.796310E-02 -1.008820E-03 -4.615390E-04  1.000000E+00  0.000000E+00  1.000000E+00  0.000000E+00
  0.000211375  2.980590E-02 -1.847250E-02 -1.943620E-03 -4.007180E-04  1.000000E+00  0.000000E+00  1.000000E+00  0.000000E+00
  0.000213850  2.948920E-02 -1.517120E-02  9.916670E-04 -1.265110E-03  1.000000E+00  0.000000E+00  1.000000E+00  0.000000E+00
  0.000216325  2.860440E-02 -1.746780E-02 -2.347900E-04 -9.499200E-04  1.000000E+00  0.000000E+00  1.000000E+00  0.000000E+00
  0.000218800  3.063700E-02 -1.618990E-02 -1.098050E-03 -8.964440E-04  1.000000E+00  0.000000E+00  1.000000E+00  0.000000E+00
  0.000221275  3.090300E-02 -1.553850E-02 -1.516440E-03 -9.861740E-04  1.000000E+00  0.000000E+00  1.000000E+00  0.000000E+00
  0.000223750  3.041460E-02 -1.586630E-02 -2.234370E-03 -1.197780E-03  1.000000E+00  0.000000E+00  1.000000E+00  0.000000E+00
  0.000226225  3.146010E-02 -1.653210E-02  5.059950E-04 -1.316790E-03  1.000000E+00  0.000000E+00  1.000000E+00  0.000000E+00
  0.000228700  3.035880E-02 -1.557720E-02 -1.330740E-03 -1.084780E-03  1.000000E+00  0.000000E+00  1.000000E+00  0.000000E+00
  0.000231175  3.143710E-02 -1.621130E-02 -1.088380E-03 -6.383950E-04  1.000000E+00  0.000000E+00  1.000000E+00  0.000000E+00
  0.000233650  3.080120E-02 -1.500440E-02 -2.090990E-03 -3.543910E-04  1.000000E+00  0.000000E+00  1.000000E+00  0.000000E+00
  0.000236125  3.108120E-02 -1.359560E-02 -1.348660E-03  6.516850E-06  1.000000E+00  0.000000E+00  1.000000E+00  0.000000E+00
  0.000238600  3.084340E-02 -1.505550E-02 -8.112070E-04 -1.307650E-03  1.000000E+00  0.000000E+00  1.000000E+00  0.000000E+00
  0.000241075  3.211950E-02 -1.446530E-02 -3.127760E-04  1.218480E-04  1.000000E+00  0.000000E+00  1.000000E+00  0.000000E+00
  0.000243550  3.132430E-02 -1.291640E-02 -1.332370E-03 -1.369570E-03  1.000000E+00  0.000000E+00  1.000000E+00  0.000000E+00
  0.000246025  3.249190E-02 -1.279800E-02 -9.867511E-04 -3.894470E-04  1.000000E+00  0.000000E+00  1.000000E+00  0.000000E+00
  0.000248500  3.143370E-02 -1.303510E-02 -5.734520E-04 -1.289020E-03  1.000000E+00  0.000000E+00  1.000000E+00  0.000000E+00
  0.000250975  3.206830E-02 -1.338930E-02 -2.155940E-03 -7.703880E-04  1.000000E+00  0.000000E+00  1.000000E+00  0.000000E+00
  0.000253450  3.129330E-02 -1.370600E-02 -1.850040E-03 -3.400950E-04  1.000000E+00  0.000000E+00  1.000000E+00  0.000000E+00
  0.000255925  3.194600E-02 -9.611580E-03 -1.815830E-03 -9.981480E-04  1.000000E+00  0.000000E+00  1.000000E+00  0.000000E+00
  0.000258400  3.141070E-02 -1.100870E-02 -1.368430E-03 -4.722690E-04  1.000000E+00  0.000000E+00  1.000000E+00  0.000000E+00
  0.000260875  3.242090E-02 -1.240080E-02 -6.737070E-04 -1.452190E-03  1.000000E+00  0.000000E+00  1.000000E+00  0.000000E+00
  0.000263350  3.280720E-02 -1.018190E-02 -3.930090E-04 -1.776650E-03  1.000000E+00  0.000000E+00  1.000000E+00  0.000000E+00
  0.000265825  3.160580E-02 -1.126840E-02 -2.294760E-03 -1.407390E-03  1.000000E+00  0.000000E+00  1.000000E+00  0.000000E+00
  0.000268300  3.258320E-02 -1.024250E-02 -1.423110E-03 -3.499040E-04  1.000000E+00  0.000000E+00  1.000000E+00  0.000000E+00
  0.000270775  3.288610E-02 -9.759380E-03 -7.539590E-04 -7.128800E-04  1.000000E+00  0.000000E+00  1.000000E+00  0.000000E+00
  0.000273250  3.304720E-02 -1.006500E-02 -2.523870E-03 -3.782740E-04  1.000000E+00  0.000000E+00  1.000000E+00  0.000000E+00
  0.000275725  3.291870E-02 -7.868220E-03 -3.079010E-03 -1.438170E-03  1.000000E+00  0.000000E+00  1.000000E+00  0.000000E+00
  0.000278200  3.309600E-02 -9.133520E-03 -1.779310E-03 -1.689790E-03  1.000000E+00  0.000000E+00  1.000000E+00  0.000000E+00
  0.000280675  3.348230E-02 -8.347450E-03 -1.125880E-03 -1.921770E-04  1.000000E+00  0.000000E+00  1.000000E+00  0.000000E+00
  0.000283150  3.207520E-02 -9.194270E-03 -1.094670E-03 -3.846600E-04  1.000000E+00  0.000000E+00  1.000000E+00  0.000000E+00
  0.000285625  3.368880E-02 -7.998340E-03 -3.166820E-03 -2.305560E-03  1.000000E+00  0.000000E+00  1.000000E+00  0.000000E+00
  0.000288100  3.310340E-02 -7.622360E-03 -2.078440E-03 -2.265540E-03  1.000000E+00  0.000000E+00  1.000000E+00  0.000000E+00
  0.000290575  3.453780E-02 -7.526600E-03 -1.739630E-03 -7.024860E-04  1.000000E+00  0.000000E+00  1.000000E+00  0.000000E+00
  0.000293050  3.355710E-02 -6.753200E-03 -2.017190E-03  4.140240E-04  1.000000E+00  0.000000E+00  1.000000E+00  0.000000E+00
  0.000295525  3.446590E-02 -5.254120E-03 -3.234490E-03 -1.020770E-03  1.000000E+00  0.000000E+00  1.000000E+00  0.000000E+00
  0.000298000  3.526490E-02 -6.694820E-03 -3.566800E-03 -2.398150E-03  1.000000E+00  0.000000E+00  1.000000E+00  0.000000E+00
  0.000300475  3.595960E-02 -6.177830E-03 -1.594500E-03 -8.059690E-04  1.000000E+00  0.000000E+00  1.000000E+00  0.000000E+00
  0.000302950  3.456460E-02 -5.221010E-03 -2.266340E-03 -1.610440E-03  1.000000E+00  0.000000E+00  1.000000E+00  0.000000E+00
  0.000305425  3.592370E-02 -4.215410E-03 -2.601620E-03 -6.462310E-04  1.000000E+00  0.000000E+00  1.000000E+00  0.000000E+00
  0.000307900  3.503870E-02 -5.383800E-03 -7.130000E-03 -2.505220E-03  1.000000E+00  0.000000E+00  1.000000E+00  0.000000E+00
  0.000310375  3.788620E-02 -6.476250E-03 -2.514100E-03  1.786010E-04  1.000000E+00  0.000000E+00  1.000000E+00  0.000000E+00
  0.000312850  3.583150E-02 -5.628660E-03 -2.694260E-03 -1.235410E-04  1.000000E+00  0.000000E+00  1.000000E+00  0.000000E+00
  0.000315325  3.442850E-02 -3.918220E-03 -2.751320E-03 -1.015770E-04  1.000000E+00  0.000000E+00  1.000000E+00  0.000000E+00
  0.000317800  3.601330E-02 -2.829880E-03 -9.925300E-03 -1.520220E-03  1.000000E+00  0.000000E+00  1.000000E+00  0.000000E+00
  0.000320275  3.747220E-02 -1.963180E-03 -6.580240E-03 -1.872740E-03  1.000000E+00  0.000000E+00  1.000000E+00  0.000000E+00
  0.000322750  3.635480E-02 -3.811090E-03 -2.936770E-03 -1.015540E-03  1.000000E+00  0.000000E+00  1.000000E+00  0.000000E+00
  0.000325225  3.589410E-02 -2.491580E-03 -4.028920E-03 -1.230780E-03  1.000000E+00  0.000000E+00  1.000000E+00  0.000000E+00
  0.000327700  3.703510E-02 -2.516960E-03 -9.189100E-03  9.509230E-04  1.000000E+00  0.000000E+00  1.000000E+00  0.000000E+00
  0.000330175  3.845880E-02 -3.889070E-03 -1.168370E-02  3.383470E-03  1.000000E+00  0.000000E+00  1.000000E+00  0.000000E+00
  0.000332650  3.542650E-02 -2.731980E-03 -2.418470E-03 -1.206200E-03  1.000000E+00  0.000000E+00  1.000000E+00  0.000000E+00
  0.000335125  3.836730E-02 -1.678560E-03 -4.328730E-03 -6.144650E-04  1.000000E+00  0.000000E+00  1.000000E+00  0.000000E+00
  0.000337600  4.011520E-02 -3.073850E-03 -5.917630E-03  2.855970E-03  1.000000E+00  0.000000E+00  1.000000E+00  0.000000E+00
  0.000340075  4.138640E-02 -3.750930E-03 -8.170730E-03  1.190960E-02  1.000000E+00  0.000000E+00  1.000000E+00  0.000000E+00
  0.000342550  3.790210E-02 -9.518700E-04 -3.493520E-03 -1.291380E-03  1.000000E+00  0.000000E+00  1.000000E+00  0.000000E+00
  0.000345025  3.857910E-02 -2.199460E-03 -4.257640E-03  5.639130E-04  1.000000E+00  0.000000E+00  1.000000E+00  0.000000E+00
  0.000347500  3.908780E-02 -1.526090E-03 -5.212180E-03  1.778450E-03  1.000000E+00  0.000000E+00  1.000000E+00  0.000000E+00
  0.000349975  4.134340E-02 -1.555670E-03 -1.851950E-03  1.106820E-02  1.000000E+00  0.000000E+00  1.000000E+00  0.000000E+00
  0.000352450  4.017440E-02 -6.487920E-04 -4.094140E-03  1.901920E-03  1.000000E+00  0.000000E+00  1.000000E+00  0.000000E+00
  0.000354925  3.924330E-02 -1.394440E-04 -3.984050E-03  6.794860E-04  1.000000E+00  0.000000E+00  1.000000E+00  0.000000E+00
  0.000357400  3.919090E-02 -1.606060E-03 -4.918090E-03  2.476790E-03  1.000000E+00  0.000000E+00  1.000000E+00  0.000000E+00
  0.000359875  4.020700E-02 -1.613170E-03 -6.366550E-04  9.373630E-03  1.000000E+00  0.000000E+00  1.000000E+00  0.000000E+00
  0.000362350  4.059480E-02 -1.988070E-03 -2.016110E-03  4.544770E-03  1.000000E+00  0.000000E+00  1.000000E+00  0.000000E+00
  0.000364825  4.389730E-02 -3.028880E-04 -5.229460E-03  1.446900E-03  1.000000E+00  0.000000E+00  1.000000E+00  0.000000E+00
  0.000367300  4.275290E-02 -1.103660E-03 -5.096500E-03  4.093930E-03  1.000000E+00  0.000000E+00  1.000000E+00  0.000000E+00
  0.000369775  4.134670E-02 -4.604590E-04 -6.858060E-04  7.372460E-03  1.000000E+00  0.000000E+00  1.000000E+00  0.000000E+00
  0.000372250  4.221120E-02 -2.042730E-03  1.300460E-03  5.853830E-03  1.000000E+00  0.000000E+00  1.000000E+00  0.000000E+00
  0.000374725  4.202370E-02 -1.311360E-03 -4.628690E-03  4.227110E-03  1.000000E+00  0.000000E+00  1.000000E+00  0.000000E+00
  0.000377200  4.153070E-02  1.910240E-04 -4.170980E-03  6.515740E-03  1.000000E+00  0.000000E+00  1.000000E+00  0.000000E+00
  0.000379675  4.304940E-02 -2.279950E-03 -4.412380E-04  6.625650E-03  1.000000E+00  0.000000E+00  1.000000E+00  0.000000E+00
  0.000382150  4.257680E-02 -1.289860E-03  3.950700E-03  4.978710E-03  1.000000E+00  0.000000E+00  1.000000E+00  0.000000E+00
  0.000384625  4.476170E-02 -2.030600E-03 -3.709550E-03  7.542480E-03  1.000000E+00  0.000000E+00  1.000000E+00  0.000000E+00
  0.000387100  4.314920E-02 -1.427620E-03 -2.738700E-03  9.043690E-03  1.000000E+00  0.000000E+00  1.000000E+00  0.000000E+00
  0.000389575  4.371120E-02 -1.640650E-03  1.004280E-03  7.340840E-03  1.000000E+00  0.000000E+00  1.000000E+00  0.000000E+00
  0.000392050  4.399250E-02 -2.345020E-04  2.791480E-03  4.928330E-03  1.000000E+00  0.000000E+00  1.000000E+00  0.000000E+00
  0.000394525  4.436560E-02 -1.051420E-03  1.410250E-03  5.583890E-03  1.000000E+00  0.000000E+00  1.000000E+00  0.000000E+00
  0.000397000  4.363790E-02 -5.414400E-04 -1.124710E-03  8.618770E-03  1.000000E+00  0.000000E+00  1.000000E+00  0.000000E+00
  0.000399475  4.580050E-02 -2.089580E-03  2.281210E-03  7.332570E-03  1.000000E+00  0.000000E+00  1.000000E+00  0.000000E+00
  0.000401950  4.451660E-02 -2.422340E-03  3.469360E-03  3.718040E-03  1.000000E+00  0.000000E+00  1.000000E+00  0.000000E+00
  0.000404425  4.345020E-02 -4.347320E-04  2.406510E-03  3.871190E-03  1.000000E+00  0.000000E+00  1.000000E+00  0.000000E+00
  0.000406900  4.576270E-02 -1.874520E-03  3.243120E-03  5.696470E-03  1.000000E+00  0.000000E+00  1.000000E+00  0.000000E+00
  0.000409375  4.552230E-02 -2.350640E-03  5.663940E-03  5.328550E-03  1.000000E+00  0.000000E+00  1.000000E+00  0.000000E+00
  0.000411850  4.343180E-02 -3.721800E-03  4.688080E-03  2.997760E-03  1.000000E+00  0.000000E+00  1.000000E+00  0.000000E+00
  0.000414325  4.474690E-02 -2.634650E-03  3.124280E-03  3.391040E-03  1.000000E+00  0.000000E+00  1.000000E+00  0.000000E+00
  0.000416800  4.393160E-02 -2.338980E-03  4.430010E-03  3.636670E-03  1.000000E+00  0.000000E+00  1.000000E+00  0.000000E+00
  0.000419275  4.663380E-02 -2.987370E-03  6.642750E-03  3.205620E-03  1.000000E+00  0.000000E+00  1.000000E+00  0.000000E+00
  0.000421750  4.516620E-02 -2.861020E-03  7.002890E-03  1.373100E-03  1.000000E+00  0.000000E+00  1.000000E+00  0.000000E+00
  0.000424225  4.690710E-02 -2.164210E-03  1.963260E-03  2.060880E-03  1.000000E+00  0.000000E+00  1.000000E+00  0.000000E+00
  0.000426700  4.684410E-02 -1.797390E-03  4.479700E-03  6.975930E-04  1.000000E+00  0.000000E+00  1.000000E+00  0.000000E+00
  0.000429175  4.468560E-02 -3.738290E-03  5.163340E-03  1.214270E-03  1.000000E+00  0.000000E+00  1.000000E+00  0.000000E+00
  0.000431650  4.679350E-02 -3.579920E-03  5.951710E-03 -1.666810E-04  1.000000E+00  0.000000E+00  1.000000E+00  0.000000E+00
  0.000434125  4.644120E-02 -3.699790E-03  4.084180E-03 -3.251140E-04  1.000000E+00  0.000000E+00  1.000000E+00  0.000000E+00
  0.000436600  4.566790E-02 -2.333200E-03  4.749190E-03  8.528780E-04  1.000000E+00  0.000000E+00  1.000000E+00  0.000000E+00
  0.000439075  4.625080E-02 -3.010860E-03  3.501890E-03 -2.876610E-04  1.000000E+00  0.000000E+00  1.000000E+00  0.000000E+00
  0.000441550  4.741930E-02 -1.480420E-03  4.391690E-03 -2.339520E-03  1.000000E+00  0.000000E+00  1.000000E+00  0.000000E+00
  0.000444025  4.606940E-02 -2.096660E-03  3.396590E-03 -1.960490E-03  1.000000E+00  0.000000E+00  1.000000E+00  0.000000E+00
  0.000446500  4.577920E-02 -4.078400E-03  1.648290E-03  3.816000E-04  1.000000E+00  0.000000E+00  1.000000E+00  0.000000E+00
  0.000448975  4.539540E-02 -2.768180E-03  1.918580E-03 -3.515990E-03  1.000000E+00  0.000000E+00  1.000000E+00  0.000000E+00
  0.000451450  4.659140E-02 -3.768310E-03  1.703530E-03 -3.646170E-03  1.000000E+00  0.000000E+00  1.000000E+00  0.000000E+00
  0.000453925  4.680560E-02 -2.910290E-03  3.392190E-03 -3.121840E-03  1.000000E+00  0.000000E+00  1.000000E+00  0.000000E+00
