! Anritsu VNA Master:                        Model: MS2026C/19
! SN:                                  1815009
! /card0/usr/20180902_14.s2p
! Existing Calibration Information:
! TYPE:                         Current Settings,       Active Cal Settings
! TIME:             	   09/02/2018 12:48:57 PM,    09/02/2018 11:58:48 AM
! INTERNAL TEMP:    	                   53.8 C,                    48.8 C
! # POINTS:         	                     4001,                      4001
! START FREQ:       	              100.000 kHz,               100.000 kHz
! STOP FREQ:        	               10.000 MHz,                10.000 MHz
! SOURCE POWER:     	                      Low,                       Low
! IFBW:             	                   500 Hz,                    500 Hz
! AVG FACTOR:       	                       5 ,                        1 
! REF PLANE 1:      	                     0 mm,                      0 mm
! REF PLANE 2:      	                     0 mm,                      0 mm
! CAL TYPE:         	             1P2P S11,S21,              1P2P S11,S21
! CAL METHOD:       	                     SOLT,                      SOLT
! CAL LINE TYPE:    	                     Coax,                      Coax
! DUT PORT 1:       	                N-Conn(M),                 N-Conn(M)
! DUT PORT 2:       	                N-Conn(M),                 N-Conn(M)
! CAL STATUS:       	?T: Accuracy moderate (|Temp diff| > 5.0 C),                        --
# GHZ S RI R 50.0
! FREQ.GHZ      S11RE         S11IM         S21RE         S21IM         S12RE         S12IM         S22RE         S22IM
  0.000100000  4.129140E-03 -5.976410E-02  4.225820E-02  1.036120E-01  1.000000E+00  0.000000E+00  1.000000E+00  0.000000E+00
  0.000102475  6.265720E-03 -5.692190E-02  4.555130E-02  1.023920E-01  1.000000E+00  0.000000E+00  1.000000E+00  0.000000E+00
  0.000104950  6.364100E-03 -5.430360E-02  4.960010E-02  1.016900E-01  1.000000E+00  0.000000E+00  1.000000E+00  0.000000E+00
  0.000107425  9.006690E-03 -5.240690E-02  5.290000E-02  1.000340E-01  1.000000E+00  0.000000E+00  1.000000E+00  0.000000E+00
  0.000109900  9.434180E-03 -5.027890E-02  5.576190E-02  9.892970E-02  1.000000E+00  0.000000E+00  1.000000E+00  0.000000E+00
  0.000112375  1.137540E-02 -4.911610E-02  5.871010E-02  9.690750E-02  1.000000E+00  0.000000E+00  1.000000E+00  0.000000E+00
  0.000114850  1.188850E-02 -4.729780E-02  6.160330E-02  9.599830E-02  1.000000E+00  0.000000E+00  1.000000E+00  0.000000E+00
  0.000117325  1.372190E-02 -4.559260E-02  6.392080E-02  9.377760E-02  1.000000E+00  0.000000E+00  1.000000E+00  0.000000E+00
  0.000119800  1.475880E-02 -4.331160E-02  6.674220E-02  9.187230E-02  1.000000E+00  0.000000E+00  1.000000E+00  0.000000E+00
  0.000122275  1.530650E-02 -4.149430E-02  6.902170E-02  9.061790E-02  1.000000E+00  0.000000E+00  1.000000E+00  0.000000E+00
  0.000124750  1.668450E-02 -4.066240E-02  7.152640E-02  8.932130E-02  1.000000E+00  0.000000E+00  1.000000E+00  0.000000E+00
  0.000127225  1.638740E-02 -3.928710E-02  7.342310E-02  8.717090E-02  1.000000E+00  0.000000E+00  1.000000E+00  0.000000E+00
  0.000129700  1.764800E-02 -3.717670E-02  7.601490E-02  8.573750E-02  1.000000E+00  0.000000E+00  1.000000E+00  0.000000E+00
  0.000132175  1.940060E-02 -3.716950E-02  7.781960E-02  8.452470E-02  1.000000E+00  0.000000E+00  1.000000E+00  0.000000E+00
  0.000134650  1.912940E-02 -3.670540E-02  7.971050E-02  8.254530E-02  1.000000E+00  0.000000E+00  1.000000E+00  0.000000E+00
  0.000137125  2.047980E-02 -3.434420E-02  8.187500E-02  8.098040E-02  1.000000E+00  0.000000E+00  1.000000E+00  0.000000E+00
  0.000139600  2.177100E-02 -3.375250E-02  8.400080E-02  7.906950E-02  1.000000E+00  0.000000E+00  1.000000E+00  0.000000E+00
  0.000142075  2.243760E-02 -3.281100E-02  8.542940E-02  7.759130E-02  1.000000E+00  0.000000E+00  1.000000E+00  0.000000E+00
  0.000144550  2.299040E-02 -3.198580E-02  8.656150E-02  7.539410E-02  1.000000E+00  0.000000E+00  1.000000E+00  0.000000E+00
  0.000147025  2.374910E-02 -3.001640E-02  8.827810E-02  7.425070E-02  1.000000E+00  0.000000E+00  1.000000E+00  0.000000E+00
  0.000149500  2.490280E-02 -2.991550E-02  8.933870E-02  7.271650E-02  1.000000E+00  0.000000E+00  1.000000E+00  0.000000E+00
  0.000151975  2.477020E-02 -3.015340E-02  9.097990E-02  7.144170E-02  1.000000E+00  0.000000E+00  1.000000E+00  0.000000E+00
  0.000154450  2.532710E-02 -2.712120E-02  9.203250E-02  6.935270E-02  1.000000E+00  0.000000E+00  1.000000E+00  0.000000E+00
  0.000156925  2.635570E-02 -2.773940E-02  9.290330E-02  6.775850E-02  1.000000E+00  0.000000E+00  1.000000E+00  0.000000E+00
  0.000159400  2.562470E-02 -2.682180E-02  9.428450E-02  6.625260E-02  1.000000E+00  0.000000E+00  1.000000E+00  0.000000E+00
  0.000161875  2.724710E-02 -2.677860E-02  9.553010E-02  6.478530E-02  1.000000E+00  0.000000E+00  1.000000E+00  0.000000E+00
  0.000164350  2.731680E-02 -2.656710E-02  9.682550E-02  6.381740E-02  1.000000E+00  0.000000E+00  1.000000E+00  0.000000E+00
  0.000166825  2.835660E-02 -2.522490E-02  9.724770E-02  6.229720E-02  1.000000E+00  0.000000E+00  1.000000E+00  0.000000E+00
  0.000169300  2.887640E-02 -2.491650E-02  9.882120E-02  6.037910E-02  1.000000E+00  0.000000E+00  1.000000E+00  0.000000E+00
  0.000171775  2.871300E-02 -2.351020E-02  9.972080E-02  5.865770E-02  1.000000E+00  0.000000E+00  1.000000E+00  0.000000E+00
  0.000174250  2.951130E-02 -2.311780E-02  1.007570E-01  5.760230E-02  1.000000E+00  0.000000E+00  1.000000E+00  0.000000E+00
  0.000176725  2.997920E-02 -2.268960E-02  1.013500E-01  5.566420E-02  1.000000E+00  0.000000E+00  1.000000E+00  0.000000E+00
  0.000179200  3.021630E-02 -2.206990E-02  1.026660E-01  5.593830E-02  1.000000E+00  0.000000E+00  1.000000E+00  0.000000E+00
  0.000181675  3.028560E-02 -2.361750E-02  1.027610E-01  5.403030E-02  1.000000E+00  0.000000E+00  1.000000E+00  0.000000E+00
  0.000184150  3.145130E-02 -2.117310E-02  1.035570E-01  5.175360E-02  1.000000E+00  0.000000E+00  1.000000E+00  0.000000E+00
  0.000186625  3.140380E-02 -2.103670E-02  1.042650E-01  5.054580E-02  1.000000E+00  0.000000E+00  1.000000E+00  0.000000E+00
  0.000189100  3.120920E-02 -2.071070E-02  1.047220E-01  4.843900E-02  1.000000E+00  0.000000E+00  1.000000E+00  0.000000E+00
  0.000191575  3.133160E-02 -2.067820E-02  1.057350E-01  4.719700E-02  1.000000E+00  0.000000E+00  1.000000E+00  0.000000E+00
  0.000194050  3.198580E-02 -2.033990E-02  1.062880E-01  4.689850E-02  1.000000E+00  0.000000E+00  1.000000E+00  0.000000E+00
  0.000196525  3.252170E-02 -1.937350E-02  1.061580E-01  4.453910E-02  1.000000E+00  0.000000E+00  1.000000E+00  0.000000E+00
  0.000199000  3.308510E-02 -1.956750E-02  1.071970E-01  4.428090E-02  1.000000E+00  0.000000E+00  1.000000E+00  0.000000E+00
  0.000201475  3.320050E-02 -1.892300E-02  1.069790E-01  4.255860E-02  1.000000E+00  0.000000E+00  1.000000E+00  0.000000E+00
  0.000203950  3.305150E-02 -1.858210E-02  1.077550E-01  4.097110E-02  1.000000E+00  0.000000E+00  1.000000E+00  0.000000E+00
  0.000206425  3.341210E-02 -1.854760E-02  1.080840E-01  4.046320E-02  1.000000E+00  0.000000E+00  1.000000E+00  0.000000E+00
  0.000208900  3.355210E-02 -1.855480E-02  1.088410E-01  3.914610E-02  1.000000E+00  0.000000E+00  1.000000E+00  0.000000E+00
  0.000211375  3.501740E-02 -1.784380E-02  1.087820E-01  3.793510E-02  1.000000E+00  0.000000E+00  1.000000E+00  0.000000E+00
  0.000213850  3.363490E-02 -1.664350E-02  1.093630E-01  3.670730E-02  1.000000E+00  0.000000E+00  1.000000E+00  0.000000E+00
  0.000216325  3.453410E-02 -1.732860E-02  1.100030E-01  3.520740E-02  1.000000E+00  0.000000E+00  1.000000E+00  0.000000E+00
  0.000218800  3.450180E-02 -1.718000E-02  1.095980E-01  3.457330E-02  1.000000E+00  0.000000E+00  1.000000E+00  0.000000E+00
  0.000221275  3.572280E-02 -1.664800E-02  1.099950E-01  3.328870E-02  1.000000E+00  0.000000E+00  1.000000E+00  0.000000E+00
  0.000223750  3.527640E-02 -1.614410E-02  1.104380E-01  3.228480E-02  1.000000E+00  0.000000E+00  1.000000E+00  0.000000E+00
  0.000226225  3.654480E-02 -1.574130E-02  1.108460E-01  3.065260E-02  1.000000E+00  0.000000E+00  1.000000E+00  0.000000E+00
  0.000228700  3.529720E-02 -1.608690E-02  1.098650E-01  2.955460E-02  1.000000E+00  0.000000E+00  1.000000E+00  0.000000E+00
  0.000231175  3.515710E-02 -1.554940E-02  1.112860E-01  2.933230E-02  1.000000E+00  0.000000E+00  1.000000E+00  0.000000E+00
  0.000233650  3.600650E-02 -1.503860E-02  1.119720E-01  2.819240E-02  1.000000E+00  0.000000E+00  1.000000E+00  0.000000E+00
  0.000236125  3.610910E-02 -1.456000E-02  1.121310E-01  2.705500E-02  1.000000E+00  0.000000E+00  1.000000E+00  0.000000E+00
  0.000238600  3.697920E-02 -1.518250E-02  1.117070E-01  2.581610E-02  1.000000E+00  0.000000E+00  1.000000E+00  0.000000E+00
  0.000241075  3.556850E-02 -1.500050E-02  1.128280E-01  2.512980E-02  1.000000E+00  0.000000E+00  1.000000E+00  0.000000E+00
  0.000243550  3.575140E-02 -1.434110E-02  1.120420E-01  2.378600E-02  1.000000E+00  0.000000E+00  1.000000E+00  0.000000E+00
  0.000246025  3.703880E-02 -1.376260E-02  1.128740E-01  2.301770E-02  1.000000E+00  0.000000E+00  1.000000E+00  0.000000E+00
  0.000248500  3.663300E-02 -1.345770E-02  1.131500E-01  2.215010E-02  1.000000E+00  0.000000E+00  1.000000E+00  0.000000E+00
  0.000250975  3.762020E-02 -1.356710E-02  1.135580E-01  2.084910E-02  1.000000E+00  0.000000E+00  1.000000E+00  0.000000E+00
  0.000253450  3.665420E-02 -1.252700E-02  1.131480E-01  2.020220E-02  1.000000E+00  0.000000E+00  1.000000E+00  0.000000E+00
  0.000255925  3.610760E-02 -1.230020E-02  1.127340E-01  1.952630E-02  1.000000E+00  0.000000E+00  1.000000E+00  0.000000E+00
  0.000258400  3.750060E-02 -1.253440E-02  1.133730E-01  1.773190E-02  1.000000E+00  0.000000E+00  1.000000E+00  0.000000E+00
  0.000260875  3.777380E-02 -1.214890E-02  1.139770E-01  1.730860E-02  1.000000E+00  0.000000E+00  1.000000E+00  0.000000E+00
  0.000263350  3.767620E-02 -1.133470E-02  1.139830E-01  1.677750E-02  1.000000E+00  0.000000E+00  1.000000E+00  0.000000E+00
  0.000265825  3.734170E-02 -1.163930E-02  1.140550E-01  1.488630E-02  1.000000E+00  0.000000E+00  1.000000E+00  0.000000E+00
  0.000268300  3.843380E-02 -1.211490E-02  1.133630E-01  1.370320E-02  1.000000E+00  0.000000E+00  1.000000E+00  0.000000E+00
  0.000270775  3.789920E-02 -1.099430E-02  1.138270E-01  1.271350E-02  1.000000E+00  0.000000E+00  1.000000E+00  0.000000E+00
  0.000273250  3.858820E-02 -1.029130E-02  1.139610E-01  1.318650E-02  1.000000E+00  0.000000E+00  1.000000E+00  0.000000E+00
  0.000275725  3.952700E-02 -1.085190E-02  1.138660E-01  1.169240E-02  1.000000E+00  0.000000E+00  1.000000E+00  0.000000E+00
  0.000278200  3.925640E-02 -1.025750E-02  1.134160E-01  1.107810E-02  1.000000E+00  0.000000E+00  1.000000E+00  0.000000E+00
  0.000280675  3.907680E-02 -9.777110E-03  1.133600E-01  9.832990E-03  1.000000E+00  0.000000E+00  1.000000E+00  0.000000E+00
  0.000283150  3.922840E-02 -1.004840E-02  1.132900E-01  9.134040E-03  1.000000E+00  0.000000E+00  1.000000E+00  0.000000E+00
  0.000285625  3.856240E-02 -1.068800E-02  1.140650E-01  7.865950E-03  1.000000E+00  0.000000E+00  1.000000E+00  0.000000E+00
  0.000288100  3.899910E-02 -9.999340E-03  1.128220E-01  7.747150E-03  1.000000E+00  0.000000E+00  1.000000E+00  0.000000E+00
  0.000290575  3.893800E-02 -9.090670E-03  1.130490E-01  7.062750E-03  1.000000E+00  0.000000E+00  1.000000E+00  0.000000E+00
  0.000293050  3.993160E-02 -9.015160E-03  1.131580E-01  6.111270E-03  1.000000E+00  0.000000E+00  1.000000E+00  0.000000E+00
  0.000295525  3.983120E-02 -8.064680E-03  1.139170E-01  4.986080E-03  1.000000E+00  0.000000E+00  1.000000E+00  0.000000E+00
  0.000298000  3.952600E-02 -9.332190E-03  1.133340E-01  4.489200E-03  1.000000E+00  0.000000E+00  1.000000E+00  0.000000E+00
  0.000300475  4.049890E-02 -9.408490E-03  1.121620E-01  3.205980E-03  1.000000E+00  0.000000E+00  1.000000E+00  0.000000E+00
  0.000302950  4.004140E-02 -8.326910E-03  1.125890E-01  2.258650E-03  1.000000E+00  0.000000E+00  1.000000E+00  0.000000E+00
  0.000305425  4.044350E-02 -7.360280E-03  1.129320E-01  2.074010E-03  1.000000E+00  0.000000E+00  1.000000E+00  0.000000E+00
  0.000307900  4.080000E-02 -8.429330E-03  1.123780E-01  8.744320E-04  1.000000E+00  0.000000E+00  1.000000E+00  0.000000E+00
  0.000310375  4.268670E-02 -8.435080E-03  1.122250E-01  8.299400E-04  1.000000E+00  0.000000E+00  1.000000E+00  0.000000E+00
  0.000312850  4.119360E-02 -7.200720E-03  1.119340E-01 -3.999250E-04  1.000000E+00  0.000000E+00  1.000000E+00  0.000000E+00
  0.000315325  4.077370E-02 -8.189310E-03  1.119220E-01 -3.819470E-04  1.000000E+00  0.000000E+00  1.000000E+00  0.000000E+00
  0.000317800  4.149110E-02 -6.387150E-03  1.128560E-01 -2.284430E-03  1.000000E+00  0.000000E+00  1.000000E+00  0.000000E+00
  0.000320275  4.108520E-02 -6.540930E-03  1.114380E-01 -1.340220E-03  1.000000E+00  0.000000E+00  1.000000E+00  0.000000E+00
  0.000322750  4.200470E-02 -7.022080E-03  1.099550E-01 -3.192790E-03  1.000000E+00  0.000000E+00  1.000000E+00  0.000000E+00
  0.000325225  4.222940E-02 -7.021310E-03  1.110600E-01 -2.817120E-03  1.000000E+00  0.000000E+00  1.000000E+00  0.000000E+00
  0.000327700  4.184180E-02 -6.699530E-03  1.121110E-01 -4.420560E-03  1.000000E+00  0.000000E+00  1.000000E+00  0.000000E+00
  0.000330175  4.229900E-02 -6.963870E-03  1.102730E-01 -4.680580E-03  1.000000E+00  0.000000E+00  1.000000E+00  0.000000E+00
  0.000332650  4.143650E-02 -6.635020E-03  1.101890E-01 -4.107020E-03  1.000000E+00  0.000000E+00  1.000000E+00  0.000000E+00
  0.000335125  4.311260E-02 -6.404450E-03  1.099980E-01 -3.998790E-03  1.000000E+00  0.000000E+00  1.000000E+00  0.000000E+00
  0.000337600  4.337020E-02 -5.890710E-03  1.110570E-01 -6.599640E-03  1.000000E+00  0.000000E+00  1.000000E+00  0.000000E+00
  0.000340075  4.389240E-02 -7.494870E-03  1.111490E-01 -6.083500E-03  1.000000E+00  0.000000E+00  1.000000E+00  0.000000E+00
  0.000342550  4.397560E-02 -7.175330E-03  1.107750E-01 -5.560020E-03  1.000000E+00  0.000000E+00  1.000000E+00  0.000000E+00
  0.000345025  4.345780E-02 -7.120490E-03  1.116980E-01 -6.182040E-03  1.000000E+00  0.000000E+00  1.000000E+00  0.000000E+00
  0.000347500  4.317010E-02 -6.701670E-03  1.105090E-01 -9.362840E-03  1.000000E+00  0.000000E+00  1.000000E+00  0.000000E+00
  0.000349975  4.366280E-02 -5.502410E-03  1.106400E-01 -9.405360E-03  1.000000E+00  0.000000E+00  1.000000E+00  0.000000E+00
  0.000352450  4.430820E-02 -6.488260E-03  1.118770E-01 -8.932260E-03  1.000000E+00  0.000000E+00  1.000000E+00  0.000000E+00
  0.000354925  4.482080E-02 -6.164750E-03  1.113440E-01 -9.187030E-03  1.000000E+00  0.000000E+00  1.000000E+00  0.000000E+00
  0.000357400  4.459920E-02 -7.046920E-03  1.111490E-01 -1.026190E-02  1.000000E+00  0.000000E+00  1.000000E+00  0.000000E+00
  0.000359875  4.469640E-02 -5.942750E-03  1.099630E-01 -1.111380E-02  1.000000E+00  0.000000E+00  1.000000E+00  0.000000E+00
  0.000362350  4.432610E-02 -6.518990E-03  1.114170E-01 -1.155280E-02  1.000000E+00  0.000000E+00  1.000000E+00  0.000000E+00
  0.000364825  4.500810E-02 -6.193530E-03  1.118310E-01 -1.096790E-02  1.000000E+00  0.000000E+00  1.000000E+00  0.000000E+00
  0.000367300  4.542210E-02 -6.651400E-03  1.107750E-01 -1.244820E-02  1.000000E+00  0.000000E+00  1.000000E+00  0.000000E+00
  0.000369775  4.490160E-02 -5.893480E-03  1.093740E-01 -1.347910E-02  1.000000E+00  0.000000E+00  1.000000E+00  0.000000E+00
  0.000372250  4.531210E-02 -6.827620E-03  1.103510E-01 -1.371550E-02  1.000000E+00  0.000000E+00  1.000000E+00  0.000000E+00
  0.000374725  4.564710E-02 -6.152630E-03  1.109060E-01 -1.402350E-02  1.000000E+00  0.000000E+00  1.000000E+00  0.000000E+00
  0.000377200  4.534500E-02 -6.469510E-03  1.109140E-01 -1.490180E-02  1.000000E+00  0.000000E+00  1.000000E+00  0.000000E+00
  0.000379675  4.561000E-02 -7.220400E-03  1.092740E-01 -1.518260E-02  1.000000E+00  0.000000E+00  1.000000E+00  0.000000E+00
  0.000382150  4.578710E-02 -6.542490E-03  1.100590E-01 -1.529330E-02  1.000000E+00  0.000000E+00  1.000000E+00  0.000000E+00
  0.000384625  4.669850E-02 -6.908590E-03  1.109080E-01 -1.664240E-02  1.000000E+00  0.000000E+00  1.000000E+00  0.000000E+00
  0.000387100  4.500050E-02 -6.475340E-03  1.113870E-01 -1.634260E-02  1.000000E+00  0.000000E+00  1.000000E+00  0.000000E+00
  0.000389575  4.655780E-02 -6.348750E-03  1.105880E-01 -1.762470E-02  1.000000E+00  0.000000E+00  1.000000E+00  0.000000E+00
  0.000392050  4.620530E-02 -5.519450E-03  1.108560E-01 -1.761060E-02  1.000000E+00  0.000000E+00  1.000000E+00  0.000000E+00
  0.000394525  4.631520E-02 -6.571300E-03  1.105170E-01 -1.795420E-02  1.000000E+00  0.000000E+00  1.000000E+00  0.000000E+00
  0.000397000  4.561430E-02 -6.534750E-03  1.106480E-01 -1.948800E-02  1.000000E+00  0.000000E+00  1.000000E+00  0.000000E+00
  0.000399475  4.692260E-02 -7.775050E-03  1.103300E-01 -1.995510E-02  1.000000E+00  0.000000E+00  1.000000E+00  0.000000E+00
  0.000401950  4.595440E-02 -7.253000E-03  1.110180E-01 -2.069350E-02  1.000000E+00  0.000000E+00  1.000000E+00  0.000000E+00
  0.000404425  4.714190E-02 -6.505230E-03  1.110470E-01 -2.120040E-02  1.000000E+00  0.000000E+00  1.000000E+00  0.000000E+00
  0.000406900  4.688760E-02 -7.795190E-03  1.105450E-01 -2.166590E-02  1.000000E+00  0.000000E+00  1.000000E+00  0.000000E+00
  0.000409375  4.641990E-02 -7.170670E-03  1.105760E-01 -2.285920E-02  1.000000E+00  0.000000E+00  1.000000E+00  0.000000E+00
  0.000411850  4.611920E-02 -8.282240E-03  1.098730E-01 -2.369390E-02  1.000000E+00  0.000000E+00  1.000000E+00  0.000000E+00
  0.000414325  4.646890E-02 -6.613710E-03  1.091980E-01 -2.390870E-02  1.000000E+00  0.000000E+00  1.000000E+00  0.000000E+00
  0.000416800  4.587970E-02 -7.086580E-03  1.096750E-01 -2.483190E-02  1.000000E+00  0.000000E+00  1.000000E+00  0.000000E+00
  0.000419275  4.658140E-02 -7.423870E-03  1.088530E-01 -2.572570E-02  1.000000E+00  0.000000E+00  1.000000E+00  0.000000E+00
  0.000421750  4.731340E-02 -6.864940E-03  1.088750E-01 -2.596910E-02  1.000000E+00  0.000000E+00  1.000000E+00  0.000000E+00
  0.000424225  4.692260E-02 -7.067740E-03  1.081290E-01 -2.724630E-02  1.000000E+00  0.000000E+00  1.000000E+00  0.000000E+00
  0.000426700  4.670190E-02 -8.013130E-03  1.079550E-01 -2.729350E-02  1.000000E+00  0.000000E+00  1.000000E+00  0.000000E+00
  0.000429175  4.620600E-02 -7.540780E-03  1.076490E-01 -2.802950E-02  1.000000E+00  0.000000E+00  1.000000E+00  0.000000E+00
  0.000431650  4.687480E-02 -7.467740E-03  1.076080E-01 -2.848980E-02  1.000000E+00  0.000000E+00  1.000000E+00  0.000000E+00
  0.000434125  4.721540E-02 -7.786180E-03  1.063900E-01 -2.942220E-02  1.000000E+00  0.000000E+00  1.000000E+00  0.000000E+00
  0.000436600  4.611210E-02 -7.888750E-03  1.068930E-01 -2.969250E-02  1.000000E+00  0.000000E+00  1.000000E+00  0.000000E+00
  0.000439075  4.623610E-02 -8.102620E-03  1.063060E-01 -3.001520E-02  1.000000E+00  0.000000E+00  1.000000E+00  0.000000E+00
  0.000441550  4.661380E-02 -7.408500E-03  1.057970E-01 -3.037320E-02  1.000000E+00  0.000000E+00  1.000000E+00  0.000000E+00
  0.000444025  4.580010E-02 -6.674380E-03  1.058570E-01 -3.109160E-02  1.000000E+00  0.000000E+00  1.000000E+00  0.000000E+00
  0.000446500  4.686710E-02 -7.186120E-03  1.054820E-01 -3.077800E-02  1.000000E+00  0.000000E+00  1.000000E+00  0.000000E+00
  0.000448975  4.585450E-02 -6.500790E-03  1.054040E-01 -3.143150E-02  1.000000E+00  0.000000E+00  1.000000E+00  0.000000E+00
  0.000451450  4.689860E-02 -7.844550E-03  1.050760E-01 -3.109860E-02  1.000000E+00  0.000000E+00  1.000000E+00  0.000000E+00
  0.000453925  4.613440E-02 -7.430550E-03  1.052070E-01 -3.158880E-02  1.000000E+00  0.000000E+00  1.000000E+00  0.000000E+00
