! Anritsu VNA Master:                        Model: MS2026C/19
! SN:                                  1815009
! /card0/usr/20180902_49.s2p
! Existing Calibration Information:
! TYPE:                         Current Settings,       Active Cal Settings
! TIME:             	   09/03/2018 01:37:41 AM,    09/02/2018 11:58:48 AM
! INTERNAL TEMP:    	                   47.3 C,                    48.8 C
! # POINTS:         	                     4001,                      4001
! START FREQ:       	              100.000 kHz,               100.000 kHz
! STOP FREQ:        	               10.000 MHz,                10.000 MHz
! SOURCE POWER:     	                      Low,                       Low
! IFBW:             	                   500 Hz,                    500 Hz
! AVG FACTOR:       	                       1 ,                        1 
! REF PLANE 1:      	                     0 mm,                      0 mm
! REF PLANE 2:      	                     0 mm,                      0 mm
! CAL TYPE:         	             1P2P S11,S21,              1P2P S11,S21
! CAL METHOD:       	                     SOLT,                      SOLT
! CAL LINE TYPE:    	                     Coax,                      Coax
! DUT PORT 1:       	                N-Conn(M),                 N-Conn(M)
! DUT PORT 2:       	                N-Conn(M),                 N-Conn(M)
! CAL STATUS:       	        OK: Accuracy High,                        --
# GHZ S RI R 50.0
! FREQ.GHZ      S11RE         S11IM         S21RE         S21IM         S12RE         S12IM         S22RE         S22IM
  0.000100000  6.527190E-03 -6.061550E-02 -1.164770E-03  1.173820E-03  1.000000E+00  0.000000E+00  1.000000E+00  0.000000E+00
  0.000102475  8.436490E-03 -5.901890E-02  7.737630E-04  6.545680E-04  1.000000E+00  0.000000E+00  1.000000E+00  0.000000E+00
  0.000104950  9.355330E-03 -5.718380E-02  2.897660E-04  2.621600E-03  1.000000E+00  0.000000E+00  1.000000E+00  0.000000E+00
  0.000107425  9.447200E-03 -5.499660E-02  1.660140E-04  2.236930E-03  1.000000E+00  0.000000E+00  1.000000E+00  0.000000E+00
  0.000109900  1.188410E-02 -5.343070E-02  1.515280E-04  1.000960E-03  1.000000E+00  0.000000E+00  1.000000E+00  0.000000E+00
  0.000112375  1.105400E-02 -5.203900E-02  3.825040E-04  1.827430E-03  1.000000E+00  0.000000E+00  1.000000E+00  0.000000E+00
  0.000114850  1.324130E-02 -5.000100E-02 -2.682330E-05  1.372730E-03  1.000000E+00  0.000000E+00  1.000000E+00  0.000000E+00
  0.000117325  1.416600E-02 -4.855070E-02  1.536850E-03  3.461410E-03  1.000000E+00  0.000000E+00  1.000000E+00  0.000000E+00
  0.000119800  1.574670E-02 -4.669290E-02  2.134250E-03  1.829600E-03  1.000000E+00  0.000000E+00  1.000000E+00  0.000000E+00
  0.000122275  1.539430E-02 -4.536340E-02  1.893440E-03  3.434870E-03  1.000000E+00  0.000000E+00  1.000000E+00  0.000000E+00
  0.000124750  1.740730E-02 -4.412410E-02  5.448360E-04  1.538040E-03  1.000000E+00  0.000000E+00  1.000000E+00  0.000000E+00
  0.000127225  1.733210E-02 -4.277990E-02  3.817600E-03  4.762890E-04  1.000000E+00  0.000000E+00  1.000000E+00  0.000000E+00
  0.000129700  1.856220E-02 -3.976420E-02  4.586680E-03 -8.593750E-04  1.000000E+00  0.000000E+00  1.000000E+00  0.000000E+00
  0.000132175  1.944120E-02 -4.113080E-02  2.261560E-03  6.146590E-04  1.000000E+00  0.000000E+00  1.000000E+00  0.000000E+00
  0.000134650  1.890680E-02 -3.852860E-02  2.736490E-03  6.309040E-04  1.000000E+00  0.000000E+00  1.000000E+00  0.000000E+00
  0.000137125  1.932700E-02 -3.887830E-02  3.684400E-03 -1.048460E-03  1.000000E+00  0.000000E+00  1.000000E+00  0.000000E+00
  0.000139600  2.176660E-02 -3.752920E-02  1.566450E-03 -2.795060E-03  1.000000E+00  0.000000E+00  1.000000E+00  0.000000E+00
  0.000142075  2.218760E-02 -3.649900E-02  3.002830E-03 -2.517300E-04  1.000000E+00  0.000000E+00  1.000000E+00  0.000000E+00
  0.000144550  2.255660E-02 -3.560320E-02  3.995290E-03 -1.021590E-03  1.000000E+00  0.000000E+00  1.000000E+00  0.000000E+00
  0.000147025  2.363760E-02 -3.372810E-02  2.898280E-03 -1.441440E-03  1.000000E+00  0.000000E+00  1.000000E+00  0.000000E+00
  0.000149500  2.257890E-02 -3.342920E-02  8.104070E-04 -3.957750E-03  1.000000E+00  0.000000E+00  1.000000E+00  0.000000E+00
  0.000151975  2.294780E-02 -3.394580E-02  3.292460E-03 -1.830150E-03  1.000000E+00  0.000000E+00  1.000000E+00  0.000000E+00
  0.000154450  2.389860E-02 -3.011180E-02  1.987020E-03 -2.286900E-03  1.000000E+00  0.000000E+00  1.000000E+00  0.000000E+00
  0.000156925  2.457960E-02 -3.207520E-02  8.330680E-04 -2.746380E-03  1.000000E+00  0.000000E+00  1.000000E+00  0.000000E+00
  0.000159400  2.396440E-02 -2.905770E-02  3.855710E-04 -1.952860E-03  1.000000E+00  0.000000E+00  1.000000E+00  0.000000E+00
  0.000161875  2.437820E-02 -2.895760E-02  1.346990E-04 -2.533690E-03  1.000000E+00  0.000000E+00  1.000000E+00  0.000000E+00
  0.000164350  2.562320E-02 -2.861960E-02 -5.983420E-05 -1.633810E-03  1.000000E+00  0.000000E+00  1.000000E+00  0.000000E+00
  0.000166825  2.564240E-02 -2.982800E-02 -6.616430E-05 -1.543180E-03  1.000000E+00  0.000000E+00  1.000000E+00  0.000000E+00
  0.000169300  2.571030E-02 -2.880570E-02  8.885490E-04 -2.243780E-03  1.000000E+00  0.000000E+00  1.000000E+00  0.000000E+00
  0.000171775  2.577000E-02 -2.696610E-02 -1.998180E-04 -2.788720E-03  1.000000E+00  0.000000E+00  1.000000E+00  0.000000E+00
  0.000174250  2.565380E-02 -2.677440E-02 -6.199230E-04 -1.517150E-03  1.000000E+00  0.000000E+00  1.000000E+00  0.000000E+00
  0.000176725  2.750960E-02 -2.641010E-02 -5.788150E-06 -1.689170E-03  1.000000E+00  0.000000E+00  1.000000E+00  0.000000E+00
  0.000179200  2.801170E-02 -2.630350E-02  7.261040E-05 -2.844640E-05  1.000000E+00  0.000000E+00  1.000000E+00  0.000000E+00
  0.000181675  2.680120E-02 -2.614650E-02  4.644760E-04 -6.097800E-04  1.000000E+00  0.000000E+00  1.000000E+00  0.000000E+00
  0.000184150  2.751760E-02 -2.467060E-02 -9.366660E-04 -2.218030E-03  1.000000E+00  0.000000E+00  1.000000E+00  0.000000E+00
  0.000186625  2.865400E-02 -2.393410E-02 -1.411590E-04 -5.531840E-04  1.000000E+00  0.000000E+00  1.000000E+00  0.000000E+00
  0.000189100  2.675730E-02 -2.396230E-02 -8.727250E-04 -8.297980E-04  1.000000E+00  0.000000E+00  1.000000E+00  0.000000E+00
  0.000191575  2.643540E-02 -2.520950E-02  1.953980E-04 -1.691790E-03  1.000000E+00  0.000000E+00  1.000000E+00  0.000000E+00
  0.000194050  2.979380E-02 -2.409500E-02 -9.944170E-04 -1.804130E-03  1.000000E+00  0.000000E+00  1.000000E+00  0.000000E+00
  0.000196525  3.052950E-02 -2.229030E-02  3.037290E-04 -8.355880E-04  1.000000E+00  0.000000E+00  1.000000E+00  0.000000E+00
  0.000199000  2.892900E-02 -2.123710E-02  5.071890E-04 -1.213810E-03  1.000000E+00  0.000000E+00  1.000000E+00  0.000000E+00
  0.000201475  2.913190E-02 -2.101150E-02 -1.450200E-03 -1.567450E-03  1.000000E+00  0.000000E+00  1.000000E+00  0.000000E+00
  0.000203950  2.826680E-02 -1.964880E-02  2.575380E-05 -7.345750E-04  1.000000E+00  0.000000E+00  1.000000E+00  0.000000E+00
  0.000206425  3.056500E-02 -2.165000E-02  3.657410E-04 -9.201320E-04  1.000000E+00  0.000000E+00  1.000000E+00  0.000000E+00
  0.000208900  2.959390E-02 -2.196060E-02 -4.924450E-04 -1.405400E-03  1.000000E+00  0.000000E+00  1.000000E+00  0.000000E+00
  0.000211375  3.062890E-02 -2.059030E-02 -9.575320E-04 -1.551990E-04  1.000000E+00  0.000000E+00  1.000000E+00  0.000000E+00
  0.000213850  2.926230E-02 -1.935490E-02  4.153190E-05 -6.026710E-04  1.000000E+00  0.000000E+00  1.000000E+00  0.000000E+00
  0.000216325  2.942670E-02 -1.903100E-02 -8.866370E-05 -1.969990E-03  1.000000E+00  0.000000E+00  1.000000E+00  0.000000E+00
  0.000218800  3.058070E-02 -1.844770E-02 -7.710700E-04 -1.156320E-03  1.000000E+00  0.000000E+00  1.000000E+00  0.000000E+00
  0.000221275  3.113850E-02 -1.831270E-02 -5.070490E-04 -4.128650E-04  1.000000E+00  0.000000E+00  1.000000E+00  0.000000E+00
  0.000223750  3.137830E-02 -1.767570E-02 -8.855270E-04 -1.111630E-03  1.000000E+00  0.000000E+00  1.000000E+00  0.000000E+00
  0.000226225  3.179380E-02 -1.639050E-02 -1.393730E-03 -2.260280E-03  1.000000E+00  0.000000E+00  1.000000E+00  0.000000E+00
  0.000228700  3.108110E-02 -1.911470E-02 -5.233980E-04 -1.042630E-03  1.000000E+00  0.000000E+00  1.000000E+00  0.000000E+00
  0.000231175  3.056150E-02 -1.801780E-02 -3.679660E-04 -1.227580E-03  1.000000E+00  0.000000E+00  1.000000E+00  0.000000E+00
  0.000233650  3.129370E-02 -1.777190E-02 -5.327420E-04 -5.329630E-04  1.000000E+00  0.000000E+00  1.000000E+00  0.000000E+00
  0.000236125  3.172330E-02 -1.737930E-02 -7.243480E-04 -1.558760E-03  1.000000E+00  0.000000E+00  1.000000E+00  0.000000E+00
  0.000238600  3.196200E-02 -1.695650E-02 -4.906110E-04 -7.066730E-04  1.000000E+00  0.000000E+00  1.000000E+00  0.000000E+00
  0.000241075  3.076090E-02 -1.728340E-02 -3.600730E-04 -1.014750E-03  1.000000E+00  0.000000E+00  1.000000E+00  0.000000E+00
  0.000243550  3.206710E-02 -1.570140E-02 -2.339810E-03 -1.724360E-03  1.000000E+00  0.000000E+00  1.000000E+00  0.000000E+00
  0.000246025  3.310020E-02 -1.588660E-02 -9.744450E-04 -1.839010E-03  1.000000E+00  0.000000E+00  1.000000E+00  0.000000E+00
  0.000248500  3.340090E-02 -1.556600E-02 -7.978700E-04 -1.725930E-03  1.000000E+00  0.000000E+00  1.000000E+00  0.000000E+00
  0.000250975  3.297330E-02 -1.622240E-02 -1.785430E-03 -1.565840E-03  1.000000E+00  0.000000E+00  1.000000E+00  0.000000E+00
  0.000253450  3.317040E-02 -1.422460E-02 -9.237640E-04 -1.686130E-03  1.000000E+00  0.000000E+00  1.000000E+00  0.000000E+00
  0.000255925  3.198960E-02 -1.298690E-02 -1.416660E-03 -2.275740E-03  1.000000E+00  0.000000E+00  1.000000E+00  0.000000E+00
  0.000258400  3.329210E-02 -1.300460E-02 -1.634170E-03 -2.963510E-03  1.000000E+00  0.000000E+00  1.000000E+00  0.000000E+00
  0.000260875  3.325860E-02 -1.388320E-02 -5.199380E-04 -1.795240E-03  1.000000E+00  0.000000E+00  1.000000E+00  0.000000E+00
  0.000263350  3.200210E-02 -1.251760E-02 -7.756910E-04 -1.499540E-03  1.000000E+00  0.000000E+00  1.000000E+00  0.000000E+00
  0.000265825  3.204790E-02 -1.476150E-02 -1.353090E-03 -8.526660E-04  1.000000E+00  0.000000E+00  1.000000E+00  0.000000E+00
  0.000268300  3.341250E-02 -1.282450E-02 -1.435690E-03 -1.688770E-03  1.000000E+00  0.000000E+00  1.000000E+00  0.000000E+00
  0.000270775  3.383770E-02 -1.250390E-02 -1.427790E-03 -2.024860E-03  1.000000E+00  0.000000E+00  1.000000E+00  0.000000E+00
  0.000273250  3.359560E-02 -1.298170E-02 -1.101840E-03 -1.271870E-03  1.000000E+00  0.000000E+00  1.000000E+00  0.000000E+00
  0.000275725  3.400630E-02 -1.182660E-02 -2.165300E-03 -2.323100E-03  1.000000E+00  0.000000E+00  1.000000E+00  0.000000E+00
  0.000278200  3.432620E-02 -1.215970E-02 -1.266410E-03 -2.085240E-03  1.000000E+00  0.000000E+00  1.000000E+00  0.000000E+00
  0.000280675  3.357660E-02 -1.081970E-02 -6.791300E-04 -1.841740E-03  1.000000E+00  0.000000E+00  1.000000E+00  0.000000E+00
  0.000283150  3.340160E-02 -1.233000E-02 -9.399230E-04 -1.537230E-03  1.000000E+00  0.000000E+00  1.000000E+00  0.000000E+00
  0.000285625  3.465510E-02 -1.180350E-02 -1.754440E-03 -2.547620E-03  1.000000E+00  0.000000E+00  1.000000E+00  0.000000E+00
  0.000288100  3.504690E-02 -1.117740E-02 -2.600010E-03 -3.049590E-03  1.000000E+00  0.000000E+00  1.000000E+00  0.000000E+00
  0.000290575  3.394790E-02 -9.099400E-03 -2.526760E-03 -8.781330E-04  1.000000E+00  0.000000E+00  1.000000E+00  0.000000E+00
  0.000293050  3.454380E-02 -1.089150E-02 -2.233750E-03 -3.230900E-03  1.000000E+00  0.000000E+00  1.000000E+00  0.000000E+00
  0.000295525  3.503440E-02 -1.041690E-02 -2.036120E-03 -2.297090E-03  1.000000E+00  0.000000E+00  1.000000E+00  0.000000E+00
  0.000298000  3.440200E-02 -1.029200E-02 -2.466400E-03 -2.854440E-03  1.000000E+00  0.000000E+00  1.000000E+00  0.000000E+00
  0.000300475  3.560200E-02 -1.051020E-02 -3.273810E-03 -6.458720E-04  1.000000E+00  0.000000E+00  1.000000E+00  0.000000E+00
  0.000302950  3.589310E-02 -9.883440E-03 -2.115820E-03 -2.319640E-03  1.000000E+00  0.000000E+00  1.000000E+00  0.000000E+00
  0.000305425  3.553460E-02 -7.480870E-03 -2.319950E-03 -1.281930E-03  1.000000E+00  0.000000E+00  1.000000E+00  0.000000E+00
  0.000307900  3.480590E-02 -9.539020E-03 -4.491460E-03 -2.918530E-03  1.000000E+00  0.000000E+00  1.000000E+00  0.000000E+00
  0.000310375  3.813250E-02 -1.024470E-02 -1.924460E-03 -3.177300E-03  1.000000E+00  0.000000E+00  1.000000E+00  0.000000E+00
  0.000312850  3.548150E-02 -7.816220E-03 -3.457200E-03 -2.342290E-03  1.000000E+00  0.000000E+00  1.000000E+00  0.000000E+00
  0.000315325  3.521920E-02 -8.408740E-03 -2.306010E-03 -1.813280E-03  1.000000E+00  0.000000E+00  1.000000E+00  0.000000E+00
  0.000317800  3.675710E-02 -7.069430E-03 -4.312480E-03 -2.507880E-03  1.000000E+00  0.000000E+00  1.000000E+00  0.000000E+00
  0.000320275  3.459090E-02 -6.660300E-03 -5.527600E-03 -4.886110E-03  1.000000E+00  0.000000E+00  1.000000E+00  0.000000E+00
  0.000322750  3.628730E-02 -7.575940E-03 -3.881530E-03 -2.179040E-03  1.000000E+00  0.000000E+00  1.000000E+00  0.000000E+00
  0.000325225  3.674750E-02 -7.996100E-03 -4.092740E-03 -2.040900E-03  1.000000E+00  0.000000E+00  1.000000E+00  0.000000E+00
  0.000327700  3.632160E-02 -6.428860E-03 -3.839130E-03 -2.196210E-03  1.000000E+00  0.000000E+00  1.000000E+00  0.000000E+00
  0.000330175  3.699840E-02 -7.171330E-03 -7.310830E-03 -5.552090E-03  1.000000E+00  0.000000E+00  1.000000E+00  0.000000E+00
  0.000332650  3.563330E-02 -6.208180E-03 -4.068850E-03 -2.585940E-03  1.000000E+00  0.000000E+00  1.000000E+00  0.000000E+00
  0.000335125  3.616000E-02 -7.040180E-03 -5.683430E-03 -1.849400E-03  1.000000E+00  0.000000E+00  1.000000E+00  0.000000E+00
  0.000337600  3.739880E-02 -7.902710E-03 -6.385010E-03 -2.032170E-03  1.000000E+00  0.000000E+00  1.000000E+00  0.000000E+00
  0.000340075  3.902010E-02 -7.933830E-03 -1.025130E-02 -2.269650E-03  1.000000E+00  0.000000E+00  1.000000E+00  0.000000E+00
  0.000342550  3.748440E-02 -6.668440E-03 -7.611620E-03 -2.093000E-03  1.000000E+00  0.000000E+00  1.000000E+00  0.000000E+00
  0.000345025  3.803820E-02 -6.378270E-03 -5.336780E-03 -2.430280E-03  1.000000E+00  0.000000E+00  1.000000E+00  0.000000E+00
  0.000347500  3.806120E-02 -6.451020E-03 -6.541250E-03 -1.430590E-03  1.000000E+00  0.000000E+00  1.000000E+00  0.000000E+00
  0.000349975  3.786020E-02 -5.670020E-03 -1.066610E-02  6.116400E-04  1.000000E+00  0.000000E+00  1.000000E+00  0.000000E+00
  0.000352450  3.859970E-02 -5.769910E-03 -1.206870E-02  3.398410E-03  1.000000E+00  0.000000E+00  1.000000E+00  0.000000E+00
  0.000354925  3.862860E-02 -5.032860E-03 -7.178170E-03 -1.806170E-03  1.000000E+00  0.000000E+00  1.000000E+00  0.000000E+00
  0.000357400  3.772830E-02 -6.287320E-03 -7.416480E-03 -1.995360E-03  1.000000E+00  0.000000E+00  1.000000E+00  0.000000E+00
  0.000359875  3.871000E-02 -5.952090E-03 -8.943090E-03  8.350860E-04  1.000000E+00  0.000000E+00  1.000000E+00  0.000000E+00
  0.000362350  3.944520E-02 -6.559640E-03 -1.007900E-02  7.573800E-03  1.000000E+00  0.000000E+00  1.000000E+00  0.000000E+00
  0.000364825  3.859830E-02 -3.401660E-03 -9.552760E-03  9.055370E-04  1.000000E+00  0.000000E+00  1.000000E+00  0.000000E+00
  0.000367300  4.037230E-02 -5.865930E-03 -8.359410E-03  2.807670E-04  1.000000E+00  0.000000E+00  1.000000E+00  0.000000E+00
  0.000369775  3.886870E-02 -3.799690E-03 -8.818120E-03  4.157400E-03  1.000000E+00  0.000000E+00  1.000000E+00  0.000000E+00
  0.000372250  3.982750E-02 -8.121460E-03 -6.691540E-03  7.793360E-03  1.000000E+00  0.000000E+00  1.000000E+00  0.000000E+00
  0.000374725  4.085050E-02 -6.281790E-03 -9.674190E-03  3.735920E-03  1.000000E+00  0.000000E+00  1.000000E+00  0.000000E+00
  0.000377200  4.093880E-02 -4.329850E-03 -9.542360E-03  1.658750E-03  1.000000E+00  0.000000E+00  1.000000E+00  0.000000E+00
  0.000379675  3.936090E-02 -7.026510E-03 -9.716960E-03  4.592920E-03  1.000000E+00  0.000000E+00  1.000000E+00  0.000000E+00
  0.000382150  3.902730E-02 -6.950260E-03 -4.261540E-03  7.806210E-03  1.000000E+00  0.000000E+00  1.000000E+00  0.000000E+00
  0.000384625  4.158230E-02 -4.576440E-03 -4.691600E-03  6.895870E-03  1.000000E+00  0.000000E+00  1.000000E+00  0.000000E+00
  0.000387100  4.022180E-02 -5.613530E-03 -7.519550E-03  5.571930E-03  1.000000E+00  0.000000E+00  1.000000E+00  0.000000E+00
  0.000389575  4.109910E-02 -6.237990E-03 -7.021820E-03  5.838620E-03  1.000000E+00  0.000000E+00  1.000000E+00  0.000000E+00
  0.000392050  3.992520E-02 -4.222310E-03 -5.642970E-03  8.039070E-03  1.000000E+00  0.000000E+00  1.000000E+00  0.000000E+00
  0.000394525  3.928880E-02 -6.440920E-03 -2.933690E-03  5.646130E-03  1.000000E+00  0.000000E+00  1.000000E+00  0.000000E+00
  0.000397000  3.980030E-02 -4.233280E-03 -6.373490E-03  7.358230E-03  1.000000E+00  0.000000E+00  1.000000E+00  0.000000E+00
  0.000399475  4.162790E-02 -6.332150E-03 -4.544500E-03  7.515870E-03  1.000000E+00  0.000000E+00  1.000000E+00  0.000000E+00
  0.000401950  4.154680E-02 -6.166070E-03 -2.763450E-03  8.198070E-03  1.000000E+00  0.000000E+00  1.000000E+00  0.000000E+00
  0.000404425  4.144190E-02 -4.992440E-03 -2.665880E-03  6.527420E-03  1.000000E+00  0.000000E+00  1.000000E+00  0.000000E+00
  0.000406900  4.143460E-02 -6.244680E-03 -4.669220E-03  7.443590E-03  1.000000E+00  0.000000E+00  1.000000E+00  0.000000E+00
  0.000409375  4.073860E-02 -5.834890E-03 -1.948070E-03  8.411200E-03  1.000000E+00  0.000000E+00  1.000000E+00  0.000000E+00
  0.000411850  4.057990E-02 -6.108860E-03 -2.402480E-03  5.839000E-03  1.000000E+00  0.000000E+00  1.000000E+00  0.000000E+00
  0.000414325  4.034680E-02 -5.030920E-03 -9.338910E-04  5.400440E-03  1.000000E+00  0.000000E+00  1.000000E+00  0.000000E+00
  0.000416800  4.120120E-02 -3.610680E-03 -2.472270E-03  5.117530E-03  1.000000E+00  0.000000E+00  1.000000E+00  0.000000E+00
  0.000419275  4.171830E-02 -4.919870E-03 -2.196230E-03  6.526260E-03  1.000000E+00  0.000000E+00  1.000000E+00  0.000000E+00
  0.000421750  4.205780E-02 -5.976900E-03 -1.683010E-03  5.595970E-03  1.000000E+00  0.000000E+00  1.000000E+00  0.000000E+00
  0.000424225  4.311520E-02 -4.407640E-03 -1.148930E-03  6.114520E-03  1.000000E+00  0.000000E+00  1.000000E+00  0.000000E+00
  0.000426700  4.049310E-02 -4.864130E-03 -1.167120E-03  4.774610E-03  1.000000E+00  0.000000E+00  1.000000E+00  0.000000E+00
  0.000429175  4.274830E-02 -5.437540E-03  3.284100E-05  6.219390E-03  1.000000E+00  0.000000E+00  1.000000E+00  0.000000E+00
  0.000431650  4.105990E-02 -5.801710E-03 -1.230220E-03  4.280950E-03  1.000000E+00  0.000000E+00  1.000000E+00  0.000000E+00
  0.000434125  4.181130E-02 -6.200390E-03  8.941410E-04  4.842730E-03  1.000000E+00  0.000000E+00  1.000000E+00  0.000000E+00
  0.000436600  4.002350E-02 -4.628990E-03 -1.449750E-03  4.750900E-03  1.000000E+00  0.000000E+00  1.000000E+00  0.000000E+00
  0.000439075  4.195460E-02 -5.474220E-03 -1.067030E-03  3.975440E-03  1.000000E+00  0.000000E+00  1.000000E+00  0.000000E+00
  0.000441550  4.193680E-02 -4.423240E-03 -3.570330E-04  3.634990E-03  1.000000E+00  0.000000E+00  1.000000E+00  0.000000E+00
  0.000444025  4.198870E-02 -3.892450E-03 -3.608070E-04  3.996260E-03  1.000000E+00  0.000000E+00  1.000000E+00  0.000000E+00
  0.000446500  4.249050E-02 -5.179650E-03 -4.728440E-04  4.141880E-03  1.000000E+00  0.000000E+00  1.000000E+00  0.000000E+00
  0.000448975  4.202030E-02 -4.306230E-03 -3.240740E-04  3.921860E-03  1.000000E+00  0.000000E+00  1.000000E+00  0.000000E+00
  0.000451450  4.178160E-02 -5.691890E-03 -1.027490E-03  4.415570E-03  1.000000E+00  0.000000E+00  1.000000E+00  0.000000E+00
  0.000453925  4.017460E-02 -5.955570E-03 -1.411170E-03  3.401380E-03  1.000000E+00  0.000000E+00  1.000000E+00  0.000000E+00
