! Anritsu VNA Master:                        Model: MS2026C/19
! SN:                                  1815009
! /card0/usr/20180902_45.s2p
! Existing Calibration Information:
! TYPE:                         Current Settings,       Active Cal Settings
! TIME:             	   09/03/2018 12:18:21 AM,    09/02/2018 11:58:48 AM
! INTERNAL TEMP:    	                   50.5 C,                    48.8 C
! # POINTS:         	                     4001,                      4001
! START FREQ:       	              100.000 kHz,               100.000 kHz
! STOP FREQ:        	               10.000 MHz,                10.000 MHz
! SOURCE POWER:     	                      Low,                       Low
! IFBW:             	                   500 Hz,                    500 Hz
! AVG FACTOR:       	                       5 ,                        1 
! REF PLANE 1:      	                     0 mm,                      0 mm
! REF PLANE 2:      	                     0 mm,                      0 mm
! CAL TYPE:         	             1P2P S11,S21,              1P2P S11,S21
! CAL METHOD:       	                     SOLT,                      SOLT
! CAL LINE TYPE:    	                     Coax,                      Coax
! DUT PORT 1:       	                N-Conn(M),                 N-Conn(M)
! DUT PORT 2:       	                N-Conn(M),                 N-Conn(M)
! CAL STATUS:       	        OK: Accuracy High,                        --
# GHZ S RI R 50.0
! FREQ.GHZ      S11RE         S11IM         S21RE         S21IM         S12RE         S12IM         S22RE         S22IM
  0.000100000  6.438960E-03 -6.177250E-02  3.787240E-02  3.639730E-02  1.000000E+00  0.000000E+00  1.000000E+00  0.000000E+00
  0.000102475  9.220150E-03 -5.904590E-02  3.922920E-02  3.537960E-02  1.000000E+00  0.000000E+00  1.000000E+00  0.000000E+00
  0.000104950  9.351360E-03 -5.740050E-02  4.004470E-02  3.488780E-02  1.000000E+00  0.000000E+00  1.000000E+00  0.000000E+00
  0.000107425  1.191710E-02 -5.463290E-02  4.058540E-02  3.402830E-02  1.000000E+00  0.000000E+00  1.000000E+00  0.000000E+00
  0.000109900  1.241440E-02 -5.279290E-02  4.139490E-02  3.285530E-02  1.000000E+00  0.000000E+00  1.000000E+00  0.000000E+00
  0.000112375  1.311090E-02 -5.117590E-02  4.208990E-02  3.220780E-02  1.000000E+00  0.000000E+00  1.000000E+00  0.000000E+00
  0.000114850  1.444210E-02 -4.985380E-02  4.307790E-02  3.149190E-02  1.000000E+00  0.000000E+00  1.000000E+00  0.000000E+00
  0.000117325  1.611250E-02 -4.785810E-02  4.365590E-02  3.067840E-02  1.000000E+00  0.000000E+00  1.000000E+00  0.000000E+00
  0.000119800  1.618120E-02 -4.639700E-02  4.404650E-02  2.962660E-02  1.000000E+00  0.000000E+00  1.000000E+00  0.000000E+00
  0.000122275  1.710500E-02 -4.401880E-02  4.516760E-02  2.902630E-02  1.000000E+00  0.000000E+00  1.000000E+00  0.000000E+00
  0.000124750  1.815880E-02 -4.427270E-02  4.523620E-02  2.828560E-02  1.000000E+00  0.000000E+00  1.000000E+00  0.000000E+00
  0.000127225  1.787720E-02 -4.194580E-02  4.584760E-02  2.793270E-02  1.000000E+00  0.000000E+00  1.000000E+00  0.000000E+00
  0.000129700  1.909580E-02 -3.953450E-02  4.624140E-02  2.644260E-02  1.000000E+00  0.000000E+00  1.000000E+00  0.000000E+00
  0.000132175  2.037590E-02 -4.029510E-02  4.686380E-02  2.633790E-02  1.000000E+00  0.000000E+00  1.000000E+00  0.000000E+00
  0.000134650  2.060760E-02 -4.007260E-02  4.740160E-02  2.606890E-02  1.000000E+00  0.000000E+00  1.000000E+00  0.000000E+00
  0.000137125  2.134840E-02 -3.818020E-02  4.774350E-02  2.515640E-02  1.000000E+00  0.000000E+00  1.000000E+00  0.000000E+00
  0.000139600  2.226950E-02 -3.677660E-02  4.811280E-02  2.348400E-02  1.000000E+00  0.000000E+00  1.000000E+00  0.000000E+00
  0.000142075  2.296970E-02 -3.598770E-02  4.846520E-02  2.313600E-02  1.000000E+00  0.000000E+00  1.000000E+00  0.000000E+00
  0.000144550  2.345210E-02 -3.528510E-02  4.842400E-02  2.275370E-02  1.000000E+00  0.000000E+00  1.000000E+00  0.000000E+00
  0.000147025  2.442330E-02 -3.359420E-02  4.908300E-02  2.180280E-02  1.000000E+00  0.000000E+00  1.000000E+00  0.000000E+00
  0.000149500  2.472060E-02 -3.269150E-02  4.934180E-02  2.176420E-02  1.000000E+00  0.000000E+00  1.000000E+00  0.000000E+00
  0.000151975  2.519220E-02 -3.250090E-02  4.959380E-02  2.122570E-02  1.000000E+00  0.000000E+00  1.000000E+00  0.000000E+00
  0.000154450  2.529570E-02 -3.034780E-02  4.928490E-02  2.049140E-02  1.000000E+00  0.000000E+00  1.000000E+00  0.000000E+00
  0.000156925  2.640210E-02 -3.024980E-02  4.967580E-02  1.994810E-02  1.000000E+00  0.000000E+00  1.000000E+00  0.000000E+00
  0.000159400  2.651550E-02 -2.998110E-02  5.017460E-02  1.953480E-02  1.000000E+00  0.000000E+00  1.000000E+00  0.000000E+00
  0.000161875  2.688060E-02 -3.023060E-02  4.992850E-02  1.914670E-02  1.000000E+00  0.000000E+00  1.000000E+00  0.000000E+00
  0.000164350  2.776390E-02 -2.903200E-02  5.043470E-02  1.830020E-02  1.000000E+00  0.000000E+00  1.000000E+00  0.000000E+00
  0.000166825  2.789700E-02 -2.850620E-02  5.004960E-02  1.799580E-02  1.000000E+00  0.000000E+00  1.000000E+00  0.000000E+00
  0.000169300  2.853970E-02 -2.776960E-02  5.063990E-02  1.723040E-02  1.000000E+00  0.000000E+00  1.000000E+00  0.000000E+00
  0.000171775  2.873090E-02 -2.623340E-02  5.107180E-02  1.690150E-02  1.000000E+00  0.000000E+00  1.000000E+00  0.000000E+00
  0.000174250  2.887780E-02 -2.606430E-02  5.064720E-02  1.590510E-02  1.000000E+00  0.000000E+00  1.000000E+00  0.000000E+00
  0.000176725  2.936420E-02 -2.645570E-02  5.082650E-02  1.561180E-02  1.000000E+00  0.000000E+00  1.000000E+00  0.000000E+00
  0.000179200  3.003350E-02 -2.537010E-02  5.102570E-02  1.504260E-02  1.000000E+00  0.000000E+00  1.000000E+00  0.000000E+00
  0.000181675  2.941360E-02 -2.541740E-02  5.118470E-02  1.480170E-02  1.000000E+00  0.000000E+00  1.000000E+00  0.000000E+00
  0.000184150  3.060650E-02 -2.362400E-02  5.172790E-02  1.481430E-02  1.000000E+00  0.000000E+00  1.000000E+00  0.000000E+00
  0.000186625  3.090300E-02 -2.398040E-02  5.130540E-02  1.353640E-02  1.000000E+00  0.000000E+00  1.000000E+00  0.000000E+00
  0.000189100  3.068370E-02 -2.351330E-02  5.172980E-02  1.328140E-02  1.000000E+00  0.000000E+00  1.000000E+00  0.000000E+00
  0.000191575  3.011270E-02 -2.434450E-02  5.147630E-02  1.288080E-02  1.000000E+00  0.000000E+00  1.000000E+00  0.000000E+00
  0.000194050  3.107670E-02 -2.299720E-02  5.190770E-02  1.320190E-02  1.000000E+00  0.000000E+00  1.000000E+00  0.000000E+00
  0.000196525  3.253280E-02 -2.253010E-02  5.211580E-02  1.204570E-02  1.000000E+00  0.000000E+00  1.000000E+00  0.000000E+00
  0.000199000  3.223240E-02 -2.219690E-02  5.179860E-02  1.212380E-02  1.000000E+00  0.000000E+00  1.000000E+00  0.000000E+00
  0.000201475  3.275400E-02 -1.997970E-02  5.186260E-02  1.147780E-02  1.000000E+00  0.000000E+00  1.000000E+00  0.000000E+00
  0.000203950  3.129220E-02 -2.115570E-02  5.174250E-02  1.149640E-02  1.000000E+00  0.000000E+00  1.000000E+00  0.000000E+00
  0.000206425  3.309280E-02 -2.057990E-02  5.182660E-02  1.111700E-02  1.000000E+00  0.000000E+00  1.000000E+00  0.000000E+00
  0.000208900  3.297820E-02 -2.067350E-02  5.226670E-02  1.021420E-02  1.000000E+00  0.000000E+00  1.000000E+00  0.000000E+00
  0.000211375  3.380000E-02 -2.130480E-02  5.216390E-02  1.067860E-02  1.000000E+00  0.000000E+00  1.000000E+00  0.000000E+00
  0.000213850  3.296900E-02 -1.960870E-02  5.249780E-02  9.949120E-03  1.000000E+00  0.000000E+00  1.000000E+00  0.000000E+00
  0.000216325  3.325110E-02 -2.013360E-02  5.268750E-02  9.563070E-03  1.000000E+00  0.000000E+00  1.000000E+00  0.000000E+00
  0.000218800  3.346680E-02 -1.973220E-02  5.240940E-02  9.041850E-03  1.000000E+00  0.000000E+00  1.000000E+00  0.000000E+00
  0.000221275  3.471470E-02 -1.804690E-02  5.249050E-02  8.361290E-03  1.000000E+00  0.000000E+00  1.000000E+00  0.000000E+00
  0.000223750  3.433350E-02 -1.855540E-02  5.256680E-02  8.262270E-03  1.000000E+00  0.000000E+00  1.000000E+00  0.000000E+00
  0.000226225  3.492030E-02 -1.840660E-02  5.261340E-02  8.097660E-03  1.000000E+00  0.000000E+00  1.000000E+00  0.000000E+00
  0.000228700  3.424270E-02 -1.886450E-02  5.242880E-02  7.779810E-03  1.000000E+00  0.000000E+00  1.000000E+00  0.000000E+00
  0.000231175  3.475730E-02 -1.818550E-02  5.262170E-02  7.551290E-03  1.000000E+00  0.000000E+00  1.000000E+00  0.000000E+00
  0.000233650  3.471380E-02 -1.794160E-02  5.266020E-02  6.546240E-03  1.000000E+00  0.000000E+00  1.000000E+00  0.000000E+00
  0.000236125  3.507660E-02 -1.735330E-02  5.293630E-02  6.921430E-03  1.000000E+00  0.000000E+00  1.000000E+00  0.000000E+00
  0.000238600  3.557570E-02 -1.700700E-02  5.264810E-02  6.389310E-03  1.000000E+00  0.000000E+00  1.000000E+00  0.000000E+00
  0.000241075  3.522350E-02 -1.677860E-02  5.229720E-02  5.776390E-03  1.000000E+00  0.000000E+00  1.000000E+00  0.000000E+00
  0.000243550  3.589820E-02 -1.685320E-02  5.262450E-02  5.739820E-03  1.000000E+00  0.000000E+00  1.000000E+00  0.000000E+00
  0.000246025  3.611470E-02 -1.597880E-02  5.310090E-02  5.311220E-03  1.000000E+00  0.000000E+00  1.000000E+00  0.000000E+00
  0.000248500  3.590660E-02 -1.570620E-02  5.241770E-02  4.944850E-03  1.000000E+00  0.000000E+00  1.000000E+00  0.000000E+00
  0.000250975  3.652200E-02 -1.609900E-02  5.266920E-02  4.809280E-03  1.000000E+00  0.000000E+00  1.000000E+00  0.000000E+00
  0.000253450  3.599270E-02 -1.508960E-02  5.236040E-02  4.224140E-03  1.000000E+00  0.000000E+00  1.000000E+00  0.000000E+00
  0.000255925  3.551610E-02 -1.442310E-02  5.270710E-02  4.774150E-03  1.000000E+00  0.000000E+00  1.000000E+00  0.000000E+00
  0.000258400  3.668280E-02 -1.507210E-02  5.213090E-02  4.048720E-03  1.000000E+00  0.000000E+00  1.000000E+00  0.000000E+00
  0.000260875  3.755340E-02 -1.422310E-02  5.239570E-02  3.501770E-03  1.000000E+00  0.000000E+00  1.000000E+00  0.000000E+00
  0.000263350  3.642050E-02 -1.346160E-02  5.254750E-02  2.584820E-03  1.000000E+00  0.000000E+00  1.000000E+00  0.000000E+00
  0.000265825  3.672310E-02 -1.467600E-02  5.283920E-02  2.947140E-03  1.000000E+00  0.000000E+00  1.000000E+00  0.000000E+00
  0.000268300  3.736470E-02 -1.429660E-02  5.269990E-02  2.726430E-03  1.000000E+00  0.000000E+00  1.000000E+00  0.000000E+00
  0.000270775  3.758560E-02 -1.408420E-02  5.200080E-02  2.522900E-03  1.000000E+00  0.000000E+00  1.000000E+00  0.000000E+00
  0.000273250  3.770480E-02 -1.339770E-02  5.227280E-02  2.277580E-03  1.000000E+00  0.000000E+00  1.000000E+00  0.000000E+00
  0.000275725  3.811650E-02 -1.318540E-02  5.293960E-02  1.837620E-03  1.000000E+00  0.000000E+00  1.000000E+00  0.000000E+00
  0.000278200  3.778220E-02 -1.316620E-02  5.261610E-02  1.762510E-03  1.000000E+00  0.000000E+00  1.000000E+00  0.000000E+00
  0.000280675  3.732350E-02 -1.311700E-02  5.253300E-02  1.431810E-03  1.000000E+00  0.000000E+00  1.000000E+00  0.000000E+00
  0.000283150  3.821420E-02 -1.312780E-02  5.245410E-02  1.124560E-03  1.000000E+00  0.000000E+00  1.000000E+00  0.000000E+00
  0.000285625  3.791250E-02 -1.274610E-02  5.233550E-02  1.268210E-03  1.000000E+00  0.000000E+00  1.000000E+00  0.000000E+00
  0.000288100  3.843520E-02 -1.300300E-02  5.257840E-02  7.781950E-04  1.000000E+00  0.000000E+00  1.000000E+00  0.000000E+00
  0.000290575  3.805590E-02 -1.160290E-02  5.244190E-02  5.159070E-04  1.000000E+00  0.000000E+00  1.000000E+00  0.000000E+00
  0.000293050  3.823000E-02 -1.217770E-02  5.265010E-02 -1.110750E-04  1.000000E+00  0.000000E+00  1.000000E+00  0.000000E+00
  0.000295525  3.900190E-02 -1.092030E-02  5.248200E-02 -1.881100E-04  1.000000E+00  0.000000E+00  1.000000E+00  0.000000E+00
  0.000298000  3.852150E-02 -1.283940E-02  5.219350E-02 -4.166820E-04  1.000000E+00  0.000000E+00  1.000000E+00  0.000000E+00
  0.000300475  3.919560E-02 -1.228480E-02  5.276730E-02 -5.472740E-04  1.000000E+00  0.000000E+00  1.000000E+00  0.000000E+00
  0.000302950  3.874800E-02 -1.169910E-02  5.199790E-02 -6.188870E-04  1.000000E+00  0.000000E+00  1.000000E+00  0.000000E+00
  0.000305425  3.894980E-02 -1.047860E-02  5.235080E-02 -6.407830E-04  1.000000E+00  0.000000E+00  1.000000E+00  0.000000E+00
  0.000307900  3.895800E-02 -1.162500E-02  5.217090E-02 -1.171740E-03  1.000000E+00  0.000000E+00  1.000000E+00  0.000000E+00
  0.000310375  4.024950E-02 -1.223740E-02  5.212080E-02 -1.419770E-03  1.000000E+00  0.000000E+00  1.000000E+00  0.000000E+00
  0.000312850  4.029450E-02 -1.157440E-02  5.249820E-02 -1.713220E-03  1.000000E+00  0.000000E+00  1.000000E+00  0.000000E+00
  0.000315325  3.922700E-02 -1.191650E-02  5.223070E-02 -2.084160E-03  1.000000E+00  0.000000E+00  1.000000E+00  0.000000E+00
  0.000317800  4.005090E-02 -9.944290E-03  5.259290E-02 -2.319110E-03  1.000000E+00  0.000000E+00  1.000000E+00  0.000000E+00
  0.000320275  3.907390E-02 -1.036670E-02  5.204390E-02 -2.355960E-03  1.000000E+00  0.000000E+00  1.000000E+00  0.000000E+00
  0.000322750  3.936040E-02 -1.096460E-02  5.223530E-02 -2.415340E-03  1.000000E+00  0.000000E+00  1.000000E+00  0.000000E+00
  0.000325225  3.997000E-02 -1.073260E-02  5.223930E-02 -3.061600E-03  1.000000E+00  0.000000E+00  1.000000E+00  0.000000E+00
  0.000327700  3.995010E-02 -1.055660E-02  5.133390E-02 -3.308510E-03  1.000000E+00  0.000000E+00  1.000000E+00  0.000000E+00
  0.000330175  3.983920E-02 -1.070770E-02  5.172680E-02 -3.607940E-03  1.000000E+00  0.000000E+00  1.000000E+00  0.000000E+00
  0.000332650  3.985400E-02 -1.013050E-02  5.196720E-02 -3.524610E-03  1.000000E+00  0.000000E+00  1.000000E+00  0.000000E+00
  0.000335125  3.970060E-02 -9.956660E-03  5.209730E-02 -3.624180E-03  1.000000E+00  0.000000E+00  1.000000E+00  0.000000E+00
  0.000337600  4.021920E-02 -1.026210E-02  5.224700E-02 -3.920860E-03  1.000000E+00  0.000000E+00  1.000000E+00  0.000000E+00
  0.000340075  4.061970E-02 -1.019400E-02  5.207630E-02 -4.314720E-03  1.000000E+00  0.000000E+00  1.000000E+00  0.000000E+00
  0.000342550  4.084910E-02 -9.580910E-03  5.198700E-02 -4.429490E-03  1.000000E+00  0.000000E+00  1.000000E+00  0.000000E+00
  0.000345025  4.110200E-02 -1.004290E-02  5.174100E-02 -4.895350E-03  1.000000E+00  0.000000E+00  1.000000E+00  0.000000E+00
  0.000347500  4.092660E-02 -1.013380E-02  5.159090E-02 -4.511260E-03  1.000000E+00  0.000000E+00  1.000000E+00  0.000000E+00
  0.000349975  4.120620E-02 -8.939160E-03  5.202840E-02 -4.386320E-03  1.000000E+00  0.000000E+00  1.000000E+00  0.000000E+00
  0.000352450  4.091700E-02 -1.013940E-02  5.185640E-02 -5.158680E-03  1.000000E+00  0.000000E+00  1.000000E+00  0.000000E+00
  0.000354925  4.134040E-02 -9.387000E-03  5.177940E-02 -5.265960E-03  1.000000E+00  0.000000E+00  1.000000E+00  0.000000E+00
  0.000357400  4.072010E-02 -1.030450E-02  5.131540E-02 -5.597550E-03  1.000000E+00  0.000000E+00  1.000000E+00  0.000000E+00
  0.000359875  4.108730E-02 -9.129580E-03  5.186430E-02 -5.605360E-03  1.000000E+00  0.000000E+00  1.000000E+00  0.000000E+00
  0.000362350  4.065450E-02 -1.013280E-02  5.167120E-02 -5.985450E-03  1.000000E+00  0.000000E+00  1.000000E+00  0.000000E+00
  0.000364825  4.130920E-02 -8.553020E-03  5.163690E-02 -6.004750E-03  1.000000E+00  0.000000E+00  1.000000E+00  0.000000E+00
  0.000367300  4.189300E-02 -9.956180E-03  5.133160E-02 -6.153620E-03  1.000000E+00  0.000000E+00  1.000000E+00  0.000000E+00
  0.000369775  4.088270E-02 -8.817640E-03  5.151190E-02 -6.202490E-03  1.000000E+00  0.000000E+00  1.000000E+00  0.000000E+00
  0.000372250  4.117250E-02 -9.710720E-03  5.100830E-02 -6.125730E-03  1.000000E+00  0.000000E+00  1.000000E+00  0.000000E+00
  0.000374725  4.098320E-02 -9.011720E-03  5.131550E-02 -6.496260E-03  1.000000E+00  0.000000E+00  1.000000E+00  0.000000E+00
  0.000377200  4.085190E-02 -8.856430E-03  5.120760E-02 -6.822450E-03  1.000000E+00  0.000000E+00  1.000000E+00  0.000000E+00
  0.000379675  4.172190E-02 -9.441320E-03  5.136760E-02 -6.778710E-03  1.000000E+00  0.000000E+00  1.000000E+00  0.000000E+00
  0.000382150  4.119750E-02 -9.618100E-03  5.130720E-02 -7.693450E-03  1.000000E+00  0.000000E+00  1.000000E+00  0.000000E+00
  0.000384625  4.247800E-02 -8.665730E-03  5.103250E-02 -7.626640E-03  1.000000E+00  0.000000E+00  1.000000E+00  0.000000E+00
  0.000387100  4.094300E-02 -9.402050E-03  5.069120E-02 -7.694810E-03  1.000000E+00  0.000000E+00  1.000000E+00  0.000000E+00
  0.000389575  4.207950E-02 -8.532890E-03  5.137990E-02 -7.316280E-03  1.000000E+00  0.000000E+00  1.000000E+00  0.000000E+00
  0.000392050  4.156650E-02 -7.938280E-03  5.092530E-02 -8.022900E-03  1.000000E+00  0.000000E+00  1.000000E+00  0.000000E+00
  0.000394525  4.215830E-02 -8.242590E-03  5.062970E-02 -8.381360E-03  1.000000E+00  0.000000E+00  1.000000E+00  0.000000E+00
  0.000397000  4.078600E-02 -8.804570E-03  5.072170E-02 -8.014220E-03  1.000000E+00  0.000000E+00  1.000000E+00  0.000000E+00
  0.000399475  4.269030E-02 -9.081290E-03  5.109910E-02 -8.103190E-03  1.000000E+00  0.000000E+00  1.000000E+00  0.000000E+00
  0.000401950  4.123540E-02 -9.384510E-03  5.093010E-02 -8.229180E-03  1.000000E+00  0.000000E+00  1.000000E+00  0.000000E+00
  0.000404425  4.262040E-02 -7.855710E-03  5.157040E-02 -9.378930E-03  1.000000E+00  0.000000E+00  1.000000E+00  0.000000E+00
  0.000406900  4.207600E-02 -9.325430E-03  5.057420E-02 -8.318650E-03  1.000000E+00  0.000000E+00  1.000000E+00  0.000000E+00
  0.000409375  4.182550E-02 -8.948330E-03  5.059550E-02 -9.218630E-03  1.000000E+00  0.000000E+00  1.000000E+00  0.000000E+00
  0.000411850  4.190970E-02 -9.079730E-03  5.034660E-02 -8.872260E-03  1.000000E+00  0.000000E+00  1.000000E+00  0.000000E+00
  0.000414325  4.197310E-02 -8.247660E-03  5.077170E-02 -9.695970E-03  1.000000E+00  0.000000E+00  1.000000E+00  0.000000E+00
  0.000416800  4.193940E-02 -8.039830E-03  5.004730E-02 -1.006310E-02  1.000000E+00  0.000000E+00  1.000000E+00  0.000000E+00
  0.000419275  4.206160E-02 -8.901650E-03  5.016200E-02 -9.608880E-03  1.000000E+00  0.000000E+00  1.000000E+00  0.000000E+00
  0.000421750  4.278270E-02 -8.194560E-03  5.018420E-02 -9.763140E-03  1.000000E+00  0.000000E+00  1.000000E+00  0.000000E+00
  0.000424225  4.276140E-02 -8.206950E-03  5.062600E-02 -1.024880E-02  1.000000E+00  0.000000E+00  1.000000E+00  0.000000E+00
  0.000426700  4.276390E-02 -8.358410E-03  5.062760E-02 -1.028910E-02  1.000000E+00  0.000000E+00  1.000000E+00  0.000000E+00
  0.000429175  4.186740E-02 -8.602730E-03  5.036610E-02 -1.037500E-02  1.000000E+00  0.000000E+00  1.000000E+00  0.000000E+00
  0.000431650  4.228000E-02 -8.239880E-03  5.034300E-02 -1.062330E-02  1.000000E+00  0.000000E+00  1.000000E+00  0.000000E+00
  0.000434125  4.289990E-02 -8.377530E-03  5.018780E-02 -1.094660E-02  1.000000E+00  0.000000E+00  1.000000E+00  0.000000E+00
  0.000436600  4.122190E-02 -7.855070E-03  4.979200E-02 -1.073680E-02  1.000000E+00  0.000000E+00  1.000000E+00  0.000000E+00
  0.000439075  4.214440E-02 -8.183370E-03  5.031280E-02 -1.080040E-02  1.000000E+00  0.000000E+00  1.000000E+00  0.000000E+00
  0.000441550  4.303240E-02 -8.127860E-03  4.983710E-02 -1.090040E-02  1.000000E+00  0.000000E+00  1.000000E+00  0.000000E+00
  0.000444025  4.173450E-02 -7.472460E-03  5.041420E-02 -1.149800E-02  1.000000E+00  0.000000E+00  1.000000E+00  0.000000E+00
  0.000446500  4.255820E-02 -8.317190E-03  5.015330E-02 -1.143550E-02  1.000000E+00  0.000000E+00  1.000000E+00  0.000000E+00
  0.000448975  4.250700E-02 -7.743020E-03  5.040700E-02 -1.120830E-02  1.000000E+00  0.000000E+00  1.000000E+00  0.000000E+00
  0.000451450  4.313030E-02 -7.701720E-03  5.008700E-02 -1.154360E-02  1.000000E+00  0.000000E+00  1.000000E+00  0.000000E+00
  0.000453925  4.161900E-02 -7.992580E-03  4.988100E-02 -1.216560E-02  1.000000E+00  0.000000E+00  1.000000E+00  0.000000E+00
