! Anritsu VNA Master:                        Model: MS2026C/19
! SN:                                  1815009
! /card0/usr/20180902_27.s2p
! Existing Calibration Information:
! TYPE:                         Current Settings,       Active Cal Settings
! TIME:             	   09/02/2018 06:14:07 PM,    09/02/2018 11:58:48 AM
! INTERNAL TEMP:    	                   48.8 C,                    48.8 C
! # POINTS:         	                     4001,                      4001
! START FREQ:       	              100.000 kHz,               100.000 kHz
! STOP FREQ:        	               10.000 MHz,                10.000 MHz
! SOURCE POWER:     	                      Low,                       Low
! IFBW:             	                   500 Hz,                    500 Hz
! AVG FACTOR:       	                       5 ,                        1 
! REF PLANE 1:      	                     0 mm,                      0 mm
! REF PLANE 2:      	                     0 mm,                      0 mm
! CAL TYPE:         	             1P2P S11,S21,              1P2P S11,S21
! CAL METHOD:       	                     SOLT,                      SOLT
! CAL LINE TYPE:    	                     Coax,                      Coax
! DUT PORT 1:       	                N-Conn(M),                 N-Conn(M)
! DUT PORT 2:       	                N-Conn(M),                 N-Conn(M)
! CAL STATUS:       	        OK: Accuracy High,                        --
# GHZ S RI R 50.0
! FREQ.GHZ      S11RE         S11IM         S21RE         S21IM         S12RE         S12IM         S22RE         S22IM
  0.000100000  8.396930E-03 -6.121110E-02  1.855920E-02  6.478700E-02  1.000000E+00  0.000000E+00  1.000000E+00  0.000000E+00
  0.000102475  1.052160E-02 -5.833340E-02  2.083080E-02  6.504550E-02  1.000000E+00  0.000000E+00  1.000000E+00  0.000000E+00
  0.000104950  1.054460E-02 -5.632210E-02  2.346490E-02  6.434190E-02  1.000000E+00  0.000000E+00  1.000000E+00  0.000000E+00
  0.000107425  1.230910E-02 -5.460280E-02  2.531420E-02  6.403580E-02  1.000000E+00  0.000000E+00  1.000000E+00  0.000000E+00
  0.000109900  1.335570E-02 -5.296020E-02  2.760760E-02  6.282890E-02  1.000000E+00  0.000000E+00  1.000000E+00  0.000000E+00
  0.000112375  1.422790E-02 -5.113440E-02  2.964740E-02  6.257220E-02  1.000000E+00  0.000000E+00  1.000000E+00  0.000000E+00
  0.000114850  1.528330E-02 -4.962900E-02  3.147670E-02  6.169700E-02  1.000000E+00  0.000000E+00  1.000000E+00  0.000000E+00
  0.000117325  1.687930E-02 -4.796960E-02  3.366550E-02  6.075460E-02  1.000000E+00  0.000000E+00  1.000000E+00  0.000000E+00
  0.000119800  1.805280E-02 -4.560820E-02  3.500240E-02  5.966250E-02  1.000000E+00  0.000000E+00  1.000000E+00  0.000000E+00
  0.000122275  1.783660E-02 -4.399000E-02  3.692710E-02  5.888060E-02  1.000000E+00  0.000000E+00  1.000000E+00  0.000000E+00
  0.000124750  1.869810E-02 -4.373330E-02  3.813930E-02  5.831900E-02  1.000000E+00  0.000000E+00  1.000000E+00  0.000000E+00
  0.000127225  1.873920E-02 -4.188890E-02  4.033430E-02  5.774990E-02  1.000000E+00  0.000000E+00  1.000000E+00  0.000000E+00
  0.000129700  1.967230E-02 -3.892580E-02  4.174930E-02  5.641710E-02  1.000000E+00  0.000000E+00  1.000000E+00  0.000000E+00
  0.000132175  2.178380E-02 -4.008740E-02  4.294810E-02  5.585430E-02  1.000000E+00  0.000000E+00  1.000000E+00  0.000000E+00
  0.000134650  2.172090E-02 -3.917870E-02  4.459420E-02  5.466920E-02  1.000000E+00  0.000000E+00  1.000000E+00  0.000000E+00
  0.000137125  2.216980E-02 -3.759710E-02  4.540510E-02  5.428030E-02  1.000000E+00  0.000000E+00  1.000000E+00  0.000000E+00
  0.000139600  2.343690E-02 -3.685510E-02  4.664970E-02  5.319320E-02  1.000000E+00  0.000000E+00  1.000000E+00  0.000000E+00
  0.000142075  2.361630E-02 -3.606520E-02  4.765670E-02  5.182590E-02  1.000000E+00  0.000000E+00  1.000000E+00  0.000000E+00
  0.000144550  2.442310E-02 -3.415690E-02  4.877680E-02  5.104070E-02  1.000000E+00  0.000000E+00  1.000000E+00  0.000000E+00
  0.000147025  2.544580E-02 -3.366060E-02  4.989500E-02  5.029030E-02  1.000000E+00  0.000000E+00  1.000000E+00  0.000000E+00
  0.000149500  2.592850E-02 -3.335450E-02  5.061900E-02  4.911890E-02  1.000000E+00  0.000000E+00  1.000000E+00  0.000000E+00
  0.000151975  2.602390E-02 -3.255780E-02  5.133690E-02  4.798480E-02  1.000000E+00  0.000000E+00  1.000000E+00  0.000000E+00
  0.000154450  2.603350E-02 -3.066650E-02  5.256030E-02  4.762160E-02  1.000000E+00  0.000000E+00  1.000000E+00  0.000000E+00
  0.000156925  2.738340E-02 -3.049040E-02  5.273570E-02  4.668650E-02  1.000000E+00  0.000000E+00  1.000000E+00  0.000000E+00
  0.000159400  2.648290E-02 -2.919770E-02  5.359930E-02  4.546850E-02  1.000000E+00  0.000000E+00  1.000000E+00  0.000000E+00
  0.000161875  2.795560E-02 -3.024980E-02  5.497430E-02  4.479990E-02  1.000000E+00  0.000000E+00  1.000000E+00  0.000000E+00
  0.000164350  2.880410E-02 -2.960160E-02  5.562640E-02  4.421500E-02  1.000000E+00  0.000000E+00  1.000000E+00  0.000000E+00
  0.000166825  2.838770E-02 -2.882340E-02  5.602290E-02  4.333590E-02  1.000000E+00  0.000000E+00  1.000000E+00  0.000000E+00
  0.000169300  2.997360E-02 -2.862330E-02  5.702520E-02  4.213780E-02  1.000000E+00  0.000000E+00  1.000000E+00  0.000000E+00
  0.000171775  2.957600E-02 -2.649280E-02  5.709370E-02  4.174410E-02  1.000000E+00  0.000000E+00  1.000000E+00  0.000000E+00
  0.000174250  2.947860E-02 -2.591470E-02  5.787230E-02  4.060740E-02  1.000000E+00  0.000000E+00  1.000000E+00  0.000000E+00
  0.000176725  3.042310E-02 -2.569560E-02  5.906570E-02  4.000870E-02  1.000000E+00  0.000000E+00  1.000000E+00  0.000000E+00
  0.000179200  3.017580E-02 -2.526000E-02  5.916680E-02  3.915420E-02  1.000000E+00  0.000000E+00  1.000000E+00  0.000000E+00
  0.000181675  3.018090E-02 -2.530720E-02  5.932030E-02  3.867830E-02  1.000000E+00  0.000000E+00  1.000000E+00  0.000000E+00
  0.000184150  3.143200E-02 -2.360070E-02  6.037880E-02  3.765440E-02  1.000000E+00  0.000000E+00  1.000000E+00  0.000000E+00
  0.000186625  3.145010E-02 -2.408480E-02  6.094720E-02  3.639360E-02  1.000000E+00  0.000000E+00  1.000000E+00  0.000000E+00
  0.000189100  3.080830E-02 -2.350240E-02  6.152030E-02  3.578720E-02  1.000000E+00  0.000000E+00  1.000000E+00  0.000000E+00
  0.000191575  3.071780E-02 -2.415570E-02  6.185230E-02  3.557070E-02  1.000000E+00  0.000000E+00  1.000000E+00  0.000000E+00
  0.000194050  3.170520E-02 -2.332050E-02  6.215480E-02  3.449630E-02  1.000000E+00  0.000000E+00  1.000000E+00  0.000000E+00
  0.000196525  3.302380E-02 -2.274750E-02  6.235230E-02  3.356270E-02  1.000000E+00  0.000000E+00  1.000000E+00  0.000000E+00
  0.000199000  3.355170E-02 -2.266620E-02  6.292500E-02  3.300000E-02  1.000000E+00  0.000000E+00  1.000000E+00  0.000000E+00
  0.000201475  3.331880E-02 -2.114200E-02  6.350560E-02  3.263500E-02  1.000000E+00  0.000000E+00  1.000000E+00  0.000000E+00
  0.000203950  3.289030E-02 -2.105620E-02  6.321180E-02  3.131150E-02  1.000000E+00  0.000000E+00  1.000000E+00  0.000000E+00
  0.000206425  3.388770E-02 -2.113540E-02  6.450090E-02  3.060040E-02  1.000000E+00  0.000000E+00  1.000000E+00  0.000000E+00
  0.000208900  3.375860E-02 -2.090290E-02  6.383230E-02  3.066610E-02  1.000000E+00  0.000000E+00  1.000000E+00  0.000000E+00
  0.000211375  3.448000E-02 -1.975920E-02  6.423940E-02  3.006960E-02  1.000000E+00  0.000000E+00  1.000000E+00  0.000000E+00
  0.000213850  3.335990E-02 -2.012730E-02  6.477760E-02  2.900530E-02  1.000000E+00  0.000000E+00  1.000000E+00  0.000000E+00
  0.000216325  3.418390E-02 -1.996330E-02  6.539940E-02  2.793720E-02  1.000000E+00  0.000000E+00  1.000000E+00  0.000000E+00
  0.000218800  3.385620E-02 -1.942550E-02  6.535550E-02  2.809750E-02  1.000000E+00  0.000000E+00  1.000000E+00  0.000000E+00
  0.000221275  3.564250E-02 -1.851900E-02  6.527650E-02  2.742400E-02  1.000000E+00  0.000000E+00  1.000000E+00  0.000000E+00
  0.000223750  3.484220E-02 -1.882360E-02  6.569950E-02  2.576060E-02  1.000000E+00  0.000000E+00  1.000000E+00  0.000000E+00
  0.000226225  3.553180E-02 -1.810430E-02  6.599690E-02  2.623590E-02  1.000000E+00  0.000000E+00  1.000000E+00  0.000000E+00
  0.000228700  3.506290E-02 -1.908880E-02  6.651500E-02  2.519890E-02  1.000000E+00  0.000000E+00  1.000000E+00  0.000000E+00
  0.000231175  3.537530E-02 -1.841780E-02  6.629910E-02  2.426020E-02  1.000000E+00  0.000000E+00  1.000000E+00  0.000000E+00
  0.000233650  3.586260E-02 -1.817740E-02  6.717300E-02  2.353280E-02  1.000000E+00  0.000000E+00  1.000000E+00  0.000000E+00
  0.000236125  3.509940E-02 -1.645940E-02  6.668440E-02  2.313290E-02  1.000000E+00  0.000000E+00  1.000000E+00  0.000000E+00
  0.000238600  3.634020E-02 -1.723140E-02  6.651590E-02  2.279430E-02  1.000000E+00  0.000000E+00  1.000000E+00  0.000000E+00
  0.000241075  3.598300E-02 -1.682720E-02  6.719850E-02  2.190680E-02  1.000000E+00  0.000000E+00  1.000000E+00  0.000000E+00
  0.000243550  3.617990E-02 -1.666110E-02  6.660800E-02  2.142620E-02  1.000000E+00  0.000000E+00  1.000000E+00  0.000000E+00
  0.000246025  3.694230E-02 -1.700160E-02  6.725820E-02  2.078060E-02  1.000000E+00  0.000000E+00  1.000000E+00  0.000000E+00
  0.000248500  3.682490E-02 -1.611040E-02  6.768940E-02  2.028310E-02  1.000000E+00  0.000000E+00  1.000000E+00  0.000000E+00
  0.000250975  3.718700E-02 -1.659140E-02  6.818480E-02  1.996080E-02  1.000000E+00  0.000000E+00  1.000000E+00  0.000000E+00
  0.000253450  3.716290E-02 -1.563750E-02  6.872860E-02  1.937480E-02  1.000000E+00  0.000000E+00  1.000000E+00  0.000000E+00
  0.000255925  3.650420E-02 -1.471570E-02  6.788990E-02  1.804920E-02  1.000000E+00  0.000000E+00  1.000000E+00  0.000000E+00
  0.000258400  3.759060E-02 -1.506630E-02  6.806750E-02  1.841240E-02  1.000000E+00  0.000000E+00  1.000000E+00  0.000000E+00
  0.000260875  3.834780E-02 -1.543830E-02  6.857250E-02  1.734890E-02  1.000000E+00  0.000000E+00  1.000000E+00  0.000000E+00
  0.000263350  3.717590E-02 -1.434870E-02  6.876420E-02  1.722140E-02  1.000000E+00  0.000000E+00  1.000000E+00  0.000000E+00
  0.000265825  3.705530E-02 -1.484540E-02  6.799610E-02  1.647910E-02  1.000000E+00  0.000000E+00  1.000000E+00  0.000000E+00
  0.000268300  3.753520E-02 -1.437800E-02  6.890190E-02  1.597920E-02  1.000000E+00  0.000000E+00  1.000000E+00  0.000000E+00
  0.000270775  3.741450E-02 -1.418200E-02  6.837280E-02  1.579160E-02  1.000000E+00  0.000000E+00  1.000000E+00  0.000000E+00
  0.000273250  3.865540E-02 -1.333660E-02  6.848800E-02  1.507580E-02  1.000000E+00  0.000000E+00  1.000000E+00  0.000000E+00
  0.000275725  3.852000E-02 -1.349990E-02  6.875850E-02  1.440060E-02  1.000000E+00  0.000000E+00  1.000000E+00  0.000000E+00
  0.000278200  3.787380E-02 -1.280680E-02  6.868410E-02  1.430710E-02  1.000000E+00  0.000000E+00  1.000000E+00  0.000000E+00
  0.000280675  3.895140E-02 -1.385450E-02  6.845530E-02  1.298110E-02  1.000000E+00  0.000000E+00  1.000000E+00  0.000000E+00
  0.000283150  3.896540E-02 -1.370660E-02  6.871960E-02  1.309230E-02  1.000000E+00  0.000000E+00  1.000000E+00  0.000000E+00
  0.000285625  3.873510E-02 -1.372160E-02  6.895330E-02  1.286750E-02  1.000000E+00  0.000000E+00  1.000000E+00  0.000000E+00
  0.000288100  3.884260E-02 -1.267000E-02  6.952470E-02  1.176780E-02  1.000000E+00  0.000000E+00  1.000000E+00  0.000000E+00
  0.000290575  3.815330E-02 -1.224810E-02  6.918490E-02  1.184740E-02  1.000000E+00  0.000000E+00  1.000000E+00  0.000000E+00
  0.000293050  3.842150E-02 -1.275720E-02  6.884500E-02  1.079820E-02  1.000000E+00  0.000000E+00  1.000000E+00  0.000000E+00
  0.000295525  3.959650E-02 -1.127760E-02  6.914340E-02  1.038840E-02  1.000000E+00  0.000000E+00  1.000000E+00  0.000000E+00
  0.000298000  3.841720E-02 -1.330580E-02  6.857080E-02  9.680030E-03  1.000000E+00  0.000000E+00  1.000000E+00  0.000000E+00
  0.000300475  3.905320E-02 -1.273140E-02  6.978600E-02  9.559890E-03  1.000000E+00  0.000000E+00  1.000000E+00  0.000000E+00
  0.000302950  3.897160E-02 -1.155720E-02  6.894680E-02  9.187660E-03  1.000000E+00  0.000000E+00  1.000000E+00  0.000000E+00
  0.000305425  3.956550E-02 -1.219010E-02  6.894740E-02  8.385110E-03  1.000000E+00  0.000000E+00  1.000000E+00  0.000000E+00
  0.000307900  3.953580E-02 -1.195670E-02  6.894520E-02  7.682000E-03  1.000000E+00  0.000000E+00  1.000000E+00  0.000000E+00
  0.000310375  4.058550E-02 -1.272530E-02  6.893580E-02  7.407750E-03  1.000000E+00  0.000000E+00  1.000000E+00  0.000000E+00
  0.000312850  4.030750E-02 -1.155240E-02  6.906270E-02  6.875970E-03  1.000000E+00  0.000000E+00  1.000000E+00  0.000000E+00
  0.000315325  3.911770E-02 -1.184410E-02  6.909190E-02  6.499920E-03  1.000000E+00  0.000000E+00  1.000000E+00  0.000000E+00
  0.000317800  4.000340E-02 -1.064300E-02  6.896280E-02  6.056060E-03  1.000000E+00  0.000000E+00  1.000000E+00  0.000000E+00
  0.000320275  3.958630E-02 -1.070080E-02  6.809890E-02  5.743910E-03  1.000000E+00  0.000000E+00  1.000000E+00  0.000000E+00
  0.000322750  3.996090E-02 -1.113380E-02  6.906740E-02  5.517080E-03  1.000000E+00  0.000000E+00  1.000000E+00  0.000000E+00
  0.000325225  4.038840E-02 -1.154780E-02  6.785060E-02  5.262910E-03  1.000000E+00  0.000000E+00  1.000000E+00  0.000000E+00
  0.000327700  3.989640E-02 -1.040090E-02  6.921980E-02  4.652410E-03  1.000000E+00  0.000000E+00  1.000000E+00  0.000000E+00
  0.000330175  4.003450E-02 -1.099830E-02  6.770040E-02  3.310240E-03  1.000000E+00  0.000000E+00  1.000000E+00  0.000000E+00
  0.000332650  3.902900E-02 -1.043180E-02  6.847180E-02  3.928490E-03  1.000000E+00  0.000000E+00  1.000000E+00  0.000000E+00
  0.000335125  4.025330E-02 -1.084710E-02  6.765460E-02  2.713850E-03  1.000000E+00  0.000000E+00  1.000000E+00  0.000000E+00
  0.000337600  3.985880E-02 -1.045240E-02  6.867250E-02  3.033880E-03  1.000000E+00  0.000000E+00  1.000000E+00  0.000000E+00
  0.000340075  4.114630E-02 -1.140850E-02  6.697800E-02  3.102100E-03  1.000000E+00  0.000000E+00  1.000000E+00  0.000000E+00
  0.000342550  4.079400E-02 -1.055160E-02  6.791070E-02  2.320040E-03  1.000000E+00  0.000000E+00  1.000000E+00  0.000000E+00
  0.000345025  4.034680E-02 -1.030010E-02  6.721080E-02  2.070870E-03  1.000000E+00  0.000000E+00  1.000000E+00  0.000000E+00
  0.000347500  4.070280E-02 -1.071520E-02  6.753840E-02  2.098880E-03  1.000000E+00  0.000000E+00  1.000000E+00  0.000000E+00
  0.000349975  4.039830E-02 -9.170340E-03  6.767040E-02  1.935090E-03  1.000000E+00  0.000000E+00  1.000000E+00  0.000000E+00
  0.000352450  4.076970E-02 -1.018340E-02  6.792570E-02  1.639460E-03  1.000000E+00  0.000000E+00  1.000000E+00  0.000000E+00
  0.000354925  4.099680E-02 -1.003560E-02  6.768180E-02  9.753720E-04  1.000000E+00  0.000000E+00  1.000000E+00  0.000000E+00
  0.000357400  4.081180E-02 -1.045470E-02  6.702860E-02  1.358700E-03  1.000000E+00  0.000000E+00  1.000000E+00  0.000000E+00
  0.000359875  4.113440E-02 -9.572330E-03  6.709020E-02 -1.818040E-04  1.000000E+00  0.000000E+00  1.000000E+00  0.000000E+00
  0.000362350  4.087450E-02 -1.050840E-02  6.709750E-02  6.427340E-04  1.000000E+00  0.000000E+00  1.000000E+00  0.000000E+00
  0.000364825  4.105300E-02 -8.795990E-03  6.769000E-02 -7.441370E-04  1.000000E+00  0.000000E+00  1.000000E+00  0.000000E+00
  0.000367300  4.023990E-02 -1.025130E-02  6.698380E-02 -4.696970E-04  1.000000E+00  0.000000E+00  1.000000E+00  0.000000E+00
  0.000369775  4.070180E-02 -8.620160E-03  6.692200E-02 -1.523950E-03  1.000000E+00  0.000000E+00  1.000000E+00  0.000000E+00
  0.000372250  4.090250E-02 -9.555650E-03  6.654820E-02 -3.699710E-04  1.000000E+00  0.000000E+00  1.000000E+00  0.000000E+00
  0.000374725  4.117370E-02 -9.210350E-03  6.644470E-02 -1.693390E-03  1.000000E+00  0.000000E+00  1.000000E+00  0.000000E+00
  0.000377200  4.115950E-02 -9.028090E-03  6.684100E-02 -6.884630E-04  1.000000E+00  0.000000E+00  1.000000E+00  0.000000E+00
  0.000379675  4.185850E-02 -9.504880E-03  6.636090E-02 -1.462350E-03  1.000000E+00  0.000000E+00  1.000000E+00  0.000000E+00
  0.000382150  4.079460E-02 -9.654890E-03  6.683700E-02 -1.113920E-03  1.000000E+00  0.000000E+00  1.000000E+00  0.000000E+00
  0.000384625  4.239890E-02 -9.555930E-03  6.607910E-02 -1.376100E-03  1.000000E+00  0.000000E+00  1.000000E+00  0.000000E+00
  0.000387100  4.074550E-02 -9.530710E-03  6.552200E-02 -2.011610E-03  1.000000E+00  0.000000E+00  1.000000E+00  0.000000E+00
  0.000389575  4.167160E-02 -9.284990E-03  6.619430E-02 -1.732050E-03  1.000000E+00  0.000000E+00  1.000000E+00  0.000000E+00
  0.000392050  4.126820E-02 -8.292920E-03  6.685230E-02 -1.602460E-03  1.000000E+00  0.000000E+00  1.000000E+00  0.000000E+00
  0.000394525  4.177700E-02 -8.960670E-03  6.730080E-02 -1.636120E-03  1.000000E+00  0.000000E+00  1.000000E+00  0.000000E+00
  0.000397000  4.069490E-02 -8.583820E-03  6.652850E-02 -2.434840E-03  1.000000E+00  0.000000E+00  1.000000E+00  0.000000E+00
  0.000399475  4.213680E-02 -8.950730E-03  6.736020E-02 -2.481930E-03  1.000000E+00  0.000000E+00  1.000000E+00  0.000000E+00
  0.000401950  4.133740E-02 -9.116060E-03  6.663100E-02 -2.810690E-03  1.000000E+00  0.000000E+00  1.000000E+00  0.000000E+00
  0.000404425  4.217020E-02 -8.352750E-03  6.688570E-02 -3.439720E-03  1.000000E+00  0.000000E+00  1.000000E+00  0.000000E+00
  0.000406900  4.202840E-02 -9.547600E-03  6.673720E-02 -3.516910E-03  1.000000E+00  0.000000E+00  1.000000E+00  0.000000E+00
  0.000409375  4.220910E-02 -8.994520E-03  6.730190E-02 -3.838290E-03  1.000000E+00  0.000000E+00  1.000000E+00  0.000000E+00
  0.000411850  4.097880E-02 -9.575670E-03  6.695910E-02 -3.537960E-03  1.000000E+00  0.000000E+00  1.000000E+00  0.000000E+00
  0.000414325  4.205570E-02 -7.950750E-03  6.711700E-02 -4.656940E-03  1.000000E+00  0.000000E+00  1.000000E+00  0.000000E+00
  0.000416800  4.141980E-02 -8.074150E-03  6.719630E-02 -4.247960E-03  1.000000E+00  0.000000E+00  1.000000E+00  0.000000E+00
  0.000419275  4.217110E-02 -8.473380E-03  6.680510E-02 -4.862810E-03  1.000000E+00  0.000000E+00  1.000000E+00  0.000000E+00
  0.000421750  4.306160E-02 -7.834210E-03  6.689290E-02 -4.912020E-03  1.000000E+00  0.000000E+00  1.000000E+00  0.000000E+00
  0.000424225  4.312630E-02 -7.932980E-03  6.676780E-02 -5.437310E-03  1.000000E+00  0.000000E+00  1.000000E+00  0.000000E+00
  0.000426700  4.217000E-02 -8.286010E-03  6.678710E-02 -6.055120E-03  1.000000E+00  0.000000E+00  1.000000E+00  0.000000E+00
  0.000429175  4.242160E-02 -8.938950E-03  6.695870E-02 -5.532710E-03  1.000000E+00  0.000000E+00  1.000000E+00  0.000000E+00
  0.000431650  4.207190E-02 -7.724230E-03  6.666780E-02 -5.911920E-03  1.000000E+00  0.000000E+00  1.000000E+00  0.000000E+00
  0.000434125  4.295900E-02 -8.656700E-03  6.683050E-02 -6.265030E-03  1.000000E+00  0.000000E+00  1.000000E+00  0.000000E+00
  0.000436600  4.168090E-02 -7.824210E-03  6.671950E-02 -6.664010E-03  1.000000E+00  0.000000E+00  1.000000E+00  0.000000E+00
  0.000439075  4.155220E-02 -7.696670E-03  6.630130E-02 -6.617840E-03  1.000000E+00  0.000000E+00  1.000000E+00  0.000000E+00
  0.000441550  4.252340E-02 -7.337250E-03  6.692700E-02 -6.871860E-03  1.000000E+00  0.000000E+00  1.000000E+00  0.000000E+00
  0.000444025  4.155250E-02 -7.147040E-03  6.689000E-02 -6.932890E-03  1.000000E+00  0.000000E+00  1.000000E+00  0.000000E+00
  0.000446500  4.174250E-02 -7.833710E-03  6.721690E-02 -6.615490E-03  1.000000E+00  0.000000E+00  1.000000E+00  0.000000E+00
  0.000448975  4.286210E-02 -6.680120E-03  6.694010E-02 -7.937680E-03  1.000000E+00  0.000000E+00  1.000000E+00  0.000000E+00
  0.000451450  4.269230E-02 -8.628490E-03  6.685550E-02 -7.610260E-03  1.000000E+00  0.000000E+00  1.000000E+00  0.000000E+00
  0.000453925  4.165830E-02 -7.413130E-03  6.682600E-02 -7.629720E-03  1.000000E+00  0.000000E+00  1.000000E+00  0.000000E+00
