! Anritsu VNA Master:                        Model: MS2026C/19
! SN:                                  1815009
! /card0/usr/20180902_32.s2p
! Existing Calibration Information:
! TYPE:                         Current Settings,       Active Cal Settings
! TIME:             	   09/02/2018 07:18:58 PM,    09/02/2018 11:58:48 AM
! INTERNAL TEMP:    	                   51.5 C,                    48.8 C
! # POINTS:         	                     4001,                      4001
! START FREQ:       	              100.000 kHz,               100.000 kHz
! STOP FREQ:        	               10.000 MHz,                10.000 MHz
! SOURCE POWER:     	                      Low,                       Low
! IFBW:             	                   500 Hz,                    500 Hz
! AVG FACTOR:       	                       1 ,                        1 
! REF PLANE 1:      	                     0 mm,                      0 mm
! REF PLANE 2:      	                     0 mm,                      0 mm
! CAL TYPE:         	             1P2P S11,S21,              1P2P S11,S21
! CAL METHOD:       	                     SOLT,                      SOLT
! CAL LINE TYPE:    	                     Coax,                      Coax
! DUT PORT 1:       	                N-Conn(M),                 N-Conn(M)
! DUT PORT 2:       	                N-Conn(M),                 N-Conn(M)
! CAL STATUS:       	        OK: Accuracy High,                        --
# GHZ S RI R 50.0
! FREQ.GHZ      S11RE         S11IM         S21RE         S21IM         S12RE         S12IM         S22RE         S22IM
  0.000100000  8.154530E-02 -3.049910E-02  1.009250E+00  5.478130E-02  1.000000E+00  0.000000E+00  1.000000E+00  0.000000E+00
  0.000102475  8.209640E-02 -3.146790E-02  1.009950E+00  5.744750E-02  1.000000E+00  0.000000E+00  1.000000E+00  0.000000E+00
  0.000104950  7.940880E-02 -3.254930E-02  1.008350E+00  5.787460E-02  1.000000E+00  0.000000E+00  1.000000E+00  0.000000E+00
  0.000107425  7.968610E-02 -3.339630E-02  1.009700E+00  5.916900E-02  1.000000E+00  0.000000E+00  1.000000E+00  0.000000E+00
  0.000109900  7.815730E-02 -3.331530E-02  1.012650E+00  5.944120E-02  1.000000E+00  0.000000E+00  1.000000E+00  0.000000E+00
  0.000112375  7.987710E-02 -3.405570E-02  1.009800E+00  6.188930E-02  1.000000E+00  0.000000E+00  1.000000E+00  0.000000E+00
  0.000114850  7.659500E-02 -3.476130E-02  1.008270E+00  6.327220E-02  1.000000E+00  0.000000E+00  1.000000E+00  0.000000E+00
  0.000117325  7.909340E-02 -3.613520E-02  1.010660E+00  6.293330E-02  1.000000E+00  0.000000E+00  1.000000E+00  0.000000E+00
  0.000119800  7.626300E-02 -3.464010E-02  1.008670E+00  6.432110E-02  1.000000E+00  0.000000E+00  1.000000E+00  0.000000E+00
  0.000122275  7.587030E-02 -3.600690E-02  1.008670E+00  6.342700E-02  1.000000E+00  0.000000E+00  1.000000E+00  0.000000E+00
  0.000124750  7.479640E-02 -3.531930E-02  1.009300E+00  6.750510E-02  1.000000E+00  0.000000E+00  1.000000E+00  0.000000E+00
  0.000127225  7.392880E-02 -3.674900E-02  1.008910E+00  6.775650E-02  1.000000E+00  0.000000E+00  1.000000E+00  0.000000E+00
  0.000129700  7.306380E-02 -3.574810E-02  1.007860E+00  6.658940E-02  1.000000E+00  0.000000E+00  1.000000E+00  0.000000E+00
  0.000132175  7.345280E-02 -3.679260E-02  1.009310E+00  6.854890E-02  1.000000E+00  0.000000E+00  1.000000E+00  0.000000E+00
  0.000134650  7.290410E-02 -3.754590E-02  1.009060E+00  7.112840E-02  1.000000E+00  0.000000E+00  1.000000E+00  0.000000E+00
  0.000137125  7.149890E-02 -3.896410E-02  1.007080E+00  7.074280E-02  1.000000E+00  0.000000E+00  1.000000E+00  0.000000E+00
  0.000139600  7.201370E-02 -3.903700E-02  1.010140E+00  7.182690E-02  1.000000E+00  0.000000E+00  1.000000E+00  0.000000E+00
  0.000142075  7.127340E-02 -3.928370E-02  1.009390E+00  7.234400E-02  1.000000E+00  0.000000E+00  1.000000E+00  0.000000E+00
  0.000144550  7.018290E-02 -3.927350E-02  1.008120E+00  7.360070E-02  1.000000E+00  0.000000E+00  1.000000E+00  0.000000E+00
  0.000147025  6.951960E-02 -3.854540E-02  1.008630E+00  7.477990E-02  1.000000E+00  0.000000E+00  1.000000E+00  0.000000E+00
  0.000149500  6.974100E-02 -3.907830E-02  1.009710E+00  7.785660E-02  1.000000E+00  0.000000E+00  1.000000E+00  0.000000E+00
  0.000151975  6.779760E-02 -4.106340E-02  1.009550E+00  7.624990E-02  1.000000E+00  0.000000E+00  1.000000E+00  0.000000E+00
  0.000154450  6.803860E-02 -3.949620E-02  1.008480E+00  7.885040E-02  1.000000E+00  0.000000E+00  1.000000E+00  0.000000E+00
  0.000156925  6.773810E-02 -3.964940E-02  1.008620E+00  8.067300E-02  1.000000E+00  0.000000E+00  1.000000E+00  0.000000E+00
  0.000159400  6.619300E-02 -4.087610E-02  1.008290E+00  7.937040E-02  1.000000E+00  0.000000E+00  1.000000E+00  0.000000E+00
  0.000161875  6.659050E-02 -4.177450E-02  1.008280E+00  8.053160E-02  1.000000E+00  0.000000E+00  1.000000E+00  0.000000E+00
  0.000164350  6.655560E-02 -4.198250E-02  1.007940E+00  8.558950E-02  1.000000E+00  0.000000E+00  1.000000E+00  0.000000E+00
  0.000166825  6.409740E-02 -3.947590E-02  1.007710E+00  8.664820E-02  1.000000E+00  0.000000E+00  1.000000E+00  0.000000E+00
  0.000169300  6.570550E-02 -4.212380E-02  1.009490E+00  8.443430E-02  1.000000E+00  0.000000E+00  1.000000E+00  0.000000E+00
  0.000171775  6.298630E-02 -4.177070E-02  1.007360E+00  8.750460E-02  1.000000E+00  0.000000E+00  1.000000E+00  0.000000E+00
  0.000174250  6.295740E-02 -4.232930E-02  1.006870E+00  8.850350E-02  1.000000E+00  0.000000E+00  1.000000E+00  0.000000E+00
  0.000176725  6.164760E-02 -4.212540E-02  1.006700E+00  9.108390E-02  1.000000E+00  0.000000E+00  1.000000E+00  0.000000E+00
  0.000179200  6.131680E-02 -4.244680E-02  1.008290E+00  9.097440E-02  1.000000E+00  0.000000E+00  1.000000E+00  0.000000E+00
  0.000181675  6.051870E-02 -4.457500E-02  1.008510E+00  9.033330E-02  1.000000E+00  0.000000E+00  1.000000E+00  0.000000E+00
  0.000184150  6.223710E-02 -4.410540E-02  1.010680E+00  9.079500E-02  1.000000E+00  0.000000E+00  1.000000E+00  0.000000E+00
  0.000186625  5.964900E-02 -4.256460E-02  1.006070E+00  9.386470E-02  1.000000E+00  0.000000E+00  1.000000E+00  0.000000E+00
  0.000189100  5.984080E-02 -4.385580E-02  1.005910E+00  9.373990E-02  1.000000E+00  0.000000E+00  1.000000E+00  0.000000E+00
  0.000191575  5.802100E-02 -4.359070E-02  1.007810E+00  9.575260E-02  1.000000E+00  0.000000E+00  1.000000E+00  0.000000E+00
  0.000194050  5.923040E-02 -4.434550E-02  1.008000E+00  9.665550E-02  1.000000E+00  0.000000E+00  1.000000E+00  0.000000E+00
  0.000196525  5.820660E-02 -4.279540E-02  1.006720E+00  9.570730E-02  1.000000E+00  0.000000E+00  1.000000E+00  0.000000E+00
  0.000199000  5.749180E-02 -4.503010E-02  1.005480E+00  9.954710E-02  1.000000E+00  0.000000E+00  1.000000E+00  0.000000E+00
  0.000201475  5.700950E-02 -4.509760E-02  1.006500E+00  1.006820E-01  1.000000E+00  0.000000E+00  1.000000E+00  0.000000E+00
  0.000203950  5.603850E-02 -4.409860E-02  1.006280E+00  1.008130E-01  1.000000E+00  0.000000E+00  1.000000E+00  0.000000E+00
  0.000206425  5.455390E-02 -4.527710E-02  1.006910E+00  1.025680E-01  1.000000E+00  0.000000E+00  1.000000E+00  0.000000E+00
  0.000208900  5.481750E-02 -4.490530E-02  1.005800E+00  1.022690E-01  1.000000E+00  0.000000E+00  1.000000E+00  0.000000E+00
  0.000211375  5.528820E-02 -4.632820E-02  1.003980E+00  1.043700E-01  1.000000E+00  0.000000E+00  1.000000E+00  0.000000E+00
  0.000213850  5.387090E-02 -4.436330E-02  1.006990E+00  1.066760E-01  1.000000E+00  0.000000E+00  1.000000E+00  0.000000E+00
  0.000216325  5.303210E-02 -4.522770E-02  1.006800E+00  1.050520E-01  1.000000E+00  0.000000E+00  1.000000E+00  0.000000E+00
  0.000218800  5.342490E-02 -4.611030E-02  1.003950E+00  1.091610E-01  1.000000E+00  0.000000E+00  1.000000E+00  0.000000E+00
  0.000221275  5.328350E-02 -4.564310E-02  1.005170E+00  1.098960E-01  1.000000E+00  0.000000E+00  1.000000E+00  0.000000E+00
  0.000223750  5.150500E-02 -4.543280E-02  1.004630E+00  1.108460E-01  1.000000E+00  0.000000E+00  1.000000E+00  0.000000E+00
  0.000226225  5.242110E-02 -4.511250E-02  1.006840E+00  1.111480E-01  1.000000E+00  0.000000E+00  1.000000E+00  0.000000E+00
  0.000228700  5.075470E-02 -4.639370E-02  1.005550E+00  1.129650E-01  1.000000E+00  0.000000E+00  1.000000E+00  0.000000E+00
  0.000231175  4.909350E-02 -4.741100E-02  1.005450E+00  1.152700E-01  1.000000E+00  0.000000E+00  1.000000E+00  0.000000E+00
  0.000233650  4.980140E-02 -4.611360E-02  1.004210E+00  1.155370E-01  1.000000E+00  0.000000E+00  1.000000E+00  0.000000E+00
  0.000236125  4.873880E-02 -4.528830E-02  1.004290E+00  1.174850E-01  1.000000E+00  0.000000E+00  1.000000E+00  0.000000E+00
  0.000238600  4.903040E-02 -4.517010E-02  1.003090E+00  1.185920E-01  1.000000E+00  0.000000E+00  1.000000E+00  0.000000E+00
  0.000241075  4.911770E-02 -4.612270E-02  1.006770E+00  1.200600E-01  1.000000E+00  0.000000E+00  1.000000E+00  0.000000E+00
  0.000243550  4.718770E-02 -4.576440E-02  1.002490E+00  1.204180E-01  1.000000E+00  0.000000E+00  1.000000E+00  0.000000E+00
  0.000246025  4.852590E-02 -4.540660E-02  1.005220E+00  1.210690E-01  1.000000E+00  0.000000E+00  1.000000E+00  0.000000E+00
  0.000248500  4.615860E-02 -4.470870E-02  1.004900E+00  1.223570E-01  1.000000E+00  0.000000E+00  1.000000E+00  0.000000E+00
  0.000250975  4.648660E-02 -4.608860E-02  1.003690E+00  1.227380E-01  1.000000E+00  0.000000E+00  1.000000E+00  0.000000E+00
  0.000253450  4.522200E-02 -4.585690E-02  1.004890E+00  1.271510E-01  1.000000E+00  0.000000E+00  1.000000E+00  0.000000E+00
  0.000255925  4.474940E-02 -4.450060E-02  1.004120E+00  1.268880E-01  1.000000E+00  0.000000E+00  1.000000E+00  0.000000E+00
  0.000258400  4.471480E-02 -4.636760E-02  1.004130E+00  1.248010E-01  1.000000E+00  0.000000E+00  1.000000E+00  0.000000E+00
  0.000260875  4.427480E-02 -4.567820E-02  1.003990E+00  1.275800E-01  1.000000E+00  0.000000E+00  1.000000E+00  0.000000E+00
  0.000263350  4.229970E-02 -4.518940E-02  1.003310E+00  1.292630E-01  1.000000E+00  0.000000E+00  1.000000E+00  0.000000E+00
  0.000265825  4.360440E-02 -4.600710E-02  1.003900E+00  1.280520E-01  1.000000E+00  0.000000E+00  1.000000E+00  0.000000E+00
  0.000268300  4.337730E-02 -4.640710E-02  1.007020E+00  1.300310E-01  1.000000E+00  0.000000E+00  1.000000E+00  0.000000E+00
  0.000270775  4.510900E-02 -4.546690E-02  1.003950E+00  1.336650E-01  1.000000E+00  0.000000E+00  1.000000E+00  0.000000E+00
  0.000273250  4.154640E-02 -4.573150E-02  1.002350E+00  1.331120E-01  1.000000E+00  0.000000E+00  1.000000E+00  0.000000E+00
  0.000275725  4.299740E-02 -4.494580E-02  1.003840E+00  1.354450E-01  1.000000E+00  0.000000E+00  1.000000E+00  0.000000E+00
  0.000278200  4.267620E-02 -4.622310E-02  1.002510E+00  1.358600E-01  1.000000E+00  0.000000E+00  1.000000E+00  0.000000E+00
  0.000280675  4.281590E-02 -4.671310E-02  1.001340E+00  1.362540E-01  1.000000E+00  0.000000E+00  1.000000E+00  0.000000E+00
  0.000283150  4.139640E-02 -4.690240E-02  1.002200E+00  1.375280E-01  1.000000E+00  0.000000E+00  1.000000E+00  0.000000E+00
  0.000285625  3.957940E-02 -4.648070E-02  1.004900E+00  1.402570E-01  1.000000E+00  0.000000E+00  1.000000E+00  0.000000E+00
  0.000288100  3.994640E-02 -4.426820E-02  1.003060E+00  1.395770E-01  1.000000E+00  0.000000E+00  1.000000E+00  0.000000E+00
  0.000290575  3.988080E-02 -4.507560E-02  1.002580E+00  1.421640E-01  1.000000E+00  0.000000E+00  1.000000E+00  0.000000E+00
  0.000293050  3.841220E-02 -4.384160E-02  1.000220E+00  1.432250E-01  1.000000E+00  0.000000E+00  1.000000E+00  0.000000E+00
  0.000295525  3.943710E-02 -4.411880E-02  1.002490E+00  1.421450E-01  1.000000E+00  0.000000E+00  1.000000E+00  0.000000E+00
  0.000298000  3.841470E-02 -4.506630E-02  1.004950E+00  1.430710E-01  1.000000E+00  0.000000E+00  1.000000E+00  0.000000E+00
  0.000300475  3.779540E-02 -4.648520E-02  1.000160E+00  1.440570E-01  1.000000E+00  0.000000E+00  1.000000E+00  0.000000E+00
  0.000302950  3.725470E-02 -4.554450E-02  1.001750E+00  1.458700E-01  1.000000E+00  0.000000E+00  1.000000E+00  0.000000E+00
  0.000305425  3.549230E-02 -4.315030E-02  1.001510E+00  1.482600E-01  1.000000E+00  0.000000E+00  1.000000E+00  0.000000E+00
  0.000307900  3.734350E-02 -4.574420E-02  1.001820E+00  1.480470E-01  1.000000E+00  0.000000E+00  1.000000E+00  0.000000E+00
  0.000310375  3.830310E-02 -4.561470E-02  1.000350E+00  1.522160E-01  1.000000E+00  0.000000E+00  1.000000E+00  0.000000E+00
  0.000312850  3.536430E-02 -4.381970E-02  1.002800E+00  1.517740E-01  1.000000E+00  0.000000E+00  1.000000E+00  0.000000E+00
  0.000315325  3.481560E-02 -4.505850E-02  1.000290E+00  1.526740E-01  1.000000E+00  0.000000E+00  1.000000E+00  0.000000E+00
  0.000317800  3.585010E-02 -4.472230E-02  1.002680E+00  1.526260E-01  1.000000E+00  0.000000E+00  1.000000E+00  0.000000E+00
  0.000320275  3.542160E-02 -4.176970E-02  1.001010E+00  1.549940E-01  1.000000E+00  0.000000E+00  1.000000E+00  0.000000E+00
  0.000322750  3.553140E-02 -4.323520E-02  9.990460E-01  1.560100E-01  1.000000E+00  0.000000E+00  1.000000E+00  0.000000E+00
  0.000325225  3.405430E-02 -4.509670E-02  9.989300E-01  1.586110E-01  1.000000E+00  0.000000E+00  1.000000E+00  0.000000E+00
  0.000327700  3.442500E-02 -4.353820E-02  9.999510E-01  1.576680E-01  1.000000E+00  0.000000E+00  1.000000E+00  0.000000E+00
  0.000330175  3.336710E-02 -4.370020E-02  9.992710E-01  1.578570E-01  1.000000E+00  0.000000E+00  1.000000E+00  0.000000E+00
  0.000332650  3.123960E-02 -4.429660E-02  9.996720E-01  1.596900E-01  1.000000E+00  0.000000E+00  1.000000E+00  0.000000E+00
  0.000335125  3.303470E-02 -4.537600E-02  9.995790E-01  1.590290E-01  1.000000E+00  0.000000E+00  1.000000E+00  0.000000E+00
  0.000337600  3.265900E-02 -4.372810E-02  9.991630E-01  1.626420E-01  1.000000E+00  0.000000E+00  1.000000E+00  0.000000E+00
  0.000340075  3.300420E-02 -4.500060E-02  9.983530E-01  1.660350E-01  1.000000E+00  0.000000E+00  1.000000E+00  0.000000E+00
  0.000342550  3.193520E-02 -4.526490E-02  9.976700E-01  1.643920E-01  1.000000E+00  0.000000E+00  1.000000E+00  0.000000E+00
  0.000345025  3.147770E-02 -4.453110E-02  9.979280E-01  1.649890E-01  1.000000E+00  0.000000E+00  1.000000E+00  0.000000E+00
  0.000347500  3.025840E-02 -4.532700E-02  9.950670E-01  1.664350E-01  1.000000E+00  0.000000E+00  1.000000E+00  0.000000E+00
  0.000349975  3.054160E-02 -4.382070E-02  9.988800E-01  1.686560E-01  1.000000E+00  0.000000E+00  1.000000E+00  0.000000E+00
  0.000352450  3.035310E-02 -4.431090E-02  9.995830E-01  1.716780E-01  1.000000E+00  0.000000E+00  1.000000E+00  0.000000E+00
  0.000354925  2.978910E-02 -4.285720E-02  9.987040E-01  1.696530E-01  1.000000E+00  0.000000E+00  1.000000E+00  0.000000E+00
  0.000357400  2.950330E-02 -4.351580E-02  9.999410E-01  1.698620E-01  1.000000E+00  0.000000E+00  1.000000E+00  0.000000E+00
  0.000359875  2.930930E-02 -4.184200E-02  9.985470E-01  1.734700E-01  1.000000E+00  0.000000E+00  1.000000E+00  0.000000E+00
  0.000362350  3.030210E-02 -4.374020E-02  9.990210E-01  1.711850E-01  1.000000E+00  0.000000E+00  1.000000E+00  0.000000E+00
  0.000364825  2.837090E-02 -4.144930E-02  1.000470E+00  1.726570E-01  1.000000E+00  0.000000E+00  1.000000E+00  0.000000E+00
  0.000367300  2.861790E-02 -4.368720E-02  9.974610E-01  1.755100E-01  1.000000E+00  0.000000E+00  1.000000E+00  0.000000E+00
  0.000369775  2.866330E-02 -4.136390E-02  9.976370E-01  1.766400E-01  1.000000E+00  0.000000E+00  1.000000E+00  0.000000E+00
  0.000372250  2.890610E-02 -4.322330E-02  9.971190E-01  1.765450E-01  1.000000E+00  0.000000E+00  1.000000E+00  0.000000E+00
  0.000374725  2.903200E-02 -4.339000E-02  9.973980E-01  1.777580E-01  1.000000E+00  0.000000E+00  1.000000E+00  0.000000E+00
  0.000377200  2.756580E-02 -4.350800E-02  9.966790E-01  1.798380E-01  1.000000E+00  0.000000E+00  1.000000E+00  0.000000E+00
  0.000379675  2.615370E-02 -4.228670E-02  9.952370E-01  1.808900E-01  1.000000E+00  0.000000E+00  1.000000E+00  0.000000E+00
  0.000382150  2.736710E-02 -4.231760E-02  9.965050E-01  1.821440E-01  1.000000E+00  0.000000E+00  1.000000E+00  0.000000E+00
  0.000384625  2.725090E-02 -4.258880E-02  9.967800E-01  1.822980E-01  1.000000E+00  0.000000E+00  1.000000E+00  0.000000E+00
  0.000387100  2.448720E-02 -4.299740E-02  9.953270E-01  1.866070E-01  1.000000E+00  0.000000E+00  1.000000E+00  0.000000E+00
  0.000389575  2.635040E-02 -4.369880E-02  9.950930E-01  1.849350E-01  1.000000E+00  0.000000E+00  1.000000E+00  0.000000E+00
  0.000392050  2.694360E-02 -4.016540E-02  9.955130E-01  1.864950E-01  1.000000E+00  0.000000E+00  1.000000E+00  0.000000E+00
  0.000394525  2.630670E-02 -4.137380E-02  9.951530E-01  1.892570E-01  1.000000E+00  0.000000E+00  1.000000E+00  0.000000E+00
  0.000397000  2.432120E-02 -4.233800E-02  9.932210E-01  1.891840E-01  1.000000E+00  0.000000E+00  1.000000E+00  0.000000E+00
  0.000399475  2.537630E-02 -4.144910E-02  9.948930E-01  1.905610E-01  1.000000E+00  0.000000E+00  1.000000E+00  0.000000E+00
  0.000401950  2.508850E-02 -4.138760E-02  9.946780E-01  1.918740E-01  1.000000E+00  0.000000E+00  1.000000E+00  0.000000E+00
  0.000404425  2.401610E-02 -4.035940E-02  9.951820E-01  1.900680E-01  1.000000E+00  0.000000E+00  1.000000E+00  0.000000E+00
  0.000406900  2.459110E-02 -4.181090E-02  9.914850E-01  1.943220E-01  1.000000E+00  0.000000E+00  1.000000E+00  0.000000E+00
  0.000409375  2.432160E-02 -4.155890E-02  9.935550E-01  1.944240E-01  1.000000E+00  0.000000E+00  1.000000E+00  0.000000E+00
  0.000411850  2.363010E-02 -4.403940E-02  9.926870E-01  1.956020E-01  1.000000E+00  0.000000E+00  1.000000E+00  0.000000E+00
  0.000414325  2.258520E-02 -4.045080E-02  9.931370E-01  1.968770E-01  1.000000E+00  0.000000E+00  1.000000E+00  0.000000E+00
  0.000416800  2.295480E-02 -4.102960E-02  9.948720E-01  1.989010E-01  1.000000E+00  0.000000E+00  1.000000E+00  0.000000E+00
  0.000419275  2.140140E-02 -4.097980E-02  9.926830E-01  1.976600E-01  1.000000E+00  0.000000E+00  1.000000E+00  0.000000E+00
  0.000421750  2.335050E-02 -4.087330E-02  9.915640E-01  2.011230E-01  1.000000E+00  0.000000E+00  1.000000E+00  0.000000E+00
  0.000424225  2.339310E-02 -4.121150E-02  9.923040E-01  2.003960E-01  1.000000E+00  0.000000E+00  1.000000E+00  0.000000E+00
  0.000426700  2.174160E-02 -4.064740E-02  9.942500E-01  2.024120E-01  1.000000E+00  0.000000E+00  1.000000E+00  0.000000E+00
  0.000429175  2.040580E-02 -4.091720E-02  9.946320E-01  2.038290E-01  1.000000E+00  0.000000E+00  1.000000E+00  0.000000E+00
  0.000431650  2.126230E-02 -4.088530E-02  9.913810E-01  2.063880E-01  1.000000E+00  0.000000E+00  1.000000E+00  0.000000E+00
  0.000434125  2.177840E-02 -4.057810E-02  9.916270E-01  2.053660E-01  1.000000E+00  0.000000E+00  1.000000E+00  0.000000E+00
  0.000436600  2.051910E-02 -4.019940E-02  9.922790E-01  2.087530E-01  1.000000E+00  0.000000E+00  1.000000E+00  0.000000E+00
  0.000439075  2.199360E-02 -3.894750E-02  9.916040E-01  2.086060E-01  1.000000E+00  0.000000E+00  1.000000E+00  0.000000E+00
  0.000441550  1.996100E-02 -3.890500E-02  9.915900E-01  2.087810E-01  1.000000E+00  0.000000E+00  1.000000E+00  0.000000E+00
  0.000444025  1.852770E-02 -3.983790E-02  9.927540E-01  2.082630E-01  1.000000E+00  0.000000E+00  1.000000E+00  0.000000E+00
  0.000446500  1.990060E-02 -3.932040E-02  9.914270E-01  2.125590E-01  1.000000E+00  0.000000E+00  1.000000E+00  0.000000E+00
  0.000448975  2.016110E-02 -3.981330E-02  9.907210E-01  2.133280E-01  1.000000E+00  0.000000E+00  1.000000E+00  0.000000E+00
  0.000451450  1.977760E-02 -4.086360E-02  9.930360E-01  2.126190E-01  1.000000E+00  0.000000E+00  1.000000E+00  0.000000E+00
  0.000453925  1.924830E-02 -3.973520E-02  9.889510E-01  2.149820E-01  1.000000E+00  0.000000E+00  1.000000E+00  0.000000E+00
