! Anritsu VNA Master:                        Model: MS2026C/19
! SN:                                  1815009
! /card0/usr/20180209_39.s2p
! Existing Calibration Information:
! TYPE:                         Current Settings,       Active Cal Settings
! TIME:             	   09/02/2018 11:13:08 PM,    09/02/2018 11:58:48 AM
! INTERNAL TEMP:    	                   52.8 C,                    48.8 C
! # POINTS:         	                     4001,                      4001
! START FREQ:       	              100.000 kHz,               100.000 kHz
! STOP FREQ:        	               10.000 MHz,                10.000 MHz
! SOURCE POWER:     	                      Low,                       Low
! IFBW:             	                   500 Hz,                    500 Hz
! AVG FACTOR:       	                       1 ,                        1 
! REF PLANE 1:      	                     0 mm,                      0 mm
! REF PLANE 2:      	                     0 mm,                      0 mm
! CAL TYPE:         	             1P2P S11,S21,              1P2P S11,S21
! CAL METHOD:       	                     SOLT,                      SOLT
! CAL LINE TYPE:    	                     Coax,                      Coax
! DUT PORT 1:       	                N-Conn(M),                 N-Conn(M)
! DUT PORT 2:       	                N-Conn(M),                 N-Conn(M)
! CAL STATUS:       	        OK: Accuracy High,                        --
# GHZ S RI R 50.0
! FREQ.GHZ      S11RE         S11IM         S21RE         S21IM         S12RE         S12IM         S22RE         S22IM
  0.000100000  7.425600E-03 -6.192820E-02 -4.577360E-02 -9.401840E-02  1.000000E+00  0.000000E+00  1.000000E+00  0.000000E+00
  0.000102475  9.010740E-03 -5.905460E-02 -4.812640E-02 -9.277900E-02  1.000000E+00  0.000000E+00  1.000000E+00  0.000000E+00
  0.000104950  9.068310E-03 -5.752040E-02 -5.131600E-02 -9.160670E-02  1.000000E+00  0.000000E+00  1.000000E+00  0.000000E+00
  0.000107425  1.069140E-02 -5.429700E-02 -5.418120E-02 -9.040720E-02  1.000000E+00  0.000000E+00  1.000000E+00  0.000000E+00
  0.000109900  1.189670E-02 -5.273880E-02 -5.734980E-02 -8.797820E-02  1.000000E+00  0.000000E+00  1.000000E+00  0.000000E+00
  0.000112375  1.268110E-02 -5.093740E-02 -6.031910E-02 -8.611960E-02  1.000000E+00  0.000000E+00  1.000000E+00  0.000000E+00
  0.000114850  1.421000E-02 -5.002060E-02 -6.165210E-02 -8.448800E-02  1.000000E+00  0.000000E+00  1.000000E+00  0.000000E+00
  0.000117325  1.592430E-02 -4.789130E-02 -6.370490E-02 -8.176860E-02  1.000000E+00  0.000000E+00  1.000000E+00  0.000000E+00
  0.000119800  1.579440E-02 -4.563590E-02 -6.493290E-02 -8.153300E-02  1.000000E+00  0.000000E+00  1.000000E+00  0.000000E+00
  0.000122275  1.570790E-02 -4.357760E-02 -6.830040E-02 -7.945450E-02  1.000000E+00  0.000000E+00  1.000000E+00  0.000000E+00
  0.000124750  1.801360E-02 -4.405910E-02 -7.065050E-02 -7.882750E-02  1.000000E+00  0.000000E+00  1.000000E+00  0.000000E+00
  0.000127225  1.709760E-02 -4.210160E-02 -7.169330E-02 -7.780510E-02  1.000000E+00  0.000000E+00  1.000000E+00  0.000000E+00
  0.000129700  1.963910E-02 -3.898600E-02 -7.348170E-02 -7.555820E-02  1.000000E+00  0.000000E+00  1.000000E+00  0.000000E+00
  0.000132175  2.038820E-02 -3.908300E-02 -7.495940E-02 -7.338750E-02  1.000000E+00  0.000000E+00  1.000000E+00  0.000000E+00
  0.000134650  2.135390E-02 -3.908450E-02 -7.687890E-02 -7.215420E-02  1.000000E+00  0.000000E+00  1.000000E+00  0.000000E+00
  0.000137125  2.075570E-02 -3.752220E-02 -7.739270E-02 -7.088600E-02  1.000000E+00  0.000000E+00  1.000000E+00  0.000000E+00
  0.000139600  2.172570E-02 -3.644550E-02 -7.925960E-02 -6.875750E-02  1.000000E+00  0.000000E+00  1.000000E+00  0.000000E+00
  0.000142075  2.392150E-02 -3.631110E-02 -8.036590E-02 -6.707050E-02  1.000000E+00  0.000000E+00  1.000000E+00  0.000000E+00
  0.000144550  2.382820E-02 -3.374440E-02 -8.192370E-02 -6.675150E-02  1.000000E+00  0.000000E+00  1.000000E+00  0.000000E+00
  0.000147025  2.447050E-02 -3.306960E-02 -8.206430E-02 -6.517670E-02  1.000000E+00  0.000000E+00  1.000000E+00  0.000000E+00
  0.000149500  2.531620E-02 -3.225400E-02 -8.382710E-02 -6.371300E-02  1.000000E+00  0.000000E+00  1.000000E+00  0.000000E+00
  0.000151975  2.658680E-02 -3.314430E-02 -8.430730E-02 -6.275800E-02  1.000000E+00  0.000000E+00  1.000000E+00  0.000000E+00
  0.000154450  2.666370E-02 -2.985460E-02 -8.612500E-02 -6.048080E-02  1.000000E+00  0.000000E+00  1.000000E+00  0.000000E+00
  0.000156925  2.684720E-02 -3.006980E-02 -8.502890E-02 -5.897130E-02  1.000000E+00  0.000000E+00  1.000000E+00  0.000000E+00
  0.000159400  2.600750E-02 -2.939970E-02 -8.764020E-02 -5.810330E-02  1.000000E+00  0.000000E+00  1.000000E+00  0.000000E+00
  0.000161875  2.865450E-02 -2.932840E-02 -8.939830E-02 -5.685650E-02  1.000000E+00  0.000000E+00  1.000000E+00  0.000000E+00
  0.000164350  2.762840E-02 -2.964270E-02 -8.863810E-02 -5.608440E-02  1.000000E+00  0.000000E+00  1.000000E+00  0.000000E+00
  0.000166825  2.842520E-02 -2.757890E-02 -8.989030E-02 -5.456400E-02  1.000000E+00  0.000000E+00  1.000000E+00  0.000000E+00
  0.000169300  2.865870E-02 -2.565520E-02 -9.007380E-02 -5.392610E-02  1.000000E+00  0.000000E+00  1.000000E+00  0.000000E+00
  0.000171775  3.018860E-02 -2.643330E-02 -9.185530E-02 -5.234410E-02  1.000000E+00  0.000000E+00  1.000000E+00  0.000000E+00
  0.000174250  3.068220E-02 -2.607600E-02 -9.095420E-02 -5.007270E-02  1.000000E+00  0.000000E+00  1.000000E+00  0.000000E+00
  0.000176725  3.018770E-02 -2.589970E-02 -9.242350E-02 -5.092570E-02  1.000000E+00  0.000000E+00  1.000000E+00  0.000000E+00
  0.000179200  3.060300E-02 -2.548380E-02 -9.172090E-02 -4.882730E-02  1.000000E+00  0.000000E+00  1.000000E+00  0.000000E+00
  0.000181675  2.990400E-02 -2.509180E-02 -9.460920E-02 -4.816510E-02  1.000000E+00  0.000000E+00  1.000000E+00  0.000000E+00
  0.000184150  3.303330E-02 -2.465020E-02 -9.391460E-02 -4.633580E-02  1.000000E+00  0.000000E+00  1.000000E+00  0.000000E+00
  0.000186625  3.222920E-02 -2.204970E-02 -9.437580E-02 -4.618270E-02  1.000000E+00  0.000000E+00  1.000000E+00  0.000000E+00
  0.000189100  3.159300E-02 -2.335540E-02 -9.578380E-02 -4.379160E-02  1.000000E+00  0.000000E+00  1.000000E+00  0.000000E+00
  0.000191575  3.183080E-02 -2.317020E-02 -9.538650E-02 -4.425570E-02  1.000000E+00  0.000000E+00  1.000000E+00  0.000000E+00
  0.000194050  3.155200E-02 -2.217870E-02 -9.747420E-02 -4.299720E-02  1.000000E+00  0.000000E+00  1.000000E+00  0.000000E+00
  0.000196525  3.308270E-02 -2.309660E-02 -9.603430E-02 -4.071340E-02  1.000000E+00  0.000000E+00  1.000000E+00  0.000000E+00
  0.000199000  3.402900E-02 -2.180120E-02 -9.589580E-02 -3.991850E-02  1.000000E+00  0.000000E+00  1.000000E+00  0.000000E+00
  0.000201475  3.396520E-02 -2.204590E-02 -9.819150E-02 -3.973700E-02  1.000000E+00  0.000000E+00  1.000000E+00  0.000000E+00
  0.000203950  3.432460E-02 -2.176470E-02 -9.838200E-02 -3.751760E-02  1.000000E+00  0.000000E+00  1.000000E+00  0.000000E+00
  0.000206425  3.353940E-02 -2.082180E-02 -9.721030E-02 -3.775950E-02  1.000000E+00  0.000000E+00  1.000000E+00  0.000000E+00
  0.000208900  3.323250E-02 -2.166320E-02 -9.821220E-02 -3.681930E-02  1.000000E+00  0.000000E+00  1.000000E+00  0.000000E+00
  0.000211375  3.440450E-02 -2.075690E-02 -9.841760E-02 -3.453910E-02  1.000000E+00  0.000000E+00  1.000000E+00  0.000000E+00
  0.000213850  3.487010E-02 -1.956770E-02 -9.989940E-02 -3.436650E-02  1.000000E+00  0.000000E+00  1.000000E+00  0.000000E+00
  0.000216325  3.476450E-02 -2.032590E-02 -9.959500E-02 -3.373980E-02  1.000000E+00  0.000000E+00  1.000000E+00  0.000000E+00
  0.000218800  3.410400E-02 -2.018530E-02 -9.856700E-02 -3.292720E-02  1.000000E+00  0.000000E+00  1.000000E+00  0.000000E+00
  0.000221275  3.671740E-02 -1.822120E-02 -9.948550E-02 -3.108390E-02  1.000000E+00  0.000000E+00  1.000000E+00  0.000000E+00
  0.000223750  3.553070E-02 -1.902810E-02 -1.001300E-01 -3.073390E-02  1.000000E+00  0.000000E+00  1.000000E+00  0.000000E+00
  0.000226225  3.619660E-02 -1.918470E-02 -1.003020E-01 -2.964120E-02  1.000000E+00  0.000000E+00  1.000000E+00  0.000000E+00
  0.000228700  3.551570E-02 -1.952000E-02 -1.008270E-01 -2.891200E-02  1.000000E+00  0.000000E+00  1.000000E+00  0.000000E+00
  0.000231175  3.594120E-02 -1.803780E-02 -1.002410E-01 -2.837050E-02  1.000000E+00  0.000000E+00  1.000000E+00  0.000000E+00
  0.000233650  3.652800E-02 -1.878430E-02 -1.012870E-01 -2.764690E-02  1.000000E+00  0.000000E+00  1.000000E+00  0.000000E+00
  0.000236125  3.575020E-02 -1.704380E-02 -1.026450E-01 -2.697050E-02  1.000000E+00  0.000000E+00  1.000000E+00  0.000000E+00
  0.000238600  3.521520E-02 -1.709380E-02 -1.008900E-01 -2.529300E-02  1.000000E+00  0.000000E+00  1.000000E+00  0.000000E+00
  0.000241075  3.596270E-02 -1.678290E-02 -1.019640E-01 -2.531570E-02  1.000000E+00  0.000000E+00  1.000000E+00  0.000000E+00
  0.000243550  3.659320E-02 -1.655390E-02 -1.013530E-01 -2.492820E-02  1.000000E+00  0.000000E+00  1.000000E+00  0.000000E+00
  0.000246025  3.702410E-02 -1.754540E-02 -1.017430E-01 -2.331110E-02  1.000000E+00  0.000000E+00  1.000000E+00  0.000000E+00
  0.000248500  3.614060E-02 -1.611300E-02 -1.028780E-01 -2.190630E-02  1.000000E+00  0.000000E+00  1.000000E+00  0.000000E+00
  0.000250975  3.602470E-02 -1.868950E-02 -1.022370E-01 -2.121010E-02  1.000000E+00  0.000000E+00  1.000000E+00  0.000000E+00
  0.000253450  3.639460E-02 -1.635290E-02 -1.014640E-01 -2.164720E-02  1.000000E+00  0.000000E+00  1.000000E+00  0.000000E+00
  0.000255925  3.645140E-02 -1.559980E-02 -1.022120E-01 -1.958540E-02  1.000000E+00  0.000000E+00  1.000000E+00  0.000000E+00
  0.000258400  3.935540E-02 -1.639880E-02 -1.006270E-01 -1.982090E-02  1.000000E+00  0.000000E+00  1.000000E+00  0.000000E+00
  0.000260875  3.699960E-02 -1.435260E-02 -1.011140E-01 -1.794770E-02  1.000000E+00  0.000000E+00  1.000000E+00  0.000000E+00
  0.000263350  3.709890E-02 -1.395220E-02 -1.036520E-01 -1.896630E-02  1.000000E+00  0.000000E+00  1.000000E+00  0.000000E+00
  0.000265825  3.803950E-02 -1.460740E-02 -1.024510E-01 -1.793060E-02  1.000000E+00  0.000000E+00  1.000000E+00  0.000000E+00
  0.000268300  3.784350E-02 -1.611020E-02 -1.039960E-01 -1.567230E-02  1.000000E+00  0.000000E+00  1.000000E+00  0.000000E+00
  0.000270775  3.869950E-02 -1.494000E-02 -1.020280E-01 -1.583070E-02  1.000000E+00  0.000000E+00  1.000000E+00  0.000000E+00
  0.000273250  3.767770E-02 -1.395850E-02 -1.016080E-01 -1.486060E-02  1.000000E+00  0.000000E+00  1.000000E+00  0.000000E+00
  0.000275725  3.823520E-02 -1.461840E-02 -1.040110E-01 -1.452640E-02  1.000000E+00  0.000000E+00  1.000000E+00  0.000000E+00
  0.000278200  3.858580E-02 -1.408520E-02 -1.037620E-01 -1.405280E-02  1.000000E+00  0.000000E+00  1.000000E+00  0.000000E+00
  0.000280675  3.791470E-02 -1.354430E-02 -1.026850E-01 -1.226300E-02  1.000000E+00  0.000000E+00  1.000000E+00  0.000000E+00
  0.000283150  3.903140E-02 -1.437420E-02 -1.040160E-01 -1.299990E-02  1.000000E+00  0.000000E+00  1.000000E+00  0.000000E+00
  0.000285625  3.845060E-02 -1.311320E-02 -1.040590E-01 -1.233020E-02  1.000000E+00  0.000000E+00  1.000000E+00  0.000000E+00
  0.000288100  3.865770E-02 -1.456700E-02 -1.023440E-01 -1.047500E-02  1.000000E+00  0.000000E+00  1.000000E+00  0.000000E+00
  0.000290575  3.830040E-02 -1.193070E-02 -1.042100E-01 -1.170050E-02  1.000000E+00  0.000000E+00  1.000000E+00  0.000000E+00
  0.000293050  3.926770E-02 -1.271990E-02 -1.038230E-01 -1.122160E-02  1.000000E+00  0.000000E+00  1.000000E+00  0.000000E+00
  0.000295525  3.929310E-02 -1.116290E-02 -1.025830E-01 -9.752710E-03  1.000000E+00  0.000000E+00  1.000000E+00  0.000000E+00
  0.000298000  3.833320E-02 -1.390110E-02 -1.031770E-01 -7.721630E-03  1.000000E+00  0.000000E+00  1.000000E+00  0.000000E+00
  0.000300475  3.980080E-02 -1.321910E-02 -1.044610E-01 -7.487910E-03  1.000000E+00  0.000000E+00  1.000000E+00  0.000000E+00
  0.000302950  3.851840E-02 -1.194290E-02 -1.023620E-01 -7.751650E-03  1.000000E+00  0.000000E+00  1.000000E+00  0.000000E+00
  0.000305425  3.919000E-02 -1.210500E-02 -1.045770E-01 -7.578550E-03  1.000000E+00  0.000000E+00  1.000000E+00  0.000000E+00
  0.000307900  3.955730E-02 -1.066660E-02 -1.024740E-01 -6.795980E-03  1.000000E+00  0.000000E+00  1.000000E+00  0.000000E+00
  0.000310375  4.054880E-02 -1.235220E-02 -1.040740E-01 -5.342950E-03  1.000000E+00  0.000000E+00  1.000000E+00  0.000000E+00
  0.000312850  4.042120E-02 -1.249260E-02 -1.032140E-01 -4.652200E-03  1.000000E+00  0.000000E+00  1.000000E+00  0.000000E+00
  0.000315325  3.888240E-02 -1.288480E-02 -1.027300E-01 -5.708420E-03  1.000000E+00  0.000000E+00  1.000000E+00  0.000000E+00
  0.000317800  4.153660E-02 -1.126040E-02 -1.051500E-01 -3.496290E-03  1.000000E+00  0.000000E+00  1.000000E+00  0.000000E+00
  0.000320275  4.051110E-02 -1.083030E-02 -1.054850E-01 -2.890280E-03  1.000000E+00  0.000000E+00  1.000000E+00  0.000000E+00
  0.000322750  3.884900E-02 -1.053080E-02 -1.028530E-01 -3.672330E-03  1.000000E+00  0.000000E+00  1.000000E+00  0.000000E+00
  0.000325225  3.927420E-02 -1.079330E-02 -1.022960E-01 -1.906260E-03  1.000000E+00  0.000000E+00  1.000000E+00  0.000000E+00
  0.000327700  4.080650E-02 -1.075550E-02 -1.026230E-01 -1.000430E-03  1.000000E+00  0.000000E+00  1.000000E+00  0.000000E+00
  0.000330175  4.008740E-02 -1.185440E-02 -1.035760E-01 -4.954650E-04  1.000000E+00  0.000000E+00  1.000000E+00  0.000000E+00
  0.000332650  3.952520E-02 -1.143640E-02 -1.045590E-01 -1.076050E-04  1.000000E+00  0.000000E+00  1.000000E+00  0.000000E+00
  0.000335125  4.048960E-02 -1.063460E-02 -1.038570E-01  1.251630E-04  1.000000E+00  0.000000E+00  1.000000E+00  0.000000E+00
  0.000337600  3.989300E-02 -8.253650E-03 -1.039590E-01 -9.375830E-05  1.000000E+00  0.000000E+00  1.000000E+00  0.000000E+00
  0.000340075  4.235370E-02 -1.204520E-02 -1.037380E-01  1.547820E-03  1.000000E+00  0.000000E+00  1.000000E+00  0.000000E+00
  0.000342550  4.204610E-02 -9.488100E-03 -1.049580E-01  3.666930E-03  1.000000E+00  0.000000E+00  1.000000E+00  0.000000E+00
  0.000345025  4.161060E-02 -1.055940E-02 -1.022580E-01  1.933570E-03  1.000000E+00  0.000000E+00  1.000000E+00  0.000000E+00
  0.000347500  4.151490E-02 -1.088540E-02 -1.036610E-01  3.428470E-03  1.000000E+00  0.000000E+00  1.000000E+00  0.000000E+00
  0.000349975  4.175840E-02 -9.649930E-03 -1.044120E-01  3.714630E-03  1.000000E+00  0.000000E+00  1.000000E+00  0.000000E+00
  0.000352450  4.304620E-02 -1.039110E-02 -1.066610E-01  6.581910E-03  1.000000E+00  0.000000E+00  1.000000E+00  0.000000E+00
  0.000354925  4.281100E-02 -8.915340E-03 -1.051230E-01  6.198600E-03  1.000000E+00  0.000000E+00  1.000000E+00  0.000000E+00
  0.000357400  4.108010E-02 -7.969680E-03 -1.041080E-01  6.468060E-03  1.000000E+00  0.000000E+00  1.000000E+00  0.000000E+00
  0.000359875  4.191970E-02 -9.875610E-03 -1.029280E-01  6.342380E-03  1.000000E+00  0.000000E+00  1.000000E+00  0.000000E+00
  0.000362350  4.192160E-02 -9.575610E-03 -1.043660E-01  9.432870E-03  1.000000E+00  0.000000E+00  1.000000E+00  0.000000E+00
  0.000364825  4.272520E-02 -8.847650E-03 -1.044480E-01  1.180120E-02  1.000000E+00  0.000000E+00  1.000000E+00  0.000000E+00
  0.000367300  4.311120E-02 -1.106070E-02 -1.041090E-01  8.537020E-03  1.000000E+00  0.000000E+00  1.000000E+00  0.000000E+00
  0.000369775  4.184990E-02 -9.097660E-03 -1.055500E-01  9.638190E-03  1.000000E+00  0.000000E+00  1.000000E+00  0.000000E+00
  0.000372250  4.128590E-02 -9.427890E-03 -1.044950E-01  1.143360E-02  1.000000E+00  0.000000E+00  1.000000E+00  0.000000E+00
  0.000374725  4.165080E-02 -1.076110E-02 -9.985320E-02  1.748610E-02  1.000000E+00  0.000000E+00  1.000000E+00  0.000000E+00
  0.000377200  4.283970E-02 -9.860990E-03 -1.028330E-01  1.352520E-02  1.000000E+00  0.000000E+00  1.000000E+00  0.000000E+00
  0.000379675  4.314810E-02 -1.105800E-02 -1.041770E-01  1.282260E-02  1.000000E+00  0.000000E+00  1.000000E+00  0.000000E+00
  0.000382150  4.182960E-02 -1.065200E-02 -1.019200E-01  1.366970E-02  1.000000E+00  0.000000E+00  1.000000E+00  0.000000E+00
  0.000384625  4.251000E-02 -1.017250E-02 -9.716990E-02  1.782830E-02  1.000000E+00  0.000000E+00  1.000000E+00  0.000000E+00
  0.000387100  4.191400E-02 -1.071590E-02 -1.013820E-01  1.754320E-02  1.000000E+00  0.000000E+00  1.000000E+00  0.000000E+00
  0.000389575  4.249860E-02 -7.864970E-03 -1.008450E-01  1.757490E-02  1.000000E+00  0.000000E+00  1.000000E+00  0.000000E+00
  0.000392050  4.207940E-02 -8.066870E-03 -1.011560E-01  1.700160E-02  1.000000E+00  0.000000E+00  1.000000E+00  0.000000E+00
  0.000394525  4.274890E-02 -9.876450E-03 -9.107470E-02  1.677710E-02  1.000000E+00  0.000000E+00  1.000000E+00  0.000000E+00
  0.000397000  4.254850E-02 -9.020350E-03 -9.305050E-02  1.781560E-02  1.000000E+00  0.000000E+00  1.000000E+00  0.000000E+00
  0.000399475  4.364330E-02 -8.606500E-03 -9.306440E-02  1.950690E-02  1.000000E+00  0.000000E+00  1.000000E+00  0.000000E+00
  0.000401950  4.250550E-02 -9.244380E-03 -9.752490E-02  1.981740E-02  1.000000E+00  0.000000E+00  1.000000E+00  0.000000E+00
  0.000404425  4.317110E-02 -8.873700E-03 -9.082130E-02  1.807280E-02  1.000000E+00  0.000000E+00  1.000000E+00  0.000000E+00
  0.000406900  4.306690E-02 -9.038270E-03 -9.065670E-02  1.367630E-02  1.000000E+00  0.000000E+00  1.000000E+00  0.000000E+00
  0.000409375  4.194910E-02 -9.704780E-03 -9.197600E-02  1.748190E-02  1.000000E+00  0.000000E+00  1.000000E+00  0.000000E+00
  0.000411850  4.213160E-02 -1.064600E-02 -9.033270E-02  1.830500E-02  1.000000E+00  0.000000E+00  1.000000E+00  0.000000E+00
  0.000414325  4.341820E-02 -9.238450E-03 -9.137900E-02  1.412590E-02  1.000000E+00  0.000000E+00  1.000000E+00  0.000000E+00
  0.000416800  4.096760E-02 -7.560800E-03 -9.155900E-02  9.197850E-03  1.000000E+00  0.000000E+00  1.000000E+00  0.000000E+00
  0.000419275  4.351570E-02 -9.766400E-03 -8.969790E-02  1.412620E-02  1.000000E+00  0.000000E+00  1.000000E+00  0.000000E+00
  0.000421750  4.387890E-02 -9.610980E-03 -9.133090E-02  1.068550E-02  1.000000E+00  0.000000E+00  1.000000E+00  0.000000E+00
  0.000424225  4.482950E-02 -9.309190E-03 -9.283840E-02  1.423830E-02  1.000000E+00  0.000000E+00  1.000000E+00  0.000000E+00
  0.000426700  4.326340E-02 -9.397890E-03 -9.318060E-02  1.136000E-02  1.000000E+00  0.000000E+00  1.000000E+00  0.000000E+00
  0.000429175  4.343390E-02 -1.080370E-02 -9.445250E-02  1.144220E-02  1.000000E+00  0.000000E+00  1.000000E+00  0.000000E+00
  0.000431650  4.310080E-02 -8.942580E-03 -9.377310E-02  1.383490E-02  1.000000E+00  0.000000E+00  1.000000E+00  0.000000E+00
  0.000434125  4.462830E-02 -8.624350E-03 -9.217560E-02  1.258640E-02  1.000000E+00  0.000000E+00  1.000000E+00  0.000000E+00
  0.000436600  4.191790E-02 -9.577850E-03 -9.577730E-02  1.300230E-02  1.000000E+00  0.000000E+00  1.000000E+00  0.000000E+00
  0.000439075  4.337980E-02 -9.205020E-03 -9.725830E-02  1.392170E-02  1.000000E+00  0.000000E+00  1.000000E+00  0.000000E+00
  0.000441550  4.442000E-02 -7.997500E-03 -9.607100E-02  1.501890E-02  1.000000E+00  0.000000E+00  1.000000E+00  0.000000E+00
  0.000444025  4.359790E-02 -7.703760E-03 -9.645900E-02  1.534290E-02  1.000000E+00  0.000000E+00  1.000000E+00  0.000000E+00
  0.000446500  4.100890E-02 -9.908160E-03 -9.659920E-02  1.692270E-02  1.000000E+00  0.000000E+00  1.000000E+00  0.000000E+00
  0.000448975  4.283450E-02 -8.200150E-03 -9.709180E-02  1.652380E-02  1.000000E+00  0.000000E+00  1.000000E+00  0.000000E+00
  0.000451450  4.276640E-02 -9.497000E-03 -9.721660E-02  1.612710E-02  1.000000E+00  0.000000E+00  1.000000E+00  0.000000E+00
  0.000453925  4.378860E-02 -8.582610E-03 -9.712830E-02  1.770810E-02  1.000000E+00  0.000000E+00  1.000000E+00  0.000000E+00
