! Anritsu VNA Master:                        Model: MS2026C/19
! SN:                                  1815009
! /card0/usr/20180902_25.s2p
! Existing Calibration Information:
! TYPE:                         Current Settings,       Active Cal Settings
! TIME:             	   09/02/2018 06:07:02 PM,    09/02/2018 11:58:48 AM
! INTERNAL TEMP:    	                   46.8 C,                    48.8 C
! # POINTS:         	                     4001,                      4001
! START FREQ:       	              100.000 kHz,               100.000 kHz
! STOP FREQ:        	               10.000 MHz,                10.000 MHz
! SOURCE POWER:     	                      Low,                       Low
! IFBW:             	                   500 Hz,                    500 Hz
! AVG FACTOR:       	                       1 ,                        1 
! REF PLANE 1:      	                     0 mm,                      0 mm
! REF PLANE 2:      	                     0 mm,                      0 mm
! CAL TYPE:         	             1P2P S11,S21,              1P2P S11,S21
! CAL METHOD:       	                     SOLT,                      SOLT
! CAL LINE TYPE:    	                     Coax,                      Coax
! DUT PORT 1:       	                N-Conn(M),                 N-Conn(M)
! DUT PORT 2:       	                N-Conn(M),                 N-Conn(M)
! CAL STATUS:       	        OK: Accuracy High,                        --
# GHZ S RI R 50.0
! FREQ.GHZ      S11RE         S11IM         S21RE         S21IM         S12RE         S12IM         S22RE         S22IM
  0.000100000  7.584150E-03 -6.061380E-02  6.380100E-04 -1.219210E-03  1.000000E+00  0.000000E+00  1.000000E+00  0.000000E+00
  0.000102475  1.118540E-02 -5.844870E-02  1.034420E-03 -2.045410E-03  1.000000E+00  0.000000E+00  1.000000E+00  0.000000E+00
  0.000104950  9.888360E-03 -5.610150E-02  6.451000E-04 -7.540920E-04  1.000000E+00  0.000000E+00  1.000000E+00  0.000000E+00
  0.000107425  1.186260E-02 -5.543600E-02 -1.325680E-03 -1.986240E-03  1.000000E+00  0.000000E+00  1.000000E+00  0.000000E+00
  0.000109900  1.307050E-02 -5.294240E-02  6.641460E-05 -1.059290E-03  1.000000E+00  0.000000E+00  1.000000E+00  0.000000E+00
  0.000112375  1.367360E-02 -5.133520E-02 -9.407520E-04 -9.436460E-04  1.000000E+00  0.000000E+00  1.000000E+00  0.000000E+00
  0.000114850  1.518590E-02 -4.939150E-02  1.110200E-04 -1.379330E-03  1.000000E+00  0.000000E+00  1.000000E+00  0.000000E+00
  0.000117325  1.675310E-02 -4.929520E-02  5.858820E-04 -3.567850E-04  1.000000E+00  0.000000E+00  1.000000E+00  0.000000E+00
  0.000119800  1.593280E-02 -4.690750E-02 -1.087040E-03 -1.171190E-03  1.000000E+00  0.000000E+00  1.000000E+00  0.000000E+00
  0.000122275  1.766400E-02 -4.412980E-02 -1.388160E-03  1.139570E-04  1.000000E+00  0.000000E+00  1.000000E+00  0.000000E+00
  0.000124750  1.818660E-02 -4.349710E-02 -5.554150E-04 -1.369090E-03  1.000000E+00  0.000000E+00  1.000000E+00  0.000000E+00
  0.000127225  1.823560E-02 -4.148330E-02  4.697090E-04 -5.880000E-04  1.000000E+00  0.000000E+00  1.000000E+00  0.000000E+00
  0.000129700  1.895050E-02 -3.970300E-02 -8.424570E-04 -5.619970E-04  1.000000E+00  0.000000E+00  1.000000E+00  0.000000E+00
  0.000132175  2.118280E-02 -4.026980E-02 -1.629820E-04 -9.151820E-04  1.000000E+00  0.000000E+00  1.000000E+00  0.000000E+00
  0.000134650  2.115440E-02 -3.932580E-02 -3.346420E-04 -1.232360E-03  1.000000E+00  0.000000E+00  1.000000E+00  0.000000E+00
  0.000137125  2.059670E-02 -3.812230E-02 -3.677050E-04 -1.895250E-03  1.000000E+00  0.000000E+00  1.000000E+00  0.000000E+00
  0.000139600  2.254430E-02 -3.617720E-02 -7.970190E-05 -1.483890E-03  1.000000E+00  0.000000E+00  1.000000E+00  0.000000E+00
  0.000142075  2.251010E-02 -3.604050E-02 -7.886540E-04 -6.716180E-06  1.000000E+00  0.000000E+00  1.000000E+00  0.000000E+00
  0.000144550  2.407450E-02 -3.530910E-02 -3.615390E-04 -4.815230E-04  1.000000E+00  0.000000E+00  1.000000E+00  0.000000E+00
  0.000147025  2.440590E-02 -3.350550E-02 -9.493260E-05  3.560430E-04  1.000000E+00  0.000000E+00  1.000000E+00  0.000000E+00
  0.000149500  2.468190E-02 -3.337320E-02 -5.258880E-04 -8.700180E-04  1.000000E+00  0.000000E+00  1.000000E+00  0.000000E+00
  0.000151975  2.443330E-02 -3.340840E-02 -1.595520E-04  5.477400E-04  1.000000E+00  0.000000E+00  1.000000E+00  0.000000E+00
  0.000154450  2.457030E-02 -3.072450E-02  2.039480E-04 -2.078070E-03  1.000000E+00  0.000000E+00  1.000000E+00  0.000000E+00
  0.000156925  2.604660E-02 -3.060470E-02 -1.501680E-03 -8.120470E-04  1.000000E+00  0.000000E+00  1.000000E+00  0.000000E+00
  0.000159400  2.502820E-02 -3.077490E-02  1.286030E-04 -1.588270E-03  1.000000E+00  0.000000E+00  1.000000E+00  0.000000E+00
  0.000161875  2.648820E-02 -3.058260E-02 -3.224630E-04 -2.745750E-05  1.000000E+00  0.000000E+00  1.000000E+00  0.000000E+00
  0.000164350  2.790410E-02 -2.964640E-02  5.772710E-04 -7.390950E-04  1.000000E+00  0.000000E+00  1.000000E+00  0.000000E+00
  0.000166825  2.869320E-02 -2.901770E-02 -3.224180E-04 -1.113900E-03  1.000000E+00  0.000000E+00  1.000000E+00  0.000000E+00
  0.000169300  2.738060E-02 -2.920330E-02 -1.303210E-03 -8.238520E-05  1.000000E+00  0.000000E+00  1.000000E+00  0.000000E+00
  0.000171775  2.935380E-02 -2.599940E-02  5.929960E-04  8.283180E-05  1.000000E+00  0.000000E+00  1.000000E+00  0.000000E+00
  0.000174250  2.722020E-02 -2.751900E-02  1.794580E-04 -3.490020E-05  1.000000E+00  0.000000E+00  1.000000E+00  0.000000E+00
  0.000176725  2.968640E-02 -2.639160E-02  7.548960E-04 -9.194520E-04  1.000000E+00  0.000000E+00  1.000000E+00  0.000000E+00
  0.000179200  2.828050E-02 -2.559740E-02 -1.856230E-04 -4.375300E-04  1.000000E+00  0.000000E+00  1.000000E+00  0.000000E+00
  0.000181675  2.843700E-02 -2.571250E-02 -4.741610E-04 -5.493550E-04  1.000000E+00  0.000000E+00  1.000000E+00  0.000000E+00
  0.000184150  2.966240E-02 -2.476060E-02  3.119310E-05 -8.159000E-04  1.000000E+00  0.000000E+00  1.000000E+00  0.000000E+00
  0.000186625  3.029780E-02 -2.370440E-02  8.628790E-04 -3.112160E-04  1.000000E+00  0.000000E+00  1.000000E+00  0.000000E+00
  0.000189100  2.912750E-02 -2.272290E-02  7.752120E-04  7.570140E-05  1.000000E+00  0.000000E+00  1.000000E+00  0.000000E+00
  0.000191575  2.882130E-02 -2.316850E-02 -3.079790E-04 -1.307030E-03  1.000000E+00  0.000000E+00  1.000000E+00  0.000000E+00
  0.000194050  3.003370E-02 -2.340550E-02 -2.976660E-04 -2.340130E-03  1.000000E+00  0.000000E+00  1.000000E+00  0.000000E+00
  0.000196525  3.121730E-02 -2.308090E-02 -1.289140E-06 -1.717290E-03  1.000000E+00  0.000000E+00  1.000000E+00  0.000000E+00
  0.000199000  3.163910E-02 -2.110010E-02  2.858710E-04 -5.882570E-04  1.000000E+00  0.000000E+00  1.000000E+00  0.000000E+00
  0.000201475  3.156170E-02 -2.211460E-02 -2.392100E-04 -2.141980E-03  1.000000E+00  0.000000E+00  1.000000E+00  0.000000E+00
  0.000203950  2.984080E-02 -2.176370E-02 -1.100820E-03 -1.768270E-03  1.000000E+00  0.000000E+00  1.000000E+00  0.000000E+00
  0.000206425  3.162770E-02 -2.069760E-02 -3.435840E-04 -8.921810E-04  1.000000E+00  0.000000E+00  1.000000E+00  0.000000E+00
  0.000208900  3.220430E-02 -2.056590E-02 -1.358220E-03 -1.411670E-03  1.000000E+00  0.000000E+00  1.000000E+00  0.000000E+00
  0.000211375  3.324720E-02 -2.168290E-02  1.707210E-06 -1.867310E-03  1.000000E+00  0.000000E+00  1.000000E+00  0.000000E+00
  0.000213850  3.092390E-02 -2.014520E-02 -1.633450E-03 -1.342250E-03  1.000000E+00  0.000000E+00  1.000000E+00  0.000000E+00
  0.000216325  3.203390E-02 -1.978480E-02 -1.212740E-03 -1.153380E-03  1.000000E+00  0.000000E+00  1.000000E+00  0.000000E+00
  0.000218800  3.294400E-02 -1.932310E-02  5.348990E-04 -2.675940E-04  1.000000E+00  0.000000E+00  1.000000E+00  0.000000E+00
  0.000221275  3.406390E-02 -1.862140E-02 -7.391950E-04 -1.654650E-03  1.000000E+00  0.000000E+00  1.000000E+00  0.000000E+00
  0.000223750  3.331800E-02 -1.905550E-02 -1.190920E-03 -1.808510E-03  1.000000E+00  0.000000E+00  1.000000E+00  0.000000E+00
  0.000226225  3.279870E-02 -1.801390E-02 -3.911120E-04  4.346230E-05  1.000000E+00  0.000000E+00  1.000000E+00  0.000000E+00
  0.000228700  3.330400E-02 -1.741980E-02 -3.189720E-04 -1.898310E-03  1.000000E+00  0.000000E+00  1.000000E+00  0.000000E+00
  0.000231175  3.333080E-02 -1.839150E-02  5.795180E-04 -1.576650E-03  1.000000E+00  0.000000E+00  1.000000E+00  0.000000E+00
  0.000233650  3.264550E-02 -1.831960E-02 -4.175350E-04 -1.866620E-03  1.000000E+00  0.000000E+00  1.000000E+00  0.000000E+00
  0.000236125  3.279910E-02 -1.627190E-02  3.132390E-04 -1.044110E-03  1.000000E+00  0.000000E+00  1.000000E+00  0.000000E+00
  0.000238600  3.465830E-02 -1.634070E-02 -1.174700E-03 -2.701420E-03  1.000000E+00  0.000000E+00  1.000000E+00  0.000000E+00
  0.000241075  3.384470E-02 -1.710930E-02 -1.013410E-03 -2.227370E-03  1.000000E+00  0.000000E+00  1.000000E+00  0.000000E+00
  0.000243550  3.364140E-02 -1.602060E-02 -6.634780E-04 -1.597090E-03  1.000000E+00  0.000000E+00  1.000000E+00  0.000000E+00
  0.000246025  3.393690E-02 -1.624440E-02 -1.610700E-03 -1.390260E-03  1.000000E+00  0.000000E+00  1.000000E+00  0.000000E+00
  0.000248500  3.458050E-02 -1.618650E-02 -1.738160E-04 -1.912670E-03  1.000000E+00  0.000000E+00  1.000000E+00  0.000000E+00
  0.000250975  3.456310E-02 -1.601190E-02  7.583530E-04 -2.828440E-03  1.000000E+00  0.000000E+00  1.000000E+00  0.000000E+00
  0.000253450  3.452710E-02 -1.511500E-02  2.681520E-04 -7.582220E-04  1.000000E+00  0.000000E+00  1.000000E+00  0.000000E+00
  0.000255925  3.400230E-02 -1.504790E-02 -6.385850E-05 -1.847410E-03  1.000000E+00  0.000000E+00  1.000000E+00  0.000000E+00
  0.000258400  3.378830E-02 -1.485790E-02  3.624540E-04 -9.680840E-04  1.000000E+00  0.000000E+00  1.000000E+00  0.000000E+00
  0.000260875  3.556830E-02 -1.493610E-02 -1.433980E-03 -3.587150E-03  1.000000E+00  0.000000E+00  1.000000E+00  0.000000E+00
  0.000263350  3.540060E-02 -1.286000E-02  9.639690E-04 -2.788250E-03  1.000000E+00  0.000000E+00  1.000000E+00  0.000000E+00
  0.000265825  3.459170E-02 -1.402450E-02 -7.380280E-04 -2.947000E-03  1.000000E+00  0.000000E+00  1.000000E+00  0.000000E+00
  0.000268300  3.632340E-02 -1.301650E-02 -5.320640E-04 -2.649990E-03  1.000000E+00  0.000000E+00  1.000000E+00  0.000000E+00
  0.000270775  3.614470E-02 -1.329110E-02 -1.829050E-04 -2.718800E-03  1.000000E+00  0.000000E+00  1.000000E+00  0.000000E+00
  0.000273250  3.424460E-02 -1.330130E-02  8.244710E-05 -2.065720E-03  1.000000E+00  0.000000E+00  1.000000E+00  0.000000E+00
  0.000275725  3.617460E-02 -1.338570E-02 -6.412560E-04 -2.226200E-03  1.000000E+00  0.000000E+00  1.000000E+00  0.000000E+00
  0.000278200  3.528580E-02 -1.195640E-02 -1.418520E-04 -2.040130E-03  1.000000E+00  0.000000E+00  1.000000E+00  0.000000E+00
  0.000280675  3.627890E-02 -1.331750E-02 -1.211890E-03 -2.063020E-03  1.000000E+00  0.000000E+00  1.000000E+00  0.000000E+00
  0.000283150  3.674910E-02 -1.281410E-02 -1.793510E-03 -4.166170E-03  1.000000E+00  0.000000E+00  1.000000E+00  0.000000E+00
  0.000285625  3.569130E-02 -1.225570E-02 -4.599940E-04 -2.533060E-03  1.000000E+00  0.000000E+00  1.000000E+00  0.000000E+00
  0.000288100  3.650000E-02 -1.110660E-02 -1.170960E-03 -2.691090E-03  1.000000E+00  0.000000E+00  1.000000E+00  0.000000E+00
  0.000290575  3.601460E-02 -1.074810E-02 -1.140830E-03 -2.021230E-03  1.000000E+00  0.000000E+00  1.000000E+00  0.000000E+00
  0.000293050  3.572470E-02 -1.034190E-02 -1.632630E-03 -5.332110E-03  1.000000E+00  0.000000E+00  1.000000E+00  0.000000E+00
  0.000295525  3.607930E-02 -1.123680E-02 -1.075140E-03 -3.058710E-03  1.000000E+00  0.000000E+00  1.000000E+00  0.000000E+00
  0.000298000  3.526880E-02 -1.233750E-02 -4.482360E-04 -2.261430E-03  1.000000E+00  0.000000E+00  1.000000E+00  0.000000E+00
  0.000300475  3.745780E-02 -1.082040E-02 -2.411310E-04 -1.995940E-03  1.000000E+00  0.000000E+00  1.000000E+00  0.000000E+00
  0.000302950  3.565720E-02 -1.076150E-02 -1.503620E-03 -5.388250E-03  1.000000E+00  0.000000E+00  1.000000E+00  0.000000E+00
  0.000305425  3.788800E-02 -9.869240E-03 -1.948270E-03 -4.048940E-03  1.000000E+00  0.000000E+00  1.000000E+00  0.000000E+00
  0.000307900  3.783930E-02 -1.070880E-02 -1.735100E-03 -2.608590E-03  1.000000E+00  0.000000E+00  1.000000E+00  0.000000E+00
  0.000310375  3.741090E-02 -1.024510E-02 -2.065900E-03 -3.262900E-03  1.000000E+00  0.000000E+00  1.000000E+00  0.000000E+00
  0.000312850  3.759140E-02 -1.059470E-02 -3.908400E-03 -5.329000E-03  1.000000E+00  0.000000E+00  1.000000E+00  0.000000E+00
  0.000315325  3.703270E-02 -1.194640E-02 -4.444570E-03 -5.091060E-03  1.000000E+00  0.000000E+00  1.000000E+00  0.000000E+00
  0.000317800  3.808450E-02 -8.650150E-03 -1.361580E-03 -2.906370E-03  1.000000E+00  0.000000E+00  1.000000E+00  0.000000E+00
  0.000320275  3.808160E-02 -9.721590E-03 -3.230840E-03 -3.659570E-03  1.000000E+00  0.000000E+00  1.000000E+00  0.000000E+00
  0.000322750  3.784560E-02 -1.017560E-02 -1.848350E-03 -2.936160E-03  1.000000E+00  0.000000E+00  1.000000E+00  0.000000E+00
  0.000325225  3.780420E-02 -8.762410E-03 -1.011480E-02 -5.487250E-03  1.000000E+00  0.000000E+00  1.000000E+00  0.000000E+00
  0.000327700  3.713790E-02 -9.296190E-03 -3.632960E-03 -3.141050E-03  1.000000E+00  0.000000E+00  1.000000E+00  0.000000E+00
  0.000330175  3.936420E-02 -9.991560E-03 -2.301880E-03 -2.716940E-03  1.000000E+00  0.000000E+00  1.000000E+00  0.000000E+00
  0.000332650  3.706250E-02 -8.887800E-03 -2.509890E-03 -2.950040E-03  1.000000E+00  0.000000E+00  1.000000E+00  0.000000E+00
  0.000335125  3.791350E-02 -9.749880E-03 -1.108320E-02 -2.728170E-03  1.000000E+00  0.000000E+00  1.000000E+00  0.000000E+00
  0.000337600  3.849130E-02 -7.475650E-03 -4.876090E-03 -3.478570E-03  1.000000E+00  0.000000E+00  1.000000E+00  0.000000E+00
  0.000340075  3.950890E-02 -9.076980E-03 -2.227850E-03 -3.276580E-03  1.000000E+00  0.000000E+00  1.000000E+00  0.000000E+00
  0.000342550  3.832860E-02 -8.258230E-03 -3.868540E-03 -1.626960E-03  1.000000E+00  0.000000E+00  1.000000E+00  0.000000E+00
  0.000345025  3.840180E-02 -9.237860E-03 -7.102180E-03 -1.369370E-03  1.000000E+00  0.000000E+00  1.000000E+00  0.000000E+00
  0.000347500  3.869660E-02 -1.025200E-02 -9.442620E-03  1.666350E-03  1.000000E+00  0.000000E+00  1.000000E+00  0.000000E+00
  0.000349975  3.874910E-02 -6.818010E-03 -3.855500E-03 -4.092530E-03  1.000000E+00  0.000000E+00  1.000000E+00  0.000000E+00
  0.000352450  3.877410E-02 -7.866000E-03 -4.854230E-03 -3.925870E-03  1.000000E+00  0.000000E+00  1.000000E+00  0.000000E+00
  0.000354925  3.888780E-02 -7.345390E-03 -7.025090E-03 -6.279080E-04  1.000000E+00  0.000000E+00  1.000000E+00  0.000000E+00
  0.000357400  3.809160E-02 -9.186700E-03 -6.232800E-03  5.317270E-03  1.000000E+00  0.000000E+00  1.000000E+00  0.000000E+00
  0.000359875  4.016080E-02 -8.251350E-03 -6.131040E-03 -3.979680E-03  1.000000E+00  0.000000E+00  1.000000E+00  0.000000E+00
  0.000362350  3.887930E-02 -8.246550E-03 -6.437720E-03 -2.679350E-03  1.000000E+00  0.000000E+00  1.000000E+00  0.000000E+00
  0.000364825  3.983210E-02 -6.426160E-03 -7.530940E-03 -7.336710E-04  1.000000E+00  0.000000E+00  1.000000E+00  0.000000E+00
  0.000367300  3.935590E-02 -9.370680E-03 -3.965150E-03  6.672000E-03  1.000000E+00  0.000000E+00  1.000000E+00  0.000000E+00
  0.000369775  3.901620E-02 -7.091530E-03 -7.521160E-03  5.945640E-04  1.000000E+00  0.000000E+00  1.000000E+00  0.000000E+00
  0.000372250  4.004710E-02 -6.321590E-03 -1.005120E-02  7.676890E-04  1.000000E+00  0.000000E+00  1.000000E+00  0.000000E+00
  0.000374725  3.870500E-02 -6.011700E-03 -7.609920E-03  1.411110E-03  1.000000E+00  0.000000E+00  1.000000E+00  0.000000E+00
  0.000377200  4.057010E-02 -7.824790E-03 -3.083390E-03  5.670200E-03  1.000000E+00  0.000000E+00  1.000000E+00  0.000000E+00
  0.000379675  4.056380E-02 -7.485260E-03 -5.556310E-03  3.790280E-03  1.000000E+00  0.000000E+00  1.000000E+00  0.000000E+00
  0.000382150  3.917100E-02 -7.436020E-03 -7.579320E-03  2.460580E-03  1.000000E+00  0.000000E+00  1.000000E+00  0.000000E+00
  0.000384625  4.170470E-02 -6.714290E-03 -5.844450E-03  4.402150E-03  1.000000E+00  0.000000E+00  1.000000E+00  0.000000E+00
  0.000387100  3.948400E-02 -7.467780E-03 -3.291470E-03  4.477450E-03  1.000000E+00  0.000000E+00  1.000000E+00  0.000000E+00
  0.000389575  4.040500E-02 -6.106150E-03 -2.053720E-03  3.185070E-03  1.000000E+00  0.000000E+00  1.000000E+00  0.000000E+00
  0.000392050  4.121700E-02 -7.177330E-03 -5.321070E-03  4.868350E-03  1.000000E+00  0.000000E+00  1.000000E+00  0.000000E+00
  0.000394525  3.982680E-02 -6.589470E-03 -3.602220E-03  6.099300E-03  1.000000E+00  0.000000E+00  1.000000E+00  0.000000E+00
  0.000397000  3.862770E-02 -6.673050E-03 -1.849980E-03  4.774540E-03  1.000000E+00  0.000000E+00  1.000000E+00  0.000000E+00
  0.000399475  4.074080E-02 -7.812120E-03  4.245260E-05  4.178510E-03  1.000000E+00  0.000000E+00  1.000000E+00  0.000000E+00
  0.000401950  3.961520E-02 -6.484860E-03 -2.209930E-03  5.196270E-03  1.000000E+00  0.000000E+00  1.000000E+00  0.000000E+00
  0.000404425  4.205800E-02 -6.008740E-03 -2.349100E-04  4.474830E-03  1.000000E+00  0.000000E+00  1.000000E+00  0.000000E+00
  0.000406900  4.078530E-02 -7.888440E-03  4.947340E-04  4.077800E-03  1.000000E+00  0.000000E+00  1.000000E+00  0.000000E+00
  0.000409375  3.997170E-02 -6.000140E-03  8.942700E-05  2.203900E-03  1.000000E+00  0.000000E+00  1.000000E+00  0.000000E+00
  0.000411850  4.106510E-02 -6.767840E-03  2.347520E-04  2.779590E-03  1.000000E+00  0.000000E+00  1.000000E+00  0.000000E+00
  0.000414325  4.112550E-02 -6.204450E-03  2.311920E-03  3.642040E-03  1.000000E+00  0.000000E+00  1.000000E+00  0.000000E+00
  0.000416800  4.054130E-02 -6.331040E-03  1.870340E-03  3.331150E-03  1.000000E+00  0.000000E+00  1.000000E+00  0.000000E+00
  0.000419275  4.215400E-02 -6.880810E-03  7.008980E-04  2.050060E-03  1.000000E+00  0.000000E+00  1.000000E+00  0.000000E+00
  0.000421750  4.246400E-02 -6.310080E-03  1.013390E-03  1.095670E-03  1.000000E+00  0.000000E+00  1.000000E+00  0.000000E+00
  0.000424225  4.136160E-02 -5.872520E-03  9.368550E-04  1.709380E-03  1.000000E+00  0.000000E+00  1.000000E+00  0.000000E+00
  0.000426700  4.208170E-02 -6.134980E-03  1.683820E-03  1.202850E-03  1.000000E+00  0.000000E+00  1.000000E+00  0.000000E+00
  0.000429175  4.074040E-02 -5.744900E-03  3.053790E-04  1.934560E-04  1.000000E+00  0.000000E+00  1.000000E+00  0.000000E+00
  0.000431650  4.121150E-02 -6.463810E-03  1.783550E-03  1.732300E-03  1.000000E+00  0.000000E+00  1.000000E+00  0.000000E+00
  0.000434125  4.217540E-02 -5.509120E-03  1.690290E-05  3.740380E-04  1.000000E+00  0.000000E+00  1.000000E+00  0.000000E+00
  0.000436600  3.915420E-02 -7.608590E-03  3.088470E-04 -9.562620E-04  1.000000E+00  0.000000E+00  1.000000E+00  0.000000E+00
  0.000439075  4.210930E-02 -4.744010E-03  1.461370E-03 -2.088830E-03  1.000000E+00  0.000000E+00  1.000000E+00  0.000000E+00
  0.000441550  4.036790E-02 -7.326630E-03  5.722180E-04  1.386850E-03  1.000000E+00  0.000000E+00  1.000000E+00  0.000000E+00
  0.000444025  4.049720E-02 -5.930450E-03 -3.086140E-04 -9.978230E-04  1.000000E+00  0.000000E+00  1.000000E+00  0.000000E+00
  0.000446500  4.211070E-02 -7.662080E-03 -7.164530E-04 -1.430920E-03  1.000000E+00  0.000000E+00  1.000000E+00  0.000000E+00
  0.000448975  4.031360E-02 -5.756820E-03  3.926750E-05  1.100470E-03  1.000000E+00  0.000000E+00  1.000000E+00  0.000000E+00
  0.000451450  4.158660E-02 -6.294860E-03 -1.977420E-03  1.952930E-04  1.000000E+00  0.000000E+00  1.000000E+00  0.000000E+00
  0.000453925  4.269300E-02 -4.997420E-03 -4.236080E-04 -4.659570E-04  1.000000E+00  0.000000E+00  1.000000E+00  0.000000E+00
