! Anritsu VNA Master:                        Model: MS2026C/19
! SN:                                  1815009
! /card0/usr/20180902_10.s2p
! Existing Calibration Information:
! TYPE:                         Current Settings,       Active Cal Settings
! TIME:             	   09/02/2018 12:43:18 PM,    09/02/2018 11:58:48 AM
! INTERNAL TEMP:    	                   53.3 C,                    48.8 C
! # POINTS:         	                     4001,                      4001
! START FREQ:       	              100.000 kHz,               100.000 kHz
! STOP FREQ:        	               10.000 MHz,                10.000 MHz
! SOURCE POWER:     	                      Low,                       Low
! IFBW:             	                   500 Hz,                    500 Hz
! AVG FACTOR:       	                       5 ,                        1 
! REF PLANE 1:      	                     0 mm,                      0 mm
! REF PLANE 2:      	                     0 mm,                      0 mm
! CAL TYPE:         	             1P2P S11,S21,              1P2P S11,S21
! CAL METHOD:       	                     SOLT,                      SOLT
! CAL LINE TYPE:    	                     Coax,                      Coax
! DUT PORT 1:       	                N-Conn(M),                 N-Conn(M)
! DUT PORT 2:       	                N-Conn(M),                 N-Conn(M)
! CAL STATUS:       	        OK: Accuracy High,                        --
# GHZ S RI R 50.0
! FREQ.GHZ      S11RE         S11IM         S21RE         S21IM         S12RE         S12IM         S22RE         S22IM
  0.000100000  4.321730E-03 -5.894250E-02  7.523380E-02  1.880310E-01  1.000000E+00  0.000000E+00  1.000000E+00  0.000000E+00
  0.000102475  6.512400E-03 -5.689310E-02  8.101520E-02  1.858050E-01  1.000000E+00  0.000000E+00  1.000000E+00  0.000000E+00
  0.000104950  6.902720E-03 -5.464440E-02  8.651350E-02  1.838540E-01  1.000000E+00  0.000000E+00  1.000000E+00  0.000000E+00
  0.000107425  9.102700E-03 -5.201520E-02  9.321070E-02  1.815820E-01  1.000000E+00  0.000000E+00  1.000000E+00  0.000000E+00
  0.000109900  1.012550E-02 -5.031160E-02  9.931410E-02  1.790050E-01  1.000000E+00  0.000000E+00  1.000000E+00  0.000000E+00
  0.000112375  1.081000E-02 -4.897250E-02  1.035670E-01  1.757520E-01  1.000000E+00  0.000000E+00  1.000000E+00  0.000000E+00
  0.000114850  1.170270E-02 -4.720470E-02  1.093980E-01  1.734200E-01  1.000000E+00  0.000000E+00  1.000000E+00  0.000000E+00
  0.000117325  1.396910E-02 -4.560710E-02  1.139190E-01  1.701920E-01  1.000000E+00  0.000000E+00  1.000000E+00  0.000000E+00
  0.000119800  1.453530E-02 -4.325950E-02  1.186960E-01  1.676390E-01  1.000000E+00  0.000000E+00  1.000000E+00  0.000000E+00
  0.000122275  1.566660E-02 -4.160310E-02  1.227810E-01  1.645220E-01  1.000000E+00  0.000000E+00  1.000000E+00  0.000000E+00
  0.000124750  1.648280E-02 -4.062750E-02  1.279320E-01  1.620170E-01  1.000000E+00  0.000000E+00  1.000000E+00  0.000000E+00
  0.000127225  1.615180E-02 -3.942650E-02  1.312050E-01  1.584860E-01  1.000000E+00  0.000000E+00  1.000000E+00  0.000000E+00
  0.000129700  1.771820E-02 -3.667020E-02  1.355120E-01  1.557510E-01  1.000000E+00  0.000000E+00  1.000000E+00  0.000000E+00
  0.000132175  1.911650E-02 -3.707940E-02  1.388610E-01  1.531860E-01  1.000000E+00  0.000000E+00  1.000000E+00  0.000000E+00
  0.000134650  1.935810E-02 -3.640640E-02  1.425970E-01  1.506300E-01  1.000000E+00  0.000000E+00  1.000000E+00  0.000000E+00
  0.000137125  2.011270E-02 -3.463240E-02  1.459180E-01  1.471160E-01  1.000000E+00  0.000000E+00  1.000000E+00  0.000000E+00
  0.000139600  2.140470E-02 -3.389090E-02  1.490020E-01  1.441130E-01  1.000000E+00  0.000000E+00  1.000000E+00  0.000000E+00
  0.000142075  2.248080E-02 -3.348950E-02  1.517900E-01  1.414720E-01  1.000000E+00  0.000000E+00  1.000000E+00  0.000000E+00
  0.000144550  2.275400E-02 -3.160170E-02  1.545840E-01  1.381940E-01  1.000000E+00  0.000000E+00  1.000000E+00  0.000000E+00
  0.000147025  2.337100E-02 -3.016190E-02  1.575310E-01  1.352970E-01  1.000000E+00  0.000000E+00  1.000000E+00  0.000000E+00
  0.000149500  2.412410E-02 -2.971050E-02  1.596260E-01  1.327460E-01  1.000000E+00  0.000000E+00  1.000000E+00  0.000000E+00
  0.000151975  2.461770E-02 -2.925940E-02  1.625610E-01  1.299940E-01  1.000000E+00  0.000000E+00  1.000000E+00  0.000000E+00
  0.000154450  2.520850E-02 -2.765390E-02  1.640910E-01  1.276710E-01  1.000000E+00  0.000000E+00  1.000000E+00  0.000000E+00
  0.000156925  2.599740E-02 -2.710950E-02  1.668650E-01  1.246130E-01  1.000000E+00  0.000000E+00  1.000000E+00  0.000000E+00
  0.000159400  2.613430E-02 -2.702400E-02  1.688280E-01  1.213030E-01  1.000000E+00  0.000000E+00  1.000000E+00  0.000000E+00
  0.000161875  2.718990E-02 -2.692290E-02  1.708170E-01  1.189140E-01  1.000000E+00  0.000000E+00  1.000000E+00  0.000000E+00
  0.000164350  2.776490E-02 -2.587120E-02  1.713460E-01  1.167040E-01  1.000000E+00  0.000000E+00  1.000000E+00  0.000000E+00
  0.000166825  2.745900E-02 -2.493910E-02  1.739850E-01  1.135290E-01  1.000000E+00  0.000000E+00  1.000000E+00  0.000000E+00
  0.000169300  2.850160E-02 -2.479570E-02  1.762610E-01  1.110720E-01  1.000000E+00  0.000000E+00  1.000000E+00  0.000000E+00
  0.000171775  2.877330E-02 -2.355660E-02  1.769410E-01  1.092070E-01  1.000000E+00  0.000000E+00  1.000000E+00  0.000000E+00
  0.000174250  2.863580E-02 -2.287260E-02  1.792810E-01  1.060710E-01  1.000000E+00  0.000000E+00  1.000000E+00  0.000000E+00
  0.000176725  2.998730E-02 -2.251700E-02  1.806800E-01  1.033090E-01  1.000000E+00  0.000000E+00  1.000000E+00  0.000000E+00
  0.000179200  2.993070E-02 -2.281440E-02  1.819780E-01  1.014960E-01  1.000000E+00  0.000000E+00  1.000000E+00  0.000000E+00
  0.000181675  3.035490E-02 -2.243610E-02  1.834150E-01  9.852860E-02  1.000000E+00  0.000000E+00  1.000000E+00  0.000000E+00
  0.000184150  3.133280E-02 -2.134090E-02  1.849540E-01  9.625960E-02  1.000000E+00  0.000000E+00  1.000000E+00  0.000000E+00
  0.000186625  3.133420E-02 -2.121650E-02  1.854610E-01  9.447140E-02  1.000000E+00  0.000000E+00  1.000000E+00  0.000000E+00
  0.000189100  3.052880E-02 -2.085260E-02  1.864290E-01  9.111370E-02  1.000000E+00  0.000000E+00  1.000000E+00  0.000000E+00
  0.000191575  3.056640E-02 -2.120610E-02  1.882700E-01  8.947470E-02  1.000000E+00  0.000000E+00  1.000000E+00  0.000000E+00
  0.000194050  3.168480E-02 -2.051630E-02  1.885560E-01  8.729670E-02  1.000000E+00  0.000000E+00  1.000000E+00  0.000000E+00
  0.000196525  3.278840E-02 -1.943130E-02  1.892810E-01  8.409570E-02  1.000000E+00  0.000000E+00  1.000000E+00  0.000000E+00
  0.000199000  3.324550E-02 -1.929710E-02  1.906560E-01  8.299330E-02  1.000000E+00  0.000000E+00  1.000000E+00  0.000000E+00
  0.000201475  3.283960E-02 -1.864890E-02  1.917720E-01  8.053070E-02  1.000000E+00  0.000000E+00  1.000000E+00  0.000000E+00
  0.000203950  3.261720E-02 -1.899720E-02  1.920310E-01  7.836210E-02  1.000000E+00  0.000000E+00  1.000000E+00  0.000000E+00
  0.000206425  3.416570E-02 -1.841230E-02  1.932970E-01  7.603430E-02  1.000000E+00  0.000000E+00  1.000000E+00  0.000000E+00
  0.000208900  3.309570E-02 -1.759980E-02  1.936850E-01  7.349150E-02  1.000000E+00  0.000000E+00  1.000000E+00  0.000000E+00
  0.000211375  3.437380E-02 -1.803870E-02  1.945720E-01  7.205830E-02  1.000000E+00  0.000000E+00  1.000000E+00  0.000000E+00
  0.000213850  3.407880E-02 -1.696720E-02  1.958360E-01  6.988400E-02  1.000000E+00  0.000000E+00  1.000000E+00  0.000000E+00
  0.000216325  3.447420E-02 -1.736670E-02  1.964940E-01  6.777650E-02  1.000000E+00  0.000000E+00  1.000000E+00  0.000000E+00
  0.000218800  3.398850E-02 -1.718650E-02  1.964830E-01  6.607530E-02  1.000000E+00  0.000000E+00  1.000000E+00  0.000000E+00
  0.000221275  3.544180E-02 -1.595720E-02  1.968160E-01  6.407200E-02  1.000000E+00  0.000000E+00  1.000000E+00  0.000000E+00
  0.000223750  3.507880E-02 -1.643310E-02  1.979670E-01  6.250050E-02  1.000000E+00  0.000000E+00  1.000000E+00  0.000000E+00
  0.000226225  3.619610E-02 -1.485890E-02  1.992250E-01  6.022710E-02  1.000000E+00  0.000000E+00  1.000000E+00  0.000000E+00
  0.000228700  3.556350E-02 -1.579450E-02  1.991630E-01  5.854240E-02  1.000000E+00  0.000000E+00  1.000000E+00  0.000000E+00
  0.000231175  3.455490E-02 -1.587290E-02  1.999390E-01  5.676800E-02  1.000000E+00  0.000000E+00  1.000000E+00  0.000000E+00
  0.000233650  3.524690E-02 -1.502000E-02  1.996050E-01  5.527630E-02  1.000000E+00  0.000000E+00  1.000000E+00  0.000000E+00
  0.000236125  3.537290E-02 -1.442130E-02  2.005950E-01  5.289410E-02  1.000000E+00  0.000000E+00  1.000000E+00  0.000000E+00
  0.000238600  3.676120E-02 -1.429450E-02  2.001770E-01  5.126380E-02  1.000000E+00  0.000000E+00  1.000000E+00  0.000000E+00
  0.000241075  3.617330E-02 -1.435160E-02  2.017840E-01  4.983510E-02  1.000000E+00  0.000000E+00  1.000000E+00  0.000000E+00
  0.000243550  3.630610E-02 -1.395870E-02  2.006710E-01  4.724050E-02  1.000000E+00  0.000000E+00  1.000000E+00  0.000000E+00
  0.000246025  3.703540E-02 -1.341270E-02  2.021260E-01  4.629960E-02  1.000000E+00  0.000000E+00  1.000000E+00  0.000000E+00
  0.000248500  3.685230E-02 -1.320950E-02  2.020800E-01  4.409300E-02  1.000000E+00  0.000000E+00  1.000000E+00  0.000000E+00
  0.000250975  3.741950E-02 -1.384010E-02  2.017840E-01  4.228840E-02  1.000000E+00  0.000000E+00  1.000000E+00  0.000000E+00
  0.000253450  3.706640E-02 -1.275520E-02  2.026170E-01  4.117590E-02  1.000000E+00  0.000000E+00  1.000000E+00  0.000000E+00
  0.000255925  3.664280E-02 -1.212560E-02  2.022710E-01  3.934400E-02  1.000000E+00  0.000000E+00  1.000000E+00  0.000000E+00
  0.000258400  3.763200E-02 -1.248930E-02  2.028870E-01  3.735110E-02  1.000000E+00  0.000000E+00  1.000000E+00  0.000000E+00
  0.000260875  3.756390E-02 -1.177590E-02  2.032300E-01  3.538610E-02  1.000000E+00  0.000000E+00  1.000000E+00  0.000000E+00
  0.000263350  3.776310E-02 -1.099980E-02  2.033320E-01  3.476490E-02  1.000000E+00  0.000000E+00  1.000000E+00  0.000000E+00
  0.000265825  3.767640E-02 -1.177510E-02  2.029120E-01  3.234090E-02  1.000000E+00  0.000000E+00  1.000000E+00  0.000000E+00
  0.000268300  3.829330E-02 -1.127440E-02  2.036330E-01  3.067820E-02  1.000000E+00  0.000000E+00  1.000000E+00  0.000000E+00
  0.000270775  3.825670E-02 -1.057500E-02  2.030820E-01  3.041420E-02  1.000000E+00  0.000000E+00  1.000000E+00  0.000000E+00
  0.000273250  3.834270E-02 -1.023050E-02  2.041190E-01  2.757380E-02  1.000000E+00  0.000000E+00  1.000000E+00  0.000000E+00
  0.000275725  3.800530E-02 -1.050540E-02  2.032720E-01  2.707240E-02  1.000000E+00  0.000000E+00  1.000000E+00  0.000000E+00
  0.000278200  3.835430E-02 -1.053270E-02  2.035060E-01  2.489300E-02  1.000000E+00  0.000000E+00  1.000000E+00  0.000000E+00
  0.000280675  3.911320E-02 -9.996430E-03  2.033980E-01  2.302550E-02  1.000000E+00  0.000000E+00  1.000000E+00  0.000000E+00
  0.000283150  3.935740E-02 -9.970660E-03  2.043200E-01  2.232380E-02  1.000000E+00  0.000000E+00  1.000000E+00  0.000000E+00
  0.000285625  3.871030E-02 -9.790320E-03  2.035130E-01  2.057580E-02  1.000000E+00  0.000000E+00  1.000000E+00  0.000000E+00
  0.000288100  3.883930E-02 -9.021180E-03  2.037950E-01  1.857960E-02  1.000000E+00  0.000000E+00  1.000000E+00  0.000000E+00
  0.000290575  3.857200E-02 -8.456860E-03  2.038100E-01  1.787590E-02  1.000000E+00  0.000000E+00  1.000000E+00  0.000000E+00
  0.000293050  3.956930E-02 -9.064010E-03  2.033170E-01  1.635450E-02  1.000000E+00  0.000000E+00  1.000000E+00  0.000000E+00
  0.000295525  3.950120E-02 -7.950380E-03  2.036470E-01  1.445340E-02  1.000000E+00  0.000000E+00  1.000000E+00  0.000000E+00
  0.000298000  3.969020E-02 -8.748580E-03  2.030400E-01  1.323510E-02  1.000000E+00  0.000000E+00  1.000000E+00  0.000000E+00
  0.000300475  4.022900E-02 -8.982050E-03  2.038400E-01  1.189020E-02  1.000000E+00  0.000000E+00  1.000000E+00  0.000000E+00
  0.000302950  3.969010E-02 -7.604180E-03  2.024140E-01  1.077960E-02  1.000000E+00  0.000000E+00  1.000000E+00  0.000000E+00
  0.000305425  4.045640E-02 -7.184710E-03  2.033500E-01  9.326820E-03  1.000000E+00  0.000000E+00  1.000000E+00  0.000000E+00
  0.000307900  4.114840E-02 -8.130980E-03  2.027020E-01  7.567890E-03  1.000000E+00  0.000000E+00  1.000000E+00  0.000000E+00
  0.000310375  4.218910E-02 -8.384250E-03  2.026360E-01  7.745050E-03  1.000000E+00  0.000000E+00  1.000000E+00  0.000000E+00
  0.000312850  4.121010E-02 -7.298860E-03  2.024210E-01  6.364060E-03  1.000000E+00  0.000000E+00  1.000000E+00  0.000000E+00
  0.000315325  4.050660E-02 -7.606640E-03  2.031110E-01  4.153990E-03  1.000000E+00  0.000000E+00  1.000000E+00  0.000000E+00
  0.000317800  4.169340E-02 -5.921310E-03  2.026740E-01  3.334490E-03  1.000000E+00  0.000000E+00  1.000000E+00  0.000000E+00
  0.000320275  4.195850E-02 -6.248100E-03  2.021840E-01  1.919960E-03  1.000000E+00  0.000000E+00  1.000000E+00  0.000000E+00
  0.000322750  4.202620E-02 -6.574060E-03  2.008150E-01  1.780460E-03  1.000000E+00  0.000000E+00  1.000000E+00  0.000000E+00
  0.000325225  4.213170E-02 -7.104230E-03  2.014740E-01  5.832130E-04  1.000000E+00  0.000000E+00  1.000000E+00  0.000000E+00
  0.000327700  4.168290E-02 -6.497710E-03  2.019220E-01 -1.112890E-03  1.000000E+00  0.000000E+00  1.000000E+00  0.000000E+00
  0.000330175  4.245920E-02 -7.310900E-03  2.009280E-01 -1.791420E-03  1.000000E+00  0.000000E+00  1.000000E+00  0.000000E+00
  0.000332650  4.207690E-02 -6.442230E-03  2.009950E-01 -2.700560E-03  1.000000E+00  0.000000E+00  1.000000E+00  0.000000E+00
  0.000335125  4.256530E-02 -6.335550E-03  2.010830E-01 -3.022060E-03  1.000000E+00  0.000000E+00  1.000000E+00  0.000000E+00
  0.000337600  4.321380E-02 -6.157210E-03  2.011690E-01 -5.612360E-03  1.000000E+00  0.000000E+00  1.000000E+00  0.000000E+00
  0.000340075  4.377270E-02 -6.527840E-03  2.020360E-01 -5.055150E-03  1.000000E+00  0.000000E+00  1.000000E+00  0.000000E+00
  0.000342550  4.350660E-02 -6.263120E-03  2.016630E-01 -8.020860E-03  1.000000E+00  0.000000E+00  1.000000E+00  0.000000E+00
  0.000345025  4.351130E-02 -6.939400E-03  2.022750E-01 -6.755730E-03  1.000000E+00  0.000000E+00  1.000000E+00  0.000000E+00
  0.000347500  4.289560E-02 -6.854500E-03  2.010370E-01 -9.806040E-03  1.000000E+00  0.000000E+00  1.000000E+00  0.000000E+00
  0.000349975  4.432070E-02 -5.459370E-03  2.028040E-01 -1.043500E-02  1.000000E+00  0.000000E+00  1.000000E+00  0.000000E+00
  0.000352450  4.431850E-02 -5.368400E-03  2.020680E-01 -1.207050E-02  1.000000E+00  0.000000E+00  1.000000E+00  0.000000E+00
  0.000354925  4.444940E-02 -5.410870E-03  2.021120E-01 -1.242070E-02  1.000000E+00  0.000000E+00  1.000000E+00  0.000000E+00
  0.000357400  4.427050E-02 -6.523680E-03  2.011030E-01 -1.466400E-02  1.000000E+00  0.000000E+00  1.000000E+00  0.000000E+00
  0.000359875  4.485820E-02 -6.117350E-03  2.008190E-01 -1.445830E-02  1.000000E+00  0.000000E+00  1.000000E+00  0.000000E+00
  0.000362350  4.453680E-02 -6.492270E-03  2.007620E-01 -1.606130E-02  1.000000E+00  0.000000E+00  1.000000E+00  0.000000E+00
  0.000364825  4.465190E-02 -5.251890E-03  2.017360E-01 -1.731920E-02  1.000000E+00  0.000000E+00  1.000000E+00  0.000000E+00
  0.000367300  4.482000E-02 -7.510100E-03  2.006300E-01 -1.808370E-02  1.000000E+00  0.000000E+00  1.000000E+00  0.000000E+00
  0.000369775  4.427680E-02 -5.341870E-03  2.010500E-01 -1.872080E-02  1.000000E+00  0.000000E+00  1.000000E+00  0.000000E+00
  0.000372250  4.464250E-02 -6.887240E-03  2.004110E-01 -2.070370E-02  1.000000E+00  0.000000E+00  1.000000E+00  0.000000E+00
  0.000374725  4.548050E-02 -5.965020E-03  2.000980E-01 -2.113210E-02  1.000000E+00  0.000000E+00  1.000000E+00  0.000000E+00
  0.000377200  4.501000E-02 -6.298470E-03  2.003910E-01 -2.170870E-02  1.000000E+00  0.000000E+00  1.000000E+00  0.000000E+00
  0.000379675  4.602410E-02 -7.103320E-03  1.996980E-01 -2.287190E-02  1.000000E+00  0.000000E+00  1.000000E+00  0.000000E+00
  0.000382150  4.537040E-02 -6.265490E-03  2.001320E-01 -2.310270E-02  1.000000E+00  0.000000E+00  1.000000E+00  0.000000E+00
  0.000384625  4.667650E-02 -6.090670E-03  1.998910E-01 -2.461930E-02  1.000000E+00  0.000000E+00  1.000000E+00  0.000000E+00
  0.000387100  4.447980E-02 -5.829810E-03  2.006160E-01 -2.482330E-02  1.000000E+00  0.000000E+00  1.000000E+00  0.000000E+00
  0.000389575  4.648370E-02 -6.059370E-03  1.999420E-01 -2.579940E-02  1.000000E+00  0.000000E+00  1.000000E+00  0.000000E+00
  0.000392050  4.629260E-02 -5.161720E-03  2.001200E-01 -2.744560E-02  1.000000E+00  0.000000E+00  1.000000E+00  0.000000E+00
  0.000394525  4.673110E-02 -5.681950E-03  1.997360E-01 -2.827980E-02  1.000000E+00  0.000000E+00  1.000000E+00  0.000000E+00
  0.000397000  4.521940E-02 -5.904720E-03  1.991570E-01 -2.975510E-02  1.000000E+00  0.000000E+00  1.000000E+00  0.000000E+00
  0.000399475  4.651260E-02 -7.112830E-03  1.992280E-01 -3.108270E-02  1.000000E+00  0.000000E+00  1.000000E+00  0.000000E+00
  0.000401950  4.572170E-02 -6.737410E-03  1.996770E-01 -3.180720E-02  1.000000E+00  0.000000E+00  1.000000E+00  0.000000E+00
  0.000404425  4.743130E-02 -6.352660E-03  1.993480E-01 -3.389480E-02  1.000000E+00  0.000000E+00  1.000000E+00  0.000000E+00
  0.000406900  4.669280E-02 -7.473760E-03  1.980130E-01 -3.436590E-02  1.000000E+00  0.000000E+00  1.000000E+00  0.000000E+00
  0.000409375  4.680890E-02 -7.185370E-03  1.981350E-01 -3.581860E-02  1.000000E+00  0.000000E+00  1.000000E+00  0.000000E+00
  0.000411850  4.632480E-02 -7.522130E-03  1.976330E-01 -3.567530E-02  1.000000E+00  0.000000E+00  1.000000E+00  0.000000E+00
  0.000414325  4.648660E-02 -6.273600E-03  1.976530E-01 -3.824980E-02  1.000000E+00  0.000000E+00  1.000000E+00  0.000000E+00
  0.000416800  4.668290E-02 -6.573780E-03  1.971430E-01 -3.885080E-02  1.000000E+00  0.000000E+00  1.000000E+00  0.000000E+00
  0.000419275  4.681640E-02 -7.190490E-03  1.956340E-01 -3.991330E-02  1.000000E+00  0.000000E+00  1.000000E+00  0.000000E+00
  0.000421750  4.713460E-02 -6.186680E-03  1.965270E-01 -4.040000E-02  1.000000E+00  0.000000E+00  1.000000E+00  0.000000E+00
  0.000424225  4.684780E-02 -6.814850E-03  1.952030E-01 -4.214240E-02  1.000000E+00  0.000000E+00  1.000000E+00  0.000000E+00
  0.000426700  4.628350E-02 -7.569410E-03  1.953440E-01 -4.289160E-02  1.000000E+00  0.000000E+00  1.000000E+00  0.000000E+00
  0.000429175  4.643670E-02 -7.886950E-03  1.950170E-01 -4.296810E-02  1.000000E+00  0.000000E+00  1.000000E+00  0.000000E+00
  0.000431650  4.631290E-02 -7.425060E-03  1.943930E-01 -4.344860E-02  1.000000E+00  0.000000E+00  1.000000E+00  0.000000E+00
  0.000434125  4.728420E-02 -7.317200E-03  1.931140E-01 -4.564330E-02  1.000000E+00  0.000000E+00  1.000000E+00  0.000000E+00
  0.000436600  4.590360E-02 -6.790500E-03  1.925330E-01 -4.615170E-02  1.000000E+00  0.000000E+00  1.000000E+00  0.000000E+00
  0.000439075  4.714180E-02 -7.032090E-03  1.917630E-01 -4.624500E-02  1.000000E+00  0.000000E+00  1.000000E+00  0.000000E+00
  0.000441550  4.696240E-02 -6.438060E-03  1.927840E-01 -4.708790E-02  1.000000E+00  0.000000E+00  1.000000E+00  0.000000E+00
  0.000444025  4.599320E-02 -6.700330E-03  1.914610E-01 -4.860490E-02  1.000000E+00  0.000000E+00  1.000000E+00  0.000000E+00
  0.000446500  4.615630E-02 -6.768010E-03  1.911900E-01 -4.884340E-02  1.000000E+00  0.000000E+00  1.000000E+00  0.000000E+00
  0.000448975  4.692410E-02 -6.436270E-03  1.908820E-01 -4.946770E-02  1.000000E+00  0.000000E+00  1.000000E+00  0.000000E+00
  0.000451450  4.702060E-02 -7.845100E-03  1.901860E-01 -4.905480E-02  1.000000E+00  0.000000E+00  1.000000E+00  0.000000E+00
  0.000453925  4.660940E-02 -7.155670E-03  1.892820E-01 -5.022590E-02  1.000000E+00  0.000000E+00  1.000000E+00  0.000000E+00
