! Anritsu VNA Master:                        Model: MS2026C/19
! SN:                                  1815009
! /card0/usr/20180902_26.s2p
! Existing Calibration Information:
! TYPE:                         Current Settings,       Active Cal Settings
! TIME:             	   09/02/2018 06:08:28 PM,    09/02/2018 11:58:48 AM
! INTERNAL TEMP:    	                   47.3 C,                    48.8 C
! # POINTS:         	                     4001,                      4001
! START FREQ:       	              100.000 kHz,               100.000 kHz
! STOP FREQ:        	               10.000 MHz,                10.000 MHz
! SOURCE POWER:     	                      Low,                       Low
! IFBW:             	                   500 Hz,                    500 Hz
! AVG FACTOR:       	                       5 ,                        1 
! REF PLANE 1:      	                     0 mm,                      0 mm
! REF PLANE 2:      	                     0 mm,                      0 mm
! CAL TYPE:         	             1P2P S11,S21,              1P2P S11,S21
! CAL METHOD:       	                     SOLT,                      SOLT
! CAL LINE TYPE:    	                     Coax,                      Coax
! DUT PORT 1:       	                N-Conn(M),                 N-Conn(M)
! DUT PORT 2:       	                N-Conn(M),                 N-Conn(M)
! CAL STATUS:       	        OK: Accuracy High,                        --
# GHZ S RI R 50.0
! FREQ.GHZ      S11RE         S11IM         S21RE         S21IM         S12RE         S12IM         S22RE         S22IM
  0.000100000  8.047250E-03 -6.076190E-02  2.518110E-02  5.590320E-02  1.000000E+00  0.000000E+00  1.000000E+00  0.000000E+00
  0.000102475  1.021610E-02 -5.786880E-02  2.659360E-02  5.526830E-02  1.000000E+00  0.000000E+00  1.000000E+00  0.000000E+00
  0.000104950  1.016830E-02 -5.619240E-02  2.837490E-02  5.452170E-02  1.000000E+00  0.000000E+00  1.000000E+00  0.000000E+00
  0.000107425  1.234870E-02 -5.448710E-02  3.001160E-02  5.376810E-02  1.000000E+00  0.000000E+00  1.000000E+00  0.000000E+00
  0.000109900  1.367550E-02 -5.248050E-02  3.170910E-02  5.350460E-02  1.000000E+00  0.000000E+00  1.000000E+00  0.000000E+00
  0.000112375  1.451810E-02 -5.110170E-02  3.344880E-02  5.230220E-02  1.000000E+00  0.000000E+00  1.000000E+00  0.000000E+00
  0.000114850  1.484090E-02 -4.947340E-02  3.477340E-02  5.177170E-02  1.000000E+00  0.000000E+00  1.000000E+00  0.000000E+00
  0.000117325  1.677340E-02 -4.776980E-02  3.599640E-02  5.065330E-02  1.000000E+00  0.000000E+00  1.000000E+00  0.000000E+00
  0.000119800  1.703030E-02 -4.601450E-02  3.744250E-02  4.962160E-02  1.000000E+00  0.000000E+00  1.000000E+00  0.000000E+00
  0.000122275  1.790260E-02 -4.413260E-02  3.846670E-02  4.894360E-02  1.000000E+00  0.000000E+00  1.000000E+00  0.000000E+00
  0.000124750  1.905470E-02 -4.389490E-02  3.948580E-02  4.831900E-02  1.000000E+00  0.000000E+00  1.000000E+00  0.000000E+00
  0.000127225  1.857830E-02 -4.226580E-02  4.100690E-02  4.765720E-02  1.000000E+00  0.000000E+00  1.000000E+00  0.000000E+00
  0.000129700  1.999970E-02 -3.975880E-02  4.187490E-02  4.604680E-02  1.000000E+00  0.000000E+00  1.000000E+00  0.000000E+00
  0.000132175  2.121060E-02 -4.020290E-02  4.235780E-02  4.546460E-02  1.000000E+00  0.000000E+00  1.000000E+00  0.000000E+00
  0.000134650  2.078100E-02 -3.954490E-02  4.407290E-02  4.431580E-02  1.000000E+00  0.000000E+00  1.000000E+00  0.000000E+00
  0.000137125  2.157900E-02 -3.755940E-02  4.490570E-02  4.366590E-02  1.000000E+00  0.000000E+00  1.000000E+00  0.000000E+00
  0.000139600  2.286280E-02 -3.722410E-02  4.652840E-02  4.261540E-02  1.000000E+00  0.000000E+00  1.000000E+00  0.000000E+00
  0.000142075  2.383500E-02 -3.573430E-02  4.695830E-02  4.146870E-02  1.000000E+00  0.000000E+00  1.000000E+00  0.000000E+00
  0.000144550  2.401320E-02 -3.500480E-02  4.742620E-02  4.140490E-02  1.000000E+00  0.000000E+00  1.000000E+00  0.000000E+00
  0.000147025  2.467300E-02 -3.324680E-02  4.791110E-02  3.944020E-02  1.000000E+00  0.000000E+00  1.000000E+00  0.000000E+00
  0.000149500  2.504290E-02 -3.391360E-02  4.823250E-02  3.900370E-02  1.000000E+00  0.000000E+00  1.000000E+00  0.000000E+00
  0.000151975  2.500490E-02 -3.269090E-02  4.964690E-02  3.855930E-02  1.000000E+00  0.000000E+00  1.000000E+00  0.000000E+00
  0.000154450  2.613770E-02 -3.056160E-02  5.050650E-02  3.802980E-02  1.000000E+00  0.000000E+00  1.000000E+00  0.000000E+00
  0.000156925  2.690220E-02 -3.001230E-02  5.068130E-02  3.704270E-02  1.000000E+00  0.000000E+00  1.000000E+00  0.000000E+00
  0.000159400  2.618490E-02 -2.998210E-02  5.113500E-02  3.559120E-02  1.000000E+00  0.000000E+00  1.000000E+00  0.000000E+00
  0.000161875  2.737360E-02 -3.031990E-02  5.209080E-02  3.542720E-02  1.000000E+00  0.000000E+00  1.000000E+00  0.000000E+00
  0.000164350  2.730080E-02 -2.929990E-02  5.210350E-02  3.474090E-02  1.000000E+00  0.000000E+00  1.000000E+00  0.000000E+00
  0.000166825  2.792090E-02 -2.861040E-02  5.291880E-02  3.399570E-02  1.000000E+00  0.000000E+00  1.000000E+00  0.000000E+00
  0.000169300  2.819300E-02 -2.822810E-02  5.362940E-02  3.304300E-02  1.000000E+00  0.000000E+00  1.000000E+00  0.000000E+00
  0.000171775  2.887190E-02 -2.697920E-02  5.358960E-02  3.222080E-02  1.000000E+00  0.000000E+00  1.000000E+00  0.000000E+00
  0.000174250  2.809090E-02 -2.655380E-02  5.442200E-02  3.188490E-02  1.000000E+00  0.000000E+00  1.000000E+00  0.000000E+00
  0.000176725  2.958270E-02 -2.613670E-02  5.468080E-02  3.095780E-02  1.000000E+00  0.000000E+00  1.000000E+00  0.000000E+00
  0.000179200  2.936130E-02 -2.541720E-02  5.505620E-02  3.022020E-02  1.000000E+00  0.000000E+00  1.000000E+00  0.000000E+00
  0.000181675  2.943360E-02 -2.542440E-02  5.533060E-02  2.976230E-02  1.000000E+00  0.000000E+00  1.000000E+00  0.000000E+00
  0.000184150  3.097620E-02 -2.451780E-02  5.565100E-02  2.872900E-02  1.000000E+00  0.000000E+00  1.000000E+00  0.000000E+00
  0.000186625  3.086550E-02 -2.377660E-02  5.612670E-02  2.857860E-02  1.000000E+00  0.000000E+00  1.000000E+00  0.000000E+00
  0.000189100  3.043580E-02 -2.346770E-02  5.573540E-02  2.736590E-02  1.000000E+00  0.000000E+00  1.000000E+00  0.000000E+00
  0.000191575  2.994280E-02 -2.369940E-02  5.703100E-02  2.667930E-02  1.000000E+00  0.000000E+00  1.000000E+00  0.000000E+00
  0.000194050  3.123320E-02 -2.335300E-02  5.703690E-02  2.631840E-02  1.000000E+00  0.000000E+00  1.000000E+00  0.000000E+00
  0.000196525  3.164150E-02 -2.205850E-02  5.686160E-02  2.541460E-02  1.000000E+00  0.000000E+00  1.000000E+00  0.000000E+00
  0.000199000  3.191160E-02 -2.193100E-02  5.697470E-02  2.513410E-02  1.000000E+00  0.000000E+00  1.000000E+00  0.000000E+00
  0.000201475  3.216890E-02 -2.091240E-02  5.758280E-02  2.499280E-02  1.000000E+00  0.000000E+00  1.000000E+00  0.000000E+00
  0.000203950  3.188230E-02 -2.113690E-02  5.763420E-02  2.379900E-02  1.000000E+00  0.000000E+00  1.000000E+00  0.000000E+00
  0.000206425  3.264530E-02 -2.065940E-02  5.833940E-02  2.317400E-02  1.000000E+00  0.000000E+00  1.000000E+00  0.000000E+00
  0.000208900  3.253730E-02 -2.070390E-02  5.817100E-02  2.289210E-02  1.000000E+00  0.000000E+00  1.000000E+00  0.000000E+00
  0.000211375  3.391590E-02 -2.030520E-02  5.876120E-02  2.180920E-02  1.000000E+00  0.000000E+00  1.000000E+00  0.000000E+00
  0.000213850  3.323250E-02 -1.889250E-02  5.876780E-02  2.220830E-02  1.000000E+00  0.000000E+00  1.000000E+00  0.000000E+00
  0.000216325  3.324410E-02 -2.031250E-02  5.841480E-02  2.110380E-02  1.000000E+00  0.000000E+00  1.000000E+00  0.000000E+00
  0.000218800  3.386210E-02 -1.933530E-02  5.894080E-02  2.091370E-02  1.000000E+00  0.000000E+00  1.000000E+00  0.000000E+00
  0.000221275  3.466510E-02 -1.806670E-02  5.941540E-02  1.968850E-02  1.000000E+00  0.000000E+00  1.000000E+00  0.000000E+00
  0.000223750  3.457790E-02 -1.866220E-02  5.923020E-02  1.964000E-02  1.000000E+00  0.000000E+00  1.000000E+00  0.000000E+00
  0.000226225  3.512770E-02 -1.770760E-02  5.981690E-02  1.877840E-02  1.000000E+00  0.000000E+00  1.000000E+00  0.000000E+00
  0.000228700  3.442700E-02 -1.799810E-02  5.959870E-02  1.811870E-02  1.000000E+00  0.000000E+00  1.000000E+00  0.000000E+00
  0.000231175  3.449480E-02 -1.795600E-02  5.967010E-02  1.752030E-02  1.000000E+00  0.000000E+00  1.000000E+00  0.000000E+00
  0.000233650  3.417040E-02 -1.715260E-02  6.025390E-02  1.762620E-02  1.000000E+00  0.000000E+00  1.000000E+00  0.000000E+00
  0.000236125  3.486460E-02 -1.695410E-02  6.021030E-02  1.652060E-02  1.000000E+00  0.000000E+00  1.000000E+00  0.000000E+00
  0.000238600  3.563910E-02 -1.640380E-02  6.041470E-02  1.636040E-02  1.000000E+00  0.000000E+00  1.000000E+00  0.000000E+00
  0.000241075  3.525700E-02 -1.635700E-02  5.994980E-02  1.590470E-02  1.000000E+00  0.000000E+00  1.000000E+00  0.000000E+00
  0.000243550  3.525580E-02 -1.650560E-02  6.004480E-02  1.507030E-02  1.000000E+00  0.000000E+00  1.000000E+00  0.000000E+00
  0.000246025  3.623650E-02 -1.597550E-02  5.969250E-02  1.467990E-02  1.000000E+00  0.000000E+00  1.000000E+00  0.000000E+00
  0.000248500  3.621270E-02 -1.558010E-02  6.037000E-02  1.416210E-02  1.000000E+00  0.000000E+00  1.000000E+00  0.000000E+00
  0.000250975  3.658090E-02 -1.636770E-02  6.066500E-02  1.374690E-02  1.000000E+00  0.000000E+00  1.000000E+00  0.000000E+00
  0.000253450  3.641140E-02 -1.530260E-02  6.042010E-02  1.356570E-02  1.000000E+00  0.000000E+00  1.000000E+00  0.000000E+00
  0.000255925  3.526150E-02 -1.504120E-02  6.074890E-02  1.271160E-02  1.000000E+00  0.000000E+00  1.000000E+00  0.000000E+00
  0.000258400  3.665280E-02 -1.442730E-02  5.970500E-02  1.303850E-02  1.000000E+00  0.000000E+00  1.000000E+00  0.000000E+00
  0.000260875  3.726060E-02 -1.407520E-02  6.052880E-02  1.169130E-02  1.000000E+00  0.000000E+00  1.000000E+00  0.000000E+00
  0.000263350  3.669890E-02 -1.414610E-02  6.024350E-02  1.128390E-02  1.000000E+00  0.000000E+00  1.000000E+00  0.000000E+00
  0.000265825  3.688590E-02 -1.444510E-02  6.101540E-02  1.139010E-02  1.000000E+00  0.000000E+00  1.000000E+00  0.000000E+00
  0.000268300  3.741200E-02 -1.484530E-02  6.114800E-02  1.036280E-02  1.000000E+00  0.000000E+00  1.000000E+00  0.000000E+00
  0.000270775  3.697610E-02 -1.360820E-02  6.112350E-02  1.020150E-02  1.000000E+00  0.000000E+00  1.000000E+00  0.000000E+00
  0.000273250  3.719660E-02 -1.261780E-02  6.134550E-02  9.703850E-03  1.000000E+00  0.000000E+00  1.000000E+00  0.000000E+00
  0.000275725  3.764810E-02 -1.305820E-02  6.087570E-02  9.760940E-03  1.000000E+00  0.000000E+00  1.000000E+00  0.000000E+00
  0.000278200  3.782060E-02 -1.256170E-02  6.096020E-02  8.809630E-03  1.000000E+00  0.000000E+00  1.000000E+00  0.000000E+00
  0.000280675  3.803960E-02 -1.282790E-02  6.106700E-02  9.255160E-03  1.000000E+00  0.000000E+00  1.000000E+00  0.000000E+00
  0.000283150  3.859430E-02 -1.321350E-02  6.154470E-02  8.167160E-03  1.000000E+00  0.000000E+00  1.000000E+00  0.000000E+00
  0.000285625  3.818450E-02 -1.265490E-02  6.109890E-02  8.416860E-03  1.000000E+00  0.000000E+00  1.000000E+00  0.000000E+00
  0.000288100  3.775980E-02 -1.276130E-02  6.118280E-02  7.313200E-03  1.000000E+00  0.000000E+00  1.000000E+00  0.000000E+00
  0.000290575  3.772950E-02 -1.164270E-02  6.119830E-02  6.455290E-03  1.000000E+00  0.000000E+00  1.000000E+00  0.000000E+00
  0.000293050  3.851470E-02 -1.281010E-02  6.065700E-02  6.807570E-03  1.000000E+00  0.000000E+00  1.000000E+00  0.000000E+00
  0.000295525  3.867130E-02 -1.109060E-02  6.076600E-02  6.230650E-03  1.000000E+00  0.000000E+00  1.000000E+00  0.000000E+00
  0.000298000  3.745110E-02 -1.295680E-02  6.135970E-02  5.537230E-03  1.000000E+00  0.000000E+00  1.000000E+00  0.000000E+00
  0.000300475  3.911260E-02 -1.247640E-02  6.119720E-02  5.709420E-03  1.000000E+00  0.000000E+00  1.000000E+00  0.000000E+00
  0.000302950  3.833640E-02 -1.148400E-02  6.149130E-02  5.504290E-03  1.000000E+00  0.000000E+00  1.000000E+00  0.000000E+00
  0.000305425  3.894470E-02 -1.083170E-02  6.079240E-02  4.184020E-03  1.000000E+00  0.000000E+00  1.000000E+00  0.000000E+00
  0.000307900  3.876140E-02 -1.170320E-02  6.100650E-02  4.921640E-03  1.000000E+00  0.000000E+00  1.000000E+00  0.000000E+00
  0.000310375  3.973190E-02 -1.242690E-02  6.116840E-02  3.915550E-03  1.000000E+00  0.000000E+00  1.000000E+00  0.000000E+00
  0.000312850  3.952050E-02 -1.134360E-02  6.056980E-02  3.590730E-03  1.000000E+00  0.000000E+00  1.000000E+00  0.000000E+00
  0.000315325  3.819560E-02 -1.184820E-02  6.179270E-02  2.576040E-03  1.000000E+00  0.000000E+00  1.000000E+00  0.000000E+00
  0.000317800  3.958430E-02 -9.784580E-03  6.088560E-02  3.004320E-03  1.000000E+00  0.000000E+00  1.000000E+00  0.000000E+00
  0.000320275  3.899980E-02 -1.020190E-02  6.064100E-02  1.988060E-03  1.000000E+00  0.000000E+00  1.000000E+00  0.000000E+00
  0.000322750  3.864380E-02 -1.037890E-02  6.099350E-02  2.016180E-03  1.000000E+00  0.000000E+00  1.000000E+00  0.000000E+00
  0.000325225  3.982650E-02 -1.085620E-02  6.059770E-02  1.295670E-03  1.000000E+00  0.000000E+00  1.000000E+00  0.000000E+00
  0.000327700  4.006440E-02 -1.004370E-02  6.132250E-02  1.930320E-03  1.000000E+00  0.000000E+00  1.000000E+00  0.000000E+00
  0.000330175  3.931910E-02 -1.053110E-02  6.099220E-02  6.676150E-04  1.000000E+00  0.000000E+00  1.000000E+00  0.000000E+00
  0.000332650  3.932230E-02 -9.657020E-03  6.020750E-02  4.431320E-04  1.000000E+00  0.000000E+00  1.000000E+00  0.000000E+00
  0.000335125  3.972510E-02 -1.013110E-02  5.945560E-02 -1.085680E-05  1.000000E+00  0.000000E+00  1.000000E+00  0.000000E+00
  0.000337600  4.022770E-02 -9.841930E-03  6.016640E-02  7.809940E-05  1.000000E+00  0.000000E+00  1.000000E+00  0.000000E+00
  0.000340075  4.028700E-02 -1.082590E-02  6.104500E-02 -1.266160E-04  1.000000E+00  0.000000E+00  1.000000E+00  0.000000E+00
  0.000342550  3.998880E-02 -9.948970E-03  5.926350E-02 -2.990150E-04  1.000000E+00  0.000000E+00  1.000000E+00  0.000000E+00
  0.000345025  4.004040E-02 -1.030660E-02  5.992300E-02 -3.394030E-04  1.000000E+00  0.000000E+00  1.000000E+00  0.000000E+00
  0.000347500  3.978480E-02 -1.023190E-02  5.924130E-02 -3.496710E-04  1.000000E+00  0.000000E+00  1.000000E+00  0.000000E+00
  0.000349975  4.003280E-02 -9.437680E-03  5.984830E-02 -9.748290E-04  1.000000E+00  0.000000E+00  1.000000E+00  0.000000E+00
  0.000352450  4.110240E-02 -9.348230E-03  5.907720E-02 -1.003320E-03  1.000000E+00  0.000000E+00  1.000000E+00  0.000000E+00
  0.000354925  4.058340E-02 -8.325800E-03  5.953910E-02 -1.791330E-03  1.000000E+00  0.000000E+00  1.000000E+00  0.000000E+00
  0.000357400  4.002490E-02 -9.451680E-03  5.964000E-02 -1.148970E-03  1.000000E+00  0.000000E+00  1.000000E+00  0.000000E+00
  0.000359875  4.100220E-02 -8.725160E-03  6.009170E-02 -2.386210E-03  1.000000E+00  0.000000E+00  1.000000E+00  0.000000E+00
  0.000362350  3.988620E-02 -8.919210E-03  5.935340E-02 -2.435860E-03  1.000000E+00  0.000000E+00  1.000000E+00  0.000000E+00
  0.000364825  4.115910E-02 -8.417100E-03  5.929040E-02 -2.893340E-03  1.000000E+00  0.000000E+00  1.000000E+00  0.000000E+00
  0.000367300  4.116980E-02 -9.223470E-03  5.934850E-02 -2.047350E-03  1.000000E+00  0.000000E+00  1.000000E+00  0.000000E+00
  0.000369775  4.033520E-02 -8.472890E-03  5.886020E-02 -3.000100E-03  1.000000E+00  0.000000E+00  1.000000E+00  0.000000E+00
  0.000372250  4.098340E-02 -9.523240E-03  5.892490E-02 -3.534840E-03  1.000000E+00  0.000000E+00  1.000000E+00  0.000000E+00
  0.000374725  4.085440E-02 -8.883380E-03  5.798470E-02 -2.901780E-03  1.000000E+00  0.000000E+00  1.000000E+00  0.000000E+00
  0.000377200  4.098480E-02 -8.854900E-03  5.846280E-02 -3.384760E-03  1.000000E+00  0.000000E+00  1.000000E+00  0.000000E+00
  0.000379675  4.085340E-02 -9.012480E-03  5.788160E-02 -3.318560E-03  1.000000E+00  0.000000E+00  1.000000E+00  0.000000E+00
  0.000382150  4.044270E-02 -8.688670E-03  5.815890E-02 -3.938310E-03  1.000000E+00  0.000000E+00  1.000000E+00  0.000000E+00
  0.000384625  4.236660E-02 -8.497790E-03  5.920900E-02 -2.748230E-03  1.000000E+00  0.000000E+00  1.000000E+00  0.000000E+00
  0.000387100  4.037090E-02 -8.807660E-03  5.876170E-02 -3.397840E-03  1.000000E+00  0.000000E+00  1.000000E+00  0.000000E+00
  0.000389575  4.094440E-02 -8.691380E-03  5.849490E-02 -3.878220E-03  1.000000E+00  0.000000E+00  1.000000E+00  0.000000E+00
  0.000392050  4.102900E-02 -7.334850E-03  5.863210E-02 -3.784760E-03  1.000000E+00  0.000000E+00  1.000000E+00  0.000000E+00
  0.000394525  4.123700E-02 -8.307350E-03  5.879150E-02 -4.150880E-03  1.000000E+00  0.000000E+00  1.000000E+00  0.000000E+00
  0.000397000  4.085660E-02 -8.163210E-03  5.894320E-02 -4.212350E-03  1.000000E+00  0.000000E+00  1.000000E+00  0.000000E+00
  0.000399475  4.188570E-02 -8.078130E-03  5.848130E-02 -4.316500E-03  1.000000E+00  0.000000E+00  1.000000E+00  0.000000E+00
  0.000401950  4.051560E-02 -9.480640E-03  5.869150E-02 -4.261160E-03  1.000000E+00  0.000000E+00  1.000000E+00  0.000000E+00
  0.000404425  4.232790E-02 -7.766310E-03  5.944750E-02 -4.818440E-03  1.000000E+00  0.000000E+00  1.000000E+00  0.000000E+00
  0.000406900  4.177970E-02 -9.098690E-03  5.869390E-02 -5.500600E-03  1.000000E+00  0.000000E+00  1.000000E+00  0.000000E+00
  0.000409375  4.218070E-02 -8.242790E-03  5.911730E-02 -5.608610E-03  1.000000E+00  0.000000E+00  1.000000E+00  0.000000E+00
  0.000411850  4.076860E-02 -9.289950E-03  5.880860E-02 -5.436010E-03  1.000000E+00  0.000000E+00  1.000000E+00  0.000000E+00
  0.000414325  4.171480E-02 -7.622530E-03  5.913030E-02 -6.019670E-03  1.000000E+00  0.000000E+00  1.000000E+00  0.000000E+00
  0.000416800  4.129480E-02 -7.835040E-03  5.937870E-02 -6.215950E-03  1.000000E+00  0.000000E+00  1.000000E+00  0.000000E+00
  0.000419275  4.214770E-02 -8.194620E-03  5.930570E-02 -6.359950E-03  1.000000E+00  0.000000E+00  1.000000E+00  0.000000E+00
  0.000421750  4.261500E-02 -7.664780E-03  5.904980E-02 -6.935140E-03  1.000000E+00  0.000000E+00  1.000000E+00  0.000000E+00
  0.000424225  4.252300E-02 -7.825590E-03  5.899240E-02 -7.457540E-03  1.000000E+00  0.000000E+00  1.000000E+00  0.000000E+00
  0.000426700  4.179190E-02 -7.865830E-03  5.891850E-02 -7.276590E-03  1.000000E+00  0.000000E+00  1.000000E+00  0.000000E+00
  0.000429175  4.162220E-02 -7.619160E-03  5.925210E-02 -7.334060E-03  1.000000E+00  0.000000E+00  1.000000E+00  0.000000E+00
  0.000431650  4.147740E-02 -7.551680E-03  5.877870E-02 -7.397760E-03  1.000000E+00  0.000000E+00  1.000000E+00  0.000000E+00
  0.000434125  4.288570E-02 -7.634050E-03  5.919710E-02 -7.784540E-03  1.000000E+00  0.000000E+00  1.000000E+00  0.000000E+00
  0.000436600  4.136010E-02 -7.276410E-03  5.883550E-02 -8.077840E-03  1.000000E+00  0.000000E+00  1.000000E+00  0.000000E+00
  0.000439075  4.207810E-02 -7.696740E-03  5.928800E-02 -8.530010E-03  1.000000E+00  0.000000E+00  1.000000E+00  0.000000E+00
  0.000441550  4.202260E-02 -7.160140E-03  5.905810E-02 -8.874520E-03  1.000000E+00  0.000000E+00  1.000000E+00  0.000000E+00
  0.000444025  4.150910E-02 -7.236280E-03  5.878700E-02 -9.143690E-03  1.000000E+00  0.000000E+00  1.000000E+00  0.000000E+00
  0.000446500  4.224760E-02 -7.248650E-03  5.936650E-02 -9.310260E-03  1.000000E+00  0.000000E+00  1.000000E+00  0.000000E+00
  0.000448975  4.194720E-02 -6.163010E-03  5.950370E-02 -9.479430E-03  1.000000E+00  0.000000E+00  1.000000E+00  0.000000E+00
  0.000451450  4.220010E-02 -7.241150E-03  5.934370E-02 -9.713320E-03  1.000000E+00  0.000000E+00  1.000000E+00  0.000000E+00
  0.000453925  4.224940E-02 -7.090400E-03  5.919030E-02 -9.496900E-03  1.000000E+00  0.000000E+00  1.000000E+00  0.000000E+00
