! Anritsu VNA Master:                        Model: MS2026C/19
! SN:                                  1815009
! /card0/usr/20180902_52.s2p
! Existing Calibration Information:
! TYPE:                         Current Settings,       Active Cal Settings
! TIME:             	   09/03/2018 01:45:00 AM,    09/02/2018 11:58:48 AM
! INTERNAL TEMP:    	                   49.0 C,                    48.8 C
! # POINTS:         	                     4001,                      4001
! START FREQ:       	              100.000 kHz,               100.000 kHz
! STOP FREQ:        	               10.000 MHz,                10.000 MHz
! SOURCE POWER:     	                      Low,                       Low
! IFBW:             	                   500 Hz,                    500 Hz
! AVG FACTOR:       	                       5 ,                        1 
! REF PLANE 1:      	                     0 mm,                      0 mm
! REF PLANE 2:      	                     0 mm,                      0 mm
! CAL TYPE:         	             1P2P S11,S21,              1P2P S11,S21
! CAL METHOD:       	                     SOLT,                      SOLT
! CAL LINE TYPE:    	                     Coax,                      Coax
! DUT PORT 1:       	                N-Conn(M),                 N-Conn(M)
! DUT PORT 2:       	                N-Conn(M),                 N-Conn(M)
! CAL STATUS:       	        OK: Accuracy High,                        --
# GHZ S RI R 50.0
! FREQ.GHZ      S11RE         S11IM         S21RE         S21IM         S12RE         S12IM         S22RE         S22IM
  0.000100000  6.474190E-03 -6.216040E-02  1.770130E-02  4.333660E-02  1.000000E+00  0.000000E+00  1.000000E+00  0.000000E+00
  0.000102475  8.073330E-03 -5.959150E-02  1.940940E-02  4.264420E-02  1.000000E+00  0.000000E+00  1.000000E+00  0.000000E+00
  0.000104950  8.723270E-03 -5.770880E-02  2.046520E-02  4.217380E-02  1.000000E+00  0.000000E+00  1.000000E+00  0.000000E+00
  0.000107425  1.066420E-02 -5.571580E-02  2.224950E-02  4.174510E-02  1.000000E+00  0.000000E+00  1.000000E+00  0.000000E+00
  0.000109900  1.151420E-02 -5.381520E-02  2.355840E-02  4.154900E-02  1.000000E+00  0.000000E+00  1.000000E+00  0.000000E+00
  0.000112375  1.202990E-02 -5.167830E-02  2.571130E-02  4.073330E-02  1.000000E+00  0.000000E+00  1.000000E+00  0.000000E+00
  0.000114850  1.358580E-02 -5.044030E-02  2.662440E-02  3.972320E-02  1.000000E+00  0.000000E+00  1.000000E+00  0.000000E+00
  0.000117325  1.522840E-02 -4.899460E-02  2.700400E-02  3.907240E-02  1.000000E+00  0.000000E+00  1.000000E+00  0.000000E+00
  0.000119800  1.484020E-02 -4.690630E-02  2.810970E-02  3.811490E-02  1.000000E+00  0.000000E+00  1.000000E+00  0.000000E+00
  0.000122275  1.572370E-02 -4.501580E-02  3.067870E-02  3.759980E-02  1.000000E+00  0.000000E+00  1.000000E+00  0.000000E+00
  0.000124750  1.766140E-02 -4.484280E-02  3.090860E-02  3.705940E-02  1.000000E+00  0.000000E+00  1.000000E+00  0.000000E+00
  0.000127225  1.662940E-02 -4.271660E-02  3.181430E-02  3.555070E-02  1.000000E+00  0.000000E+00  1.000000E+00  0.000000E+00
  0.000129700  1.839870E-02 -4.012820E-02  3.264190E-02  3.496690E-02  1.000000E+00  0.000000E+00  1.000000E+00  0.000000E+00
  0.000132175  1.943860E-02 -4.062660E-02  3.449070E-02  3.397920E-02  1.000000E+00  0.000000E+00  1.000000E+00  0.000000E+00
  0.000134650  1.991230E-02 -3.969450E-02  3.446320E-02  3.298440E-02  1.000000E+00  0.000000E+00  1.000000E+00  0.000000E+00
  0.000137125  2.017490E-02 -3.815280E-02  3.480920E-02  3.299530E-02  1.000000E+00  0.000000E+00  1.000000E+00  0.000000E+00
  0.000139600  2.085740E-02 -3.731670E-02  3.598130E-02  3.183570E-02  1.000000E+00  0.000000E+00  1.000000E+00  0.000000E+00
  0.000142075  2.218740E-02 -3.639840E-02  3.610170E-02  3.024810E-02  1.000000E+00  0.000000E+00  1.000000E+00  0.000000E+00
  0.000144550  2.235910E-02 -3.586010E-02  3.652330E-02  2.938520E-02  1.000000E+00  0.000000E+00  1.000000E+00  0.000000E+00
  0.000147025  2.298910E-02 -3.419510E-02  3.716280E-02  2.945740E-02  1.000000E+00  0.000000E+00  1.000000E+00  0.000000E+00
  0.000149500  2.401150E-02 -3.402130E-02  3.783250E-02  2.877860E-02  1.000000E+00  0.000000E+00  1.000000E+00  0.000000E+00
  0.000151975  2.383740E-02 -3.320610E-02  3.803950E-02  2.843550E-02  1.000000E+00  0.000000E+00  1.000000E+00  0.000000E+00
  0.000154450  2.455970E-02 -3.051440E-02  3.809820E-02  2.698130E-02  1.000000E+00  0.000000E+00  1.000000E+00  0.000000E+00
  0.000156925  2.540330E-02 -3.062220E-02  3.852280E-02  2.648970E-02  1.000000E+00  0.000000E+00  1.000000E+00  0.000000E+00
  0.000159400  2.492260E-02 -3.063570E-02  3.930040E-02  2.585590E-02  1.000000E+00  0.000000E+00  1.000000E+00  0.000000E+00
  0.000161875  2.561500E-02 -2.982760E-02  3.921360E-02  2.550430E-02  1.000000E+00  0.000000E+00  1.000000E+00  0.000000E+00
  0.000164350  2.641880E-02 -2.936310E-02  3.961250E-02  2.470600E-02  1.000000E+00  0.000000E+00  1.000000E+00  0.000000E+00
  0.000166825  2.589540E-02 -2.911900E-02  3.944840E-02  2.439790E-02  1.000000E+00  0.000000E+00  1.000000E+00  0.000000E+00
  0.000169300  2.698470E-02 -2.832020E-02  4.057990E-02  2.400120E-02  1.000000E+00  0.000000E+00  1.000000E+00  0.000000E+00
  0.000171775  2.710280E-02 -2.658810E-02  4.076000E-02  2.354250E-02  1.000000E+00  0.000000E+00  1.000000E+00  0.000000E+00
  0.000174250  2.732580E-02 -2.657200E-02  4.090540E-02  2.274750E-02  1.000000E+00  0.000000E+00  1.000000E+00  0.000000E+00
  0.000176725  2.805500E-02 -2.634820E-02  4.134000E-02  2.252620E-02  1.000000E+00  0.000000E+00  1.000000E+00  0.000000E+00
  0.000179200  2.784140E-02 -2.522100E-02  4.181460E-02  2.155860E-02  1.000000E+00  0.000000E+00  1.000000E+00  0.000000E+00
  0.000181675  2.829250E-02 -2.586400E-02  4.159620E-02  2.117150E-02  1.000000E+00  0.000000E+00  1.000000E+00  0.000000E+00
  0.000184150  2.855950E-02 -2.424370E-02  4.188930E-02  2.089090E-02  1.000000E+00  0.000000E+00  1.000000E+00  0.000000E+00
  0.000186625  2.952680E-02 -2.415020E-02  4.199230E-02  2.048910E-02  1.000000E+00  0.000000E+00  1.000000E+00  0.000000E+00
  0.000189100  2.931310E-02 -2.321410E-02  4.212570E-02  2.000250E-02  1.000000E+00  0.000000E+00  1.000000E+00  0.000000E+00
  0.000191575  2.881860E-02 -2.410720E-02  4.242300E-02  1.931750E-02  1.000000E+00  0.000000E+00  1.000000E+00  0.000000E+00
  0.000194050  3.009010E-02 -2.282820E-02  4.277860E-02  1.928320E-02  1.000000E+00  0.000000E+00  1.000000E+00  0.000000E+00
  0.000196525  3.049350E-02 -2.234270E-02  4.302900E-02  1.851990E-02  1.000000E+00  0.000000E+00  1.000000E+00  0.000000E+00
  0.000199000  3.057430E-02 -2.147770E-02  4.319050E-02  1.787660E-02  1.000000E+00  0.000000E+00  1.000000E+00  0.000000E+00
  0.000201475  3.077100E-02 -2.107430E-02  4.333850E-02  1.694880E-02  1.000000E+00  0.000000E+00  1.000000E+00  0.000000E+00
  0.000203950  3.016610E-02 -2.099910E-02  4.376860E-02  1.693200E-02  1.000000E+00  0.000000E+00  1.000000E+00  0.000000E+00
  0.000206425  3.153810E-02 -2.052010E-02  4.379030E-02  1.651550E-02  1.000000E+00  0.000000E+00  1.000000E+00  0.000000E+00
  0.000208900  3.077820E-02 -2.035510E-02  4.392520E-02  1.660990E-02  1.000000E+00  0.000000E+00  1.000000E+00  0.000000E+00
  0.000211375  3.266700E-02 -2.037900E-02  4.350630E-02  1.588960E-02  1.000000E+00  0.000000E+00  1.000000E+00  0.000000E+00
  0.000213850  3.144630E-02 -1.907950E-02  4.472200E-02  1.534060E-02  1.000000E+00  0.000000E+00  1.000000E+00  0.000000E+00
  0.000216325  3.174820E-02 -1.944600E-02  4.449910E-02  1.456590E-02  1.000000E+00  0.000000E+00  1.000000E+00  0.000000E+00
  0.000218800  3.247350E-02 -1.913580E-02  4.427870E-02  1.443980E-02  1.000000E+00  0.000000E+00  1.000000E+00  0.000000E+00
  0.000221275  3.333400E-02 -1.824550E-02  4.479000E-02  1.417290E-02  1.000000E+00  0.000000E+00  1.000000E+00  0.000000E+00
  0.000223750  3.291170E-02 -1.822210E-02  4.458090E-02  1.348770E-02  1.000000E+00  0.000000E+00  1.000000E+00  0.000000E+00
  0.000226225  3.312450E-02 -1.725100E-02  4.482650E-02  1.313720E-02  1.000000E+00  0.000000E+00  1.000000E+00  0.000000E+00
  0.000228700  3.211500E-02 -1.864370E-02  4.495380E-02  1.268970E-02  1.000000E+00  0.000000E+00  1.000000E+00  0.000000E+00
  0.000231175  3.290230E-02 -1.735870E-02  4.484470E-02  1.251030E-02  1.000000E+00  0.000000E+00  1.000000E+00  0.000000E+00
  0.000233650  3.341390E-02 -1.702550E-02  4.541900E-02  1.257010E-02  1.000000E+00  0.000000E+00  1.000000E+00  0.000000E+00
  0.000236125  3.305830E-02 -1.584480E-02  4.509790E-02  1.186720E-02  1.000000E+00  0.000000E+00  1.000000E+00  0.000000E+00
  0.000238600  3.419380E-02 -1.596360E-02  4.539340E-02  1.149680E-02  1.000000E+00  0.000000E+00  1.000000E+00  0.000000E+00
  0.000241075  3.322360E-02 -1.613250E-02  4.532120E-02  1.101670E-02  1.000000E+00  0.000000E+00  1.000000E+00  0.000000E+00
  0.000243550  3.340500E-02 -1.542220E-02  4.561450E-02  1.001690E-02  1.000000E+00  0.000000E+00  1.000000E+00  0.000000E+00
  0.000246025  3.379250E-02 -1.583650E-02  4.530550E-02  1.031090E-02  1.000000E+00  0.000000E+00  1.000000E+00  0.000000E+00
  0.000248500  3.466170E-02 -1.547640E-02  4.598640E-02  9.582110E-03  1.000000E+00  0.000000E+00  1.000000E+00  0.000000E+00
  0.000250975  3.462050E-02 -1.594770E-02  4.535110E-02  9.575990E-03  1.000000E+00  0.000000E+00  1.000000E+00  0.000000E+00
  0.000253450  3.500700E-02 -1.427010E-02  4.624240E-02  9.019820E-03  1.000000E+00  0.000000E+00  1.000000E+00  0.000000E+00
  0.000255925  3.419650E-02 -1.380440E-02  4.576030E-02  8.313620E-03  1.000000E+00  0.000000E+00  1.000000E+00  0.000000E+00
  0.000258400  3.501710E-02 -1.430660E-02  4.608610E-02  7.674200E-03  1.000000E+00  0.000000E+00  1.000000E+00  0.000000E+00
  0.000260875  3.520250E-02 -1.423530E-02  4.569820E-02  8.064260E-03  1.000000E+00  0.000000E+00  1.000000E+00  0.000000E+00
  0.000263350  3.456040E-02 -1.279630E-02  4.560190E-02  7.205400E-03  1.000000E+00  0.000000E+00  1.000000E+00  0.000000E+00
  0.000265825  3.472750E-02 -1.319900E-02  4.574620E-02  7.210440E-03  1.000000E+00  0.000000E+00  1.000000E+00  0.000000E+00
  0.000268300  3.588780E-02 -1.379200E-02  4.661960E-02  7.341090E-03  1.000000E+00  0.000000E+00  1.000000E+00  0.000000E+00
  0.000270775  3.548270E-02 -1.252760E-02  4.598970E-02  6.459350E-03  1.000000E+00  0.000000E+00  1.000000E+00  0.000000E+00
  0.000273250  3.598990E-02 -1.236960E-02  4.625290E-02  6.255540E-03  1.000000E+00  0.000000E+00  1.000000E+00  0.000000E+00
  0.000275725  3.560520E-02 -1.249190E-02  4.621540E-02  6.250460E-03  1.000000E+00  0.000000E+00  1.000000E+00  0.000000E+00
  0.000278200  3.646780E-02 -1.252820E-02  4.659210E-02  5.375010E-03  1.000000E+00  0.000000E+00  1.000000E+00  0.000000E+00
  0.000280675  3.590750E-02 -1.272430E-02  4.511510E-02  4.707190E-03  1.000000E+00  0.000000E+00  1.000000E+00  0.000000E+00
  0.000283150  3.596300E-02 -1.228420E-02  4.553910E-02  4.957610E-03  1.000000E+00  0.000000E+00  1.000000E+00  0.000000E+00
  0.000285625  3.584930E-02 -1.258170E-02  4.569790E-02  5.210530E-03  1.000000E+00  0.000000E+00  1.000000E+00  0.000000E+00
  0.000288100  3.610820E-02 -1.123750E-02  4.598220E-02  4.228860E-03  1.000000E+00  0.000000E+00  1.000000E+00  0.000000E+00
  0.000290575  3.662290E-02 -1.071210E-02  4.607480E-02  3.121060E-03  1.000000E+00  0.000000E+00  1.000000E+00  0.000000E+00
  0.000293050  3.663950E-02 -1.090820E-02  4.591850E-02  2.769690E-03  1.000000E+00  0.000000E+00  1.000000E+00  0.000000E+00
  0.000295525  3.742700E-02 -1.019780E-02  4.578280E-02  3.270720E-03  1.000000E+00  0.000000E+00  1.000000E+00  0.000000E+00
  0.000298000  3.592970E-02 -1.183310E-02  4.568750E-02  2.945060E-03  1.000000E+00  0.000000E+00  1.000000E+00  0.000000E+00
  0.000300475  3.783310E-02 -1.119470E-02  4.566230E-02  3.102410E-03  1.000000E+00  0.000000E+00  1.000000E+00  0.000000E+00
  0.000302950  3.674210E-02 -9.638170E-03  4.588420E-02  2.233860E-03  1.000000E+00  0.000000E+00  1.000000E+00  0.000000E+00
  0.000305425  3.762710E-02 -9.822520E-03  4.558350E-02  1.893560E-03  1.000000E+00  0.000000E+00  1.000000E+00  0.000000E+00
  0.000307900  3.799280E-02 -1.019920E-02  4.605380E-02  1.559900E-03  1.000000E+00  0.000000E+00  1.000000E+00  0.000000E+00
  0.000310375  3.833680E-02 -1.063740E-02  4.617600E-02  1.849150E-03  1.000000E+00  0.000000E+00  1.000000E+00  0.000000E+00
  0.000312850  3.896030E-02 -9.744670E-03  4.559110E-02  9.291080E-04  1.000000E+00  0.000000E+00  1.000000E+00  0.000000E+00
  0.000315325  3.703640E-02 -1.007520E-02  4.616050E-02  7.377600E-04  1.000000E+00  0.000000E+00  1.000000E+00  0.000000E+00
  0.000317800  3.863780E-02 -7.924060E-03  4.571270E-02  9.126930E-04  1.000000E+00  0.000000E+00  1.000000E+00  0.000000E+00
  0.000320275  3.809100E-02 -8.464110E-03  4.567850E-02  7.674650E-04  1.000000E+00  0.000000E+00  1.000000E+00  0.000000E+00
  0.000322750  3.808940E-02 -9.009480E-03  4.508460E-02  9.012200E-05  1.000000E+00  0.000000E+00  1.000000E+00  0.000000E+00
  0.000325225  3.858810E-02 -8.801590E-03  4.546660E-02 -6.533350E-04  1.000000E+00  0.000000E+00  1.000000E+00  0.000000E+00
  0.000327700  3.848920E-02 -8.062950E-03  4.590050E-02 -2.097740E-04  1.000000E+00  0.000000E+00  1.000000E+00  0.000000E+00
  0.000330175  3.923080E-02 -8.981880E-03  4.493060E-02 -6.226440E-04  1.000000E+00  0.000000E+00  1.000000E+00  0.000000E+00
  0.000332650  3.778730E-02 -8.214920E-03  4.542730E-02 -1.119450E-03  1.000000E+00  0.000000E+00  1.000000E+00  0.000000E+00
  0.000335125  3.928090E-02 -8.615470E-03  4.440710E-02 -1.419670E-03  1.000000E+00  0.000000E+00  1.000000E+00  0.000000E+00
  0.000337600  3.904700E-02 -8.685720E-03  4.536370E-02 -1.037230E-03  1.000000E+00  0.000000E+00  1.000000E+00  0.000000E+00
  0.000340075  3.949730E-02 -8.964530E-03  4.503680E-02 -2.116880E-03  1.000000E+00  0.000000E+00  1.000000E+00  0.000000E+00
  0.000342550  3.906860E-02 -8.535790E-03  4.478260E-02 -2.012020E-03  1.000000E+00  0.000000E+00  1.000000E+00  0.000000E+00
  0.000345025  3.924910E-02 -9.260300E-03  4.412920E-02 -2.472920E-03  1.000000E+00  0.000000E+00  1.000000E+00  0.000000E+00
  0.000347500  3.958900E-02 -8.341890E-03  4.406530E-02 -2.154200E-03  1.000000E+00  0.000000E+00  1.000000E+00  0.000000E+00
  0.000349975  3.987240E-02 -7.564320E-03  4.471510E-02 -2.290100E-03  1.000000E+00  0.000000E+00  1.000000E+00  0.000000E+00
  0.000352450  4.055220E-02 -7.788790E-03  4.492020E-02 -2.970620E-03  1.000000E+00  0.000000E+00  1.000000E+00  0.000000E+00
  0.000354925  4.069770E-02 -7.704460E-03  4.419940E-02 -2.756490E-03  1.000000E+00  0.000000E+00  1.000000E+00  0.000000E+00
  0.000357400  3.946490E-02 -7.818330E-03  4.371260E-02 -2.107860E-03  1.000000E+00  0.000000E+00  1.000000E+00  0.000000E+00
  0.000359875  4.092120E-02 -7.906980E-03  4.408510E-02 -3.458080E-03  1.000000E+00  0.000000E+00  1.000000E+00  0.000000E+00
  0.000362350  4.108740E-02 -8.043630E-03  4.415080E-02 -3.402330E-03  1.000000E+00  0.000000E+00  1.000000E+00  0.000000E+00
  0.000364825  4.082430E-02 -6.055700E-03  4.364270E-02 -3.377900E-03  1.000000E+00  0.000000E+00  1.000000E+00  0.000000E+00
  0.000367300  4.126840E-02 -8.067570E-03  4.286220E-02 -2.862160E-03  1.000000E+00  0.000000E+00  1.000000E+00  0.000000E+00
  0.000369775  4.074720E-02 -6.846630E-03  4.370550E-02 -3.777450E-03  1.000000E+00  0.000000E+00  1.000000E+00  0.000000E+00
  0.000372250  4.125720E-02 -7.620300E-03  4.402900E-02 -4.497020E-03  1.000000E+00  0.000000E+00  1.000000E+00  0.000000E+00
  0.000374725  4.053950E-02 -7.420130E-03  4.381040E-02 -4.353430E-03  1.000000E+00  0.000000E+00  1.000000E+00  0.000000E+00
  0.000377200  4.089870E-02 -7.164680E-03  4.337980E-02 -3.778470E-03  1.000000E+00  0.000000E+00  1.000000E+00  0.000000E+00
  0.000379675  4.124180E-02 -8.238250E-03  4.441310E-02 -4.314090E-03  1.000000E+00  0.000000E+00  1.000000E+00  0.000000E+00
  0.000382150  4.154470E-02 -7.740830E-03  4.338580E-02 -4.569890E-03  1.000000E+00  0.000000E+00  1.000000E+00  0.000000E+00
  0.000384625  4.170770E-02 -7.787140E-03  4.379130E-02 -4.821690E-03  1.000000E+00  0.000000E+00  1.000000E+00  0.000000E+00
  0.000387100  3.972660E-02 -7.234520E-03  4.384820E-02 -4.053840E-03  1.000000E+00  0.000000E+00  1.000000E+00  0.000000E+00
  0.000389575  4.141020E-02 -7.415510E-03  4.288790E-02 -4.450520E-03  1.000000E+00  0.000000E+00  1.000000E+00  0.000000E+00
  0.000392050  4.117360E-02 -6.494190E-03  4.315870E-02 -5.035060E-03  1.000000E+00  0.000000E+00  1.000000E+00  0.000000E+00
  0.000394525  4.149770E-02 -6.952060E-03  4.373890E-02 -5.224900E-03  1.000000E+00  0.000000E+00  1.000000E+00  0.000000E+00
  0.000397000  4.119420E-02 -7.011230E-03  4.395020E-02 -4.703570E-03  1.000000E+00  0.000000E+00  1.000000E+00  0.000000E+00
  0.000399475  4.214210E-02 -8.054450E-03  4.356450E-02 -4.505660E-03  1.000000E+00  0.000000E+00  1.000000E+00  0.000000E+00
  0.000401950  4.134870E-02 -7.032250E-03  4.339750E-02 -5.668070E-03  1.000000E+00  0.000000E+00  1.000000E+00  0.000000E+00
  0.000404425  4.243110E-02 -6.342640E-03  4.392980E-02 -5.887940E-03  1.000000E+00  0.000000E+00  1.000000E+00  0.000000E+00
  0.000406900  4.233370E-02 -7.830670E-03  4.364960E-02 -5.783800E-03  1.000000E+00  0.000000E+00  1.000000E+00  0.000000E+00
  0.000409375  4.221580E-02 -7.740400E-03  4.356860E-02 -5.637740E-03  1.000000E+00  0.000000E+00  1.000000E+00  0.000000E+00
  0.000411850  4.111770E-02 -8.534370E-03  4.318380E-02 -7.068200E-03  1.000000E+00  0.000000E+00  1.000000E+00  0.000000E+00
  0.000414325  4.232080E-02 -6.762410E-03  4.315350E-02 -6.131570E-03  1.000000E+00  0.000000E+00  1.000000E+00  0.000000E+00
  0.000416800  4.229640E-02 -6.647980E-03  4.366830E-02 -6.415380E-03  1.000000E+00  0.000000E+00  1.000000E+00  0.000000E+00
  0.000419275  4.231940E-02 -7.106790E-03  4.379580E-02 -6.284190E-03  1.000000E+00  0.000000E+00  1.000000E+00  0.000000E+00
  0.000421750  4.301160E-02 -6.786080E-03  4.342470E-02 -6.402780E-03  1.000000E+00  0.000000E+00  1.000000E+00  0.000000E+00
  0.000424225  4.305640E-02 -6.257340E-03  4.361470E-02 -7.121280E-03  1.000000E+00  0.000000E+00  1.000000E+00  0.000000E+00
  0.000426700  4.232770E-02 -7.111660E-03  4.321840E-02 -7.542010E-03  1.000000E+00  0.000000E+00  1.000000E+00  0.000000E+00
  0.000429175  4.206510E-02 -7.708240E-03  4.341630E-02 -7.786300E-03  1.000000E+00  0.000000E+00  1.000000E+00  0.000000E+00
  0.000431650  4.239920E-02 -7.053770E-03  4.379160E-02 -7.615300E-03  1.000000E+00  0.000000E+00  1.000000E+00  0.000000E+00
  0.000434125  4.324140E-02 -7.225090E-03  4.306080E-02 -6.813770E-03  1.000000E+00  0.000000E+00  1.000000E+00  0.000000E+00
  0.000436600  4.193530E-02 -7.302600E-03  4.337200E-02 -7.310170E-03  1.000000E+00  0.000000E+00  1.000000E+00  0.000000E+00
  0.000439075  4.246720E-02 -6.377130E-03  4.262450E-02 -7.813080E-03  1.000000E+00  0.000000E+00  1.000000E+00  0.000000E+00
  0.000441550  4.228670E-02 -5.657290E-03  4.316960E-02 -8.187470E-03  1.000000E+00  0.000000E+00  1.000000E+00  0.000000E+00
  0.000444025  4.189760E-02 -6.094790E-03  4.320710E-02 -8.607860E-03  1.000000E+00  0.000000E+00  1.000000E+00  0.000000E+00
  0.000446500  4.207090E-02 -6.554170E-03  4.292540E-02 -8.159720E-03  1.000000E+00  0.000000E+00  1.000000E+00  0.000000E+00
  0.000448975  4.208670E-02 -5.783900E-03  4.300940E-02 -7.972360E-03  1.000000E+00  0.000000E+00  1.000000E+00  0.000000E+00
  0.000451450  4.317760E-02 -7.220080E-03  4.338940E-02 -9.011850E-03  1.000000E+00  0.000000E+00  1.000000E+00  0.000000E+00
  0.000453925  4.213120E-02 -6.779720E-03  4.291940E-02 -9.390170E-03  1.000000E+00  0.000000E+00  1.000000E+00  0.000000E+00
