! Anritsu VNA Master:                        Model: MS2026C/19
! SN:                                  1815009
! /card0/usr/20180902_24.s2p
! Existing Calibration Information:
! TYPE:                         Current Settings,       Active Cal Settings
! TIME:             	   09/02/2018 06:06:24 PM,    09/02/2018 11:58:48 AM
! INTERNAL TEMP:    	                   46.5 C,                    48.8 C
! # POINTS:         	                     4001,                      4001
! START FREQ:       	              100.000 kHz,               100.000 kHz
! STOP FREQ:        	               10.000 MHz,                10.000 MHz
! SOURCE POWER:     	                      Low,                       Low
! IFBW:             	                   500 Hz,                    500 Hz
! AVG FACTOR:       	                       5 ,                        1 
! REF PLANE 1:      	                     0 mm,                      0 mm
! REF PLANE 2:      	                     0 mm,                      0 mm
! CAL TYPE:         	             1P2P S11,S21,              1P2P S11,S21
! CAL METHOD:       	                     SOLT,                      SOLT
! CAL LINE TYPE:    	                     Coax,                      Coax
! DUT PORT 1:       	                N-Conn(M),                 N-Conn(M)
! DUT PORT 2:       	                N-Conn(M),                 N-Conn(M)
! CAL STATUS:       	        OK: Accuracy High,                        --
# GHZ S RI R 50.0
! FREQ.GHZ      S11RE         S11IM         S21RE         S21IM         S12RE         S12IM         S22RE         S22IM
  0.000100000  7.729160E-03 -6.018280E-02  3.886660E-01  8.916320E-01  1.000000E+00  0.000000E+00  1.000000E+00  0.000000E+00
  0.000102475  9.442820E-03 -5.766810E-02  4.171930E-01  8.822340E-01  1.000000E+00  0.000000E+00  1.000000E+00  0.000000E+00
  0.000104950  9.785250E-03 -5.561970E-02  4.463260E-01  8.712560E-01  1.000000E+00  0.000000E+00  1.000000E+00  0.000000E+00
  0.000107425  1.175310E-02 -5.348130E-02  4.754360E-01  8.603510E-01  1.000000E+00  0.000000E+00  1.000000E+00  0.000000E+00
  0.000109900  1.282640E-02 -5.228700E-02  5.016900E-01  8.494440E-01  1.000000E+00  0.000000E+00  1.000000E+00  0.000000E+00
  0.000112375  1.347120E-02 -5.052080E-02  5.261290E-01  8.346120E-01  1.000000E+00  0.000000E+00  1.000000E+00  0.000000E+00
  0.000114850  1.420640E-02 -4.929130E-02  5.495010E-01  8.205630E-01  1.000000E+00  0.000000E+00  1.000000E+00  0.000000E+00
  0.000117325  1.609430E-02 -4.749710E-02  5.725600E-01  8.053920E-01  1.000000E+00  0.000000E+00  1.000000E+00  0.000000E+00
  0.000119800  1.706000E-02 -4.538720E-02  5.925940E-01  7.909400E-01  1.000000E+00  0.000000E+00  1.000000E+00  0.000000E+00
  0.000122275  1.741760E-02 -4.343230E-02  6.125820E-01  7.773170E-01  1.000000E+00  0.000000E+00  1.000000E+00  0.000000E+00
  0.000124750  1.860350E-02 -4.385840E-02  6.321460E-01  7.641460E-01  1.000000E+00  0.000000E+00  1.000000E+00  0.000000E+00
  0.000127225  1.818120E-02 -4.172170E-02  6.480810E-01  7.499240E-01  1.000000E+00  0.000000E+00  1.000000E+00  0.000000E+00
  0.000129700  1.912070E-02 -3.891650E-02  6.664790E-01  7.344530E-01  1.000000E+00  0.000000E+00  1.000000E+00  0.000000E+00
  0.000132175  1.990560E-02 -3.975210E-02  6.830300E-01  7.220740E-01  1.000000E+00  0.000000E+00  1.000000E+00  0.000000E+00
  0.000134650  2.092100E-02 -3.922630E-02  6.976100E-01  7.089370E-01  1.000000E+00  0.000000E+00  1.000000E+00  0.000000E+00
  0.000137125  2.139630E-02 -3.734520E-02  7.119550E-01  6.940950E-01  1.000000E+00  0.000000E+00  1.000000E+00  0.000000E+00
  0.000139600  2.232410E-02 -3.706980E-02  7.279730E-01  6.810280E-01  1.000000E+00  0.000000E+00  1.000000E+00  0.000000E+00
  0.000142075  2.291300E-02 -3.578620E-02  7.407690E-01  6.682710E-01  1.000000E+00  0.000000E+00  1.000000E+00  0.000000E+00
  0.000144550  2.282400E-02 -3.468470E-02  7.489820E-01  6.520550E-01  1.000000E+00  0.000000E+00  1.000000E+00  0.000000E+00
  0.000147025  2.374420E-02 -3.303360E-02  7.611970E-01  6.397490E-01  1.000000E+00  0.000000E+00  1.000000E+00  0.000000E+00
  0.000149500  2.446480E-02 -3.310220E-02  7.714210E-01  6.291860E-01  1.000000E+00  0.000000E+00  1.000000E+00  0.000000E+00
  0.000151975  2.390750E-02 -3.201620E-02  7.833260E-01  6.144430E-01  1.000000E+00  0.000000E+00  1.000000E+00  0.000000E+00
  0.000154450  2.543010E-02 -3.022430E-02  7.923750E-01  6.020300E-01  1.000000E+00  0.000000E+00  1.000000E+00  0.000000E+00
  0.000156925  2.625880E-02 -2.980150E-02  8.006620E-01  5.903920E-01  1.000000E+00  0.000000E+00  1.000000E+00  0.000000E+00
  0.000159400  2.528640E-02 -2.943290E-02  8.112750E-01  5.767710E-01  1.000000E+00  0.000000E+00  1.000000E+00  0.000000E+00
  0.000161875  2.678700E-02 -2.985320E-02  8.199060E-01  5.665260E-01  1.000000E+00  0.000000E+00  1.000000E+00  0.000000E+00
  0.000164350  2.708840E-02 -2.921210E-02  8.270900E-01  5.556610E-01  1.000000E+00  0.000000E+00  1.000000E+00  0.000000E+00
  0.000166825  2.707180E-02 -2.816980E-02  8.343110E-01  5.432940E-01  1.000000E+00  0.000000E+00  1.000000E+00  0.000000E+00
  0.000169300  2.774370E-02 -2.757830E-02  8.434070E-01  5.306040E-01  1.000000E+00  0.000000E+00  1.000000E+00  0.000000E+00
  0.000171775  2.764940E-02 -2.615960E-02  8.490720E-01  5.196190E-01  1.000000E+00  0.000000E+00  1.000000E+00  0.000000E+00
  0.000174250  2.770380E-02 -2.540070E-02  8.555070E-01  5.084440E-01  1.000000E+00  0.000000E+00  1.000000E+00  0.000000E+00
  0.000176725  2.895630E-02 -2.565710E-02  8.619480E-01  4.987910E-01  1.000000E+00  0.000000E+00  1.000000E+00  0.000000E+00
  0.000179200  2.869280E-02 -2.491800E-02  8.693340E-01  4.875560E-01  1.000000E+00  0.000000E+00  1.000000E+00  0.000000E+00
  0.000181675  2.835020E-02 -2.484890E-02  8.744280E-01  4.768310E-01  1.000000E+00  0.000000E+00  1.000000E+00  0.000000E+00
  0.000184150  2.921720E-02 -2.383810E-02  8.815860E-01  4.654390E-01  1.000000E+00  0.000000E+00  1.000000E+00  0.000000E+00
  0.000186625  2.931560E-02 -2.351440E-02  8.849160E-01  4.549150E-01  1.000000E+00  0.000000E+00  1.000000E+00  0.000000E+00
  0.000189100  2.895070E-02 -2.258120E-02  8.887850E-01  4.438540E-01  1.000000E+00  0.000000E+00  1.000000E+00  0.000000E+00
  0.000191575  2.921170E-02 -2.350360E-02  8.957380E-01  4.360770E-01  1.000000E+00  0.000000E+00  1.000000E+00  0.000000E+00
  0.000194050  2.982860E-02 -2.197750E-02  9.002070E-01  4.261620E-01  1.000000E+00  0.000000E+00  1.000000E+00  0.000000E+00
  0.000196525  3.094890E-02 -2.218100E-02  9.028620E-01  4.129570E-01  1.000000E+00  0.000000E+00  1.000000E+00  0.000000E+00
  0.000199000  3.183000E-02 -2.070330E-02  9.070450E-01  4.067220E-01  1.000000E+00  0.000000E+00  1.000000E+00  0.000000E+00
  0.000201475  3.076020E-02 -2.004460E-02  9.112420E-01  3.968990E-01  1.000000E+00  0.000000E+00  1.000000E+00  0.000000E+00
  0.000203950  3.081950E-02 -1.998370E-02  9.151150E-01  3.877210E-01  1.000000E+00  0.000000E+00  1.000000E+00  0.000000E+00
  0.000206425  3.170970E-02 -1.970840E-02  9.189130E-01  3.785060E-01  1.000000E+00  0.000000E+00  1.000000E+00  0.000000E+00
  0.000208900  3.115160E-02 -1.961230E-02  9.208320E-01  3.687900E-01  1.000000E+00  0.000000E+00  1.000000E+00  0.000000E+00
  0.000211375  3.245390E-02 -1.940260E-02  9.240080E-01  3.601620E-01  1.000000E+00  0.000000E+00  1.000000E+00  0.000000E+00
  0.000213850  3.196340E-02 -1.871290E-02  9.284430E-01  3.517290E-01  1.000000E+00  0.000000E+00  1.000000E+00  0.000000E+00
  0.000216325  3.237070E-02 -1.912300E-02  9.317790E-01  3.417910E-01  1.000000E+00  0.000000E+00  1.000000E+00  0.000000E+00
  0.000218800  3.213230E-02 -1.814660E-02  9.318820E-01  3.349480E-01  1.000000E+00  0.000000E+00  1.000000E+00  0.000000E+00
  0.000221275  3.403700E-02 -1.742290E-02  9.344100E-01  3.271620E-01  1.000000E+00  0.000000E+00  1.000000E+00  0.000000E+00
  0.000223750  3.366840E-02 -1.809850E-02  9.381910E-01  3.189090E-01  1.000000E+00  0.000000E+00  1.000000E+00  0.000000E+00
  0.000226225  3.351260E-02 -1.702660E-02  9.414970E-01  3.098560E-01  1.000000E+00  0.000000E+00  1.000000E+00  0.000000E+00
  0.000228700  3.374810E-02 -1.757940E-02  9.435950E-01  3.019990E-01  1.000000E+00  0.000000E+00  1.000000E+00  0.000000E+00
  0.000231175  3.342580E-02 -1.713510E-02  9.441620E-01  2.946150E-01  1.000000E+00  0.000000E+00  1.000000E+00  0.000000E+00
  0.000233650  3.392160E-02 -1.635620E-02  9.469420E-01  2.857450E-01  1.000000E+00  0.000000E+00  1.000000E+00  0.000000E+00
  0.000236125  3.376260E-02 -1.616700E-02  9.482320E-01  2.789570E-01  1.000000E+00  0.000000E+00  1.000000E+00  0.000000E+00
  0.000238600  3.435430E-02 -1.577720E-02  9.493920E-01  2.720940E-01  1.000000E+00  0.000000E+00  1.000000E+00  0.000000E+00
  0.000241075  3.441600E-02 -1.518300E-02  9.528850E-01  2.642030E-01  1.000000E+00  0.000000E+00  1.000000E+00  0.000000E+00
  0.000243550  3.388510E-02 -1.503830E-02  9.518710E-01  2.556840E-01  1.000000E+00  0.000000E+00  1.000000E+00  0.000000E+00
  0.000246025  3.492400E-02 -1.497950E-02  9.557610E-01  2.495400E-01  1.000000E+00  0.000000E+00  1.000000E+00  0.000000E+00
  0.000248500  3.503060E-02 -1.489760E-02  9.573810E-01  2.414580E-01  1.000000E+00  0.000000E+00  1.000000E+00  0.000000E+00
  0.000250975  3.587860E-02 -1.543850E-02  9.581860E-01  2.327440E-01  1.000000E+00  0.000000E+00  1.000000E+00  0.000000E+00
  0.000253450  3.591370E-02 -1.383850E-02  9.612550E-01  2.297920E-01  1.000000E+00  0.000000E+00  1.000000E+00  0.000000E+00
  0.000255925  3.520740E-02 -1.350630E-02  9.599430E-01  2.223290E-01  1.000000E+00  0.000000E+00  1.000000E+00  0.000000E+00
  0.000258400  3.583480E-02 -1.417690E-02  9.613980E-01  2.128720E-01  1.000000E+00  0.000000E+00  1.000000E+00  0.000000E+00
  0.000260875  3.533630E-02 -1.400180E-02  9.632700E-01  2.064720E-01  1.000000E+00  0.000000E+00  1.000000E+00  0.000000E+00
  0.000263350  3.620650E-02 -1.333280E-02  9.628380E-01  1.991770E-01  1.000000E+00  0.000000E+00  1.000000E+00  0.000000E+00
  0.000265825  3.592570E-02 -1.345850E-02  9.645340E-01  1.918270E-01  1.000000E+00  0.000000E+00  1.000000E+00  0.000000E+00
  0.000268300  3.615800E-02 -1.377940E-02  9.666360E-01  1.848950E-01  1.000000E+00  0.000000E+00  1.000000E+00  0.000000E+00
  0.000270775  3.649660E-02 -1.219110E-02  9.656620E-01  1.818880E-01  1.000000E+00  0.000000E+00  1.000000E+00  0.000000E+00
  0.000273250  3.613160E-02 -1.245770E-02  9.657940E-01  1.724860E-01  1.000000E+00  0.000000E+00  1.000000E+00  0.000000E+00
  0.000275725  3.719880E-02 -1.289580E-02  9.692900E-01  1.686920E-01  1.000000E+00  0.000000E+00  1.000000E+00  0.000000E+00
  0.000278200  3.730050E-02 -1.218400E-02  9.678380E-01  1.611060E-01  1.000000E+00  0.000000E+00  1.000000E+00  0.000000E+00
  0.000280675  3.718760E-02 -1.239980E-02  9.666970E-01  1.541770E-01  1.000000E+00  0.000000E+00  1.000000E+00  0.000000E+00
  0.000283150  3.679650E-02 -1.243350E-02  9.683630E-01  1.480740E-01  1.000000E+00  0.000000E+00  1.000000E+00  0.000000E+00
  0.000285625  3.728680E-02 -1.214670E-02  9.708910E-01  1.437830E-01  1.000000E+00  0.000000E+00  1.000000E+00  0.000000E+00
  0.000288100  3.772120E-02 -1.190890E-02  9.694090E-01  1.361090E-01  1.000000E+00  0.000000E+00  1.000000E+00  0.000000E+00
  0.000290575  3.683320E-02 -1.098430E-02  9.706550E-01  1.324220E-01  1.000000E+00  0.000000E+00  1.000000E+00  0.000000E+00
  0.000293050  3.766640E-02 -1.090610E-02  9.697200E-01  1.250170E-01  1.000000E+00  0.000000E+00  1.000000E+00  0.000000E+00
  0.000295525  3.789970E-02 -1.036410E-02  9.717410E-01  1.196690E-01  1.000000E+00  0.000000E+00  1.000000E+00  0.000000E+00
  0.000298000  3.725190E-02 -1.140450E-02  9.731940E-01  1.127590E-01  1.000000E+00  0.000000E+00  1.000000E+00  0.000000E+00
  0.000300475  3.774440E-02 -1.157810E-02  9.710420E-01  1.072460E-01  1.000000E+00  0.000000E+00  1.000000E+00  0.000000E+00
  0.000302950  3.736330E-02 -1.056950E-02  9.716120E-01  1.020170E-01  1.000000E+00  0.000000E+00  1.000000E+00  0.000000E+00
  0.000305425  3.786270E-02 -9.972960E-03  9.719510E-01  9.604310E-02  1.000000E+00  0.000000E+00  1.000000E+00  0.000000E+00
  0.000307900  3.840780E-02 -1.059990E-02  9.724040E-01  9.116390E-02  1.000000E+00  0.000000E+00  1.000000E+00  0.000000E+00
  0.000310375  3.909870E-02 -1.087560E-02  9.704660E-01  8.710760E-02  1.000000E+00  0.000000E+00  1.000000E+00  0.000000E+00
  0.000312850  3.823860E-02 -9.901160E-03  9.721480E-01  8.043050E-02  1.000000E+00  0.000000E+00  1.000000E+00  0.000000E+00
  0.000315325  3.820280E-02 -1.004820E-02  9.703380E-01  7.276270E-02  1.000000E+00  0.000000E+00  1.000000E+00  0.000000E+00
  0.000317800  3.903290E-02 -8.922000E-03  9.733160E-01  6.825460E-02  1.000000E+00  0.000000E+00  1.000000E+00  0.000000E+00
  0.000320275  3.848670E-02 -8.956880E-03  9.714190E-01  6.402090E-02  1.000000E+00  0.000000E+00  1.000000E+00  0.000000E+00
  0.000322750  3.857290E-02 -9.549040E-03  9.697920E-01  5.789770E-02  1.000000E+00  0.000000E+00  1.000000E+00  0.000000E+00
  0.000325225  3.883370E-02 -9.958430E-03  9.689850E-01  5.409560E-02  1.000000E+00  0.000000E+00  1.000000E+00  0.000000E+00
  0.000327700  3.906090E-02 -9.605070E-03  9.694810E-01  4.848780E-02  1.000000E+00  0.000000E+00  1.000000E+00  0.000000E+00
  0.000330175  3.849320E-02 -8.817920E-03  9.703920E-01  4.202960E-02  1.000000E+00  0.000000E+00  1.000000E+00  0.000000E+00
  0.000332650  3.827450E-02 -9.235880E-03  9.698070E-01  3.805860E-02  1.000000E+00  0.000000E+00  1.000000E+00  0.000000E+00
  0.000335125  3.907060E-02 -9.724920E-03  9.672840E-01  3.185650E-02  1.000000E+00  0.000000E+00  1.000000E+00  0.000000E+00
  0.000337600  3.963180E-02 -8.925670E-03  9.674880E-01  2.834700E-02  1.000000E+00  0.000000E+00  1.000000E+00  0.000000E+00
  0.000340075  3.906550E-02 -9.242110E-03  9.710350E-01  2.399760E-02  1.000000E+00  0.000000E+00  1.000000E+00  0.000000E+00
  0.000342550  3.906810E-02 -8.902770E-03  9.699320E-01  1.717240E-02  1.000000E+00  0.000000E+00  1.000000E+00  0.000000E+00
  0.000345025  3.909700E-02 -1.017590E-02  9.680210E-01  1.256070E-02  1.000000E+00  0.000000E+00  1.000000E+00  0.000000E+00
  0.000347500  3.983460E-02 -9.558800E-03  9.652730E-01  1.143960E-02  1.000000E+00  0.000000E+00  1.000000E+00  0.000000E+00
  0.000349975  3.939590E-02 -7.771570E-03  9.692080E-01  3.078770E-03  1.000000E+00  0.000000E+00  1.000000E+00  0.000000E+00
  0.000352450  4.050790E-02 -8.276880E-03  9.709460E-01 -1.231960E-04  1.000000E+00  0.000000E+00  1.000000E+00  0.000000E+00
  0.000354925  4.002390E-02 -8.521000E-03  9.680900E-01 -7.048350E-03  1.000000E+00  0.000000E+00  1.000000E+00  0.000000E+00
  0.000357400  3.924260E-02 -8.660120E-03  9.675700E-01 -9.854490E-03  1.000000E+00  0.000000E+00  1.000000E+00  0.000000E+00
  0.000359875  4.004390E-02 -8.045090E-03  9.667670E-01 -1.513710E-02  1.000000E+00  0.000000E+00  1.000000E+00  0.000000E+00
  0.000362350  3.953860E-02 -8.068760E-03  9.661720E-01 -2.257180E-02  1.000000E+00  0.000000E+00  1.000000E+00  0.000000E+00
  0.000364825  4.083110E-02 -6.737890E-03  9.659980E-01 -2.594540E-02  1.000000E+00  0.000000E+00  1.000000E+00  0.000000E+00
  0.000367300  4.061870E-02 -8.189170E-03  9.638440E-01 -2.701760E-02  1.000000E+00  0.000000E+00  1.000000E+00  0.000000E+00
  0.000369775  4.005010E-02 -6.592330E-03  9.619140E-01 -3.402690E-02  1.000000E+00  0.000000E+00  1.000000E+00  0.000000E+00
  0.000372250  4.004520E-02 -8.017490E-03  9.604530E-01 -3.945890E-02  1.000000E+00  0.000000E+00  1.000000E+00  0.000000E+00
  0.000374725  3.979880E-02 -7.538000E-03  9.594080E-01 -4.250120E-02  1.000000E+00  0.000000E+00  1.000000E+00  0.000000E+00
  0.000377200  4.012300E-02 -7.966150E-03  9.607890E-01 -4.567310E-02  1.000000E+00  0.000000E+00  1.000000E+00  0.000000E+00
  0.000379675  4.068900E-02 -7.941630E-03  9.580070E-01 -5.063690E-02  1.000000E+00  0.000000E+00  1.000000E+00  0.000000E+00
  0.000382150  4.032110E-02 -8.092010E-03  9.559810E-01 -5.530330E-02  1.000000E+00  0.000000E+00  1.000000E+00  0.000000E+00
  0.000384625  4.175250E-02 -7.616950E-03  9.565040E-01 -5.940920E-02  1.000000E+00  0.000000E+00  1.000000E+00  0.000000E+00
  0.000387100  3.988470E-02 -7.710020E-03  9.557440E-01 -6.184680E-02  1.000000E+00  0.000000E+00  1.000000E+00  0.000000E+00
  0.000389575  4.072090E-02 -7.511230E-03  9.541620E-01 -6.755660E-02  1.000000E+00  0.000000E+00  1.000000E+00  0.000000E+00
  0.000392050  4.098420E-02 -6.464170E-03  9.533650E-01 -7.179460E-02  1.000000E+00  0.000000E+00  1.000000E+00  0.000000E+00
  0.000394525  4.125070E-02 -6.824380E-03  9.512580E-01 -7.497860E-02  1.000000E+00  0.000000E+00  1.000000E+00  0.000000E+00
  0.000397000  3.961480E-02 -6.126700E-03  9.479320E-01 -7.771110E-02  1.000000E+00  0.000000E+00  1.000000E+00  0.000000E+00
  0.000399475  4.097250E-02 -7.682160E-03  9.492940E-01 -8.260650E-02  1.000000E+00  0.000000E+00  1.000000E+00  0.000000E+00
  0.000401950  4.017500E-02 -7.391330E-03  9.464190E-01 -8.716920E-02  1.000000E+00  0.000000E+00  1.000000E+00  0.000000E+00
  0.000404425  4.158780E-02 -6.773180E-03  9.446450E-01 -9.326010E-02  1.000000E+00  0.000000E+00  1.000000E+00  0.000000E+00
  0.000406900  4.097050E-02 -7.578340E-03  9.410330E-01 -9.369540E-02  1.000000E+00  0.000000E+00  1.000000E+00  0.000000E+00
  0.000409375  4.116370E-02 -7.118270E-03  9.397760E-01 -9.791630E-02  1.000000E+00  0.000000E+00  1.000000E+00  0.000000E+00
  0.000411850  4.125300E-02 -7.764210E-03  9.367930E-01 -1.014360E-01  1.000000E+00  0.000000E+00  1.000000E+00  0.000000E+00
  0.000414325  4.126620E-02 -6.411130E-03  9.369500E-01 -1.053890E-01  1.000000E+00  0.000000E+00  1.000000E+00  0.000000E+00
  0.000416800  4.100850E-02 -5.793700E-03  9.353160E-01 -1.058950E-01  1.000000E+00  0.000000E+00  1.000000E+00  0.000000E+00
  0.000419275  4.102150E-02 -6.379010E-03  9.310090E-01 -1.089210E-01  1.000000E+00  0.000000E+00  1.000000E+00  0.000000E+00
  0.000421750  4.173150E-02 -6.761940E-03  9.297640E-01 -1.094090E-01  1.000000E+00  0.000000E+00  1.000000E+00  0.000000E+00
  0.000424225  4.282130E-02 -6.500940E-03  9.284510E-01 -1.130160E-01  1.000000E+00  0.000000E+00  1.000000E+00  0.000000E+00
  0.000426700  4.105050E-02 -7.144440E-03  9.288230E-01 -1.140150E-01  1.000000E+00  0.000000E+00  1.000000E+00  0.000000E+00
  0.000429175  4.071460E-02 -6.505020E-03  9.296030E-01 -1.140890E-01  1.000000E+00  0.000000E+00  1.000000E+00  0.000000E+00
  0.000431650  4.173450E-02 -6.632890E-03  9.258130E-01 -1.124280E-01  1.000000E+00  0.000000E+00  1.000000E+00  0.000000E+00
  0.000434125  4.224340E-02 -6.791790E-03  9.266550E-01 -1.173050E-01  1.000000E+00  0.000000E+00  1.000000E+00  0.000000E+00
  0.000436600  4.114420E-02 -6.048760E-03  9.267200E-01 -1.179040E-01  1.000000E+00  0.000000E+00  1.000000E+00  0.000000E+00
  0.000439075  4.155800E-02 -5.935990E-03  9.282750E-01 -1.209800E-01  1.000000E+00  0.000000E+00  1.000000E+00  0.000000E+00
  0.000441550  4.168510E-02 -6.046650E-03  9.331510E-01 -1.244020E-01  1.000000E+00  0.000000E+00  1.000000E+00  0.000000E+00
  0.000444025  4.126370E-02 -4.967620E-03  9.346370E-01 -1.285440E-01  1.000000E+00  0.000000E+00  1.000000E+00  0.000000E+00
  0.000446500  4.165200E-02 -6.087250E-03  9.353600E-01 -1.304180E-01  1.000000E+00  0.000000E+00  1.000000E+00  0.000000E+00
  0.000448975  4.131480E-02 -5.148840E-03  9.344580E-01 -1.334890E-01  1.000000E+00  0.000000E+00  1.000000E+00  0.000000E+00
  0.000451450  4.169970E-02 -6.254770E-03  9.371790E-01 -1.369230E-01  1.000000E+00  0.000000E+00  1.000000E+00  0.000000E+00
  0.000453925  4.097780E-02 -5.797850E-03  9.345110E-01 -1.398730E-01  1.000000E+00  0.000000E+00  1.000000E+00  0.000000E+00
