! Anritsu VNA Master:                        Model: MS2026C/19
! SN:                                  1815009
! /card0/usr/20180902_31.s2p
! Existing Calibration Information:
! TYPE:                         Current Settings,       Active Cal Settings
! TIME:             	   09/02/2018 07:11:13 PM,    09/02/2018 11:58:48 AM
! INTERNAL TEMP:    	                   49.5 C,                    48.8 C
! # POINTS:         	                     4001,                      4001
! START FREQ:       	              100.000 kHz,               100.000 kHz
! STOP FREQ:        	               10.000 MHz,                10.000 MHz
! SOURCE POWER:     	                      Low,                       Low
! IFBW:             	                   500 Hz,                    500 Hz
! AVG FACTOR:       	                       1 ,                        1 
! REF PLANE 1:      	                     0 mm,                      0 mm
! REF PLANE 2:      	                     0 mm,                      0 mm
! CAL TYPE:         	             1P2P S11,S21,              1P2P S11,S21
! CAL METHOD:       	                     SOLT,                      SOLT
! CAL LINE TYPE:    	                     Coax,                      Coax
! DUT PORT 1:       	                N-Conn(M),                 N-Conn(M)
! DUT PORT 2:       	                N-Conn(M),                 N-Conn(M)
! CAL STATUS:       	        OK: Accuracy High,                        --
# GHZ S RI R 50.0
! FREQ.GHZ      S11RE         S11IM         S21RE         S21IM         S12RE         S12IM         S22RE         S22IM
  0.000100000  7.796200E-02 -3.214070E-02  9.938920E-01  8.277770E-03  1.000000E+00  0.000000E+00  1.000000E+00  0.000000E+00
  0.000102475  7.754360E-02 -3.302910E-02  9.927960E-01  8.912200E-03  1.000000E+00  0.000000E+00  1.000000E+00  0.000000E+00
  0.000104950  7.621360E-02 -3.414640E-02  9.951980E-01  8.388600E-03  1.000000E+00  0.000000E+00  1.000000E+00  0.000000E+00
  0.000107425  7.619780E-02 -3.520860E-02  9.923000E-01  7.871590E-03  1.000000E+00  0.000000E+00  1.000000E+00  0.000000E+00
  0.000109900  7.526310E-02 -3.535850E-02  9.939640E-01  9.165130E-03  1.000000E+00  0.000000E+00  1.000000E+00  0.000000E+00
  0.000112375  7.376910E-02 -3.533830E-02  9.936610E-01  7.787990E-03  1.000000E+00  0.000000E+00  1.000000E+00  0.000000E+00
  0.000114850  7.295010E-02 -3.565530E-02  9.930540E-01  8.959260E-03  1.000000E+00  0.000000E+00  1.000000E+00  0.000000E+00
  0.000117325  7.394750E-02 -3.673950E-02  9.929810E-01  7.292580E-03  1.000000E+00  0.000000E+00  1.000000E+00  0.000000E+00
  0.000119800  7.265640E-02 -3.598400E-02  9.932690E-01  7.935120E-03  1.000000E+00  0.000000E+00  1.000000E+00  0.000000E+00
  0.000122275  7.027890E-02 -3.678940E-02  9.935970E-01  8.248210E-03  1.000000E+00  0.000000E+00  1.000000E+00  0.000000E+00
  0.000124750  7.140370E-02 -3.800140E-02  9.925980E-01  6.040640E-03  1.000000E+00  0.000000E+00  1.000000E+00  0.000000E+00
  0.000127225  7.001480E-02 -3.797930E-02  9.938260E-01  8.102450E-03  1.000000E+00  0.000000E+00  1.000000E+00  0.000000E+00
  0.000129700  6.941810E-02 -3.643470E-02  9.943540E-01  5.575810E-03  1.000000E+00  0.000000E+00  1.000000E+00  0.000000E+00
  0.000132175  6.873110E-02 -3.867930E-02  9.969980E-01  8.287590E-03  1.000000E+00  0.000000E+00  1.000000E+00  0.000000E+00
  0.000134650  6.722910E-02 -3.927700E-02  9.933560E-01  7.887040E-03  1.000000E+00  0.000000E+00  1.000000E+00  0.000000E+00
  0.000137125  6.737080E-02 -3.980520E-02  9.939350E-01  6.942020E-03  1.000000E+00  0.000000E+00  1.000000E+00  0.000000E+00
  0.000139600  6.701500E-02 -3.903120E-02  9.944900E-01  7.256280E-03  1.000000E+00  0.000000E+00  1.000000E+00  0.000000E+00
  0.000142075  6.675410E-02 -4.030230E-02  9.932370E-01  7.783890E-03  1.000000E+00  0.000000E+00  1.000000E+00  0.000000E+00
  0.000144550  6.605370E-02 -4.051450E-02  9.950860E-01  6.505910E-03  1.000000E+00  0.000000E+00  1.000000E+00  0.000000E+00
  0.000147025  6.613030E-02 -4.006590E-02  9.949990E-01  6.514570E-03  1.000000E+00  0.000000E+00  1.000000E+00  0.000000E+00
  0.000149500  6.505220E-02 -4.104920E-02  9.932140E-01  6.800430E-03  1.000000E+00  0.000000E+00  1.000000E+00  0.000000E+00
  0.000151975  6.396670E-02 -4.026110E-02  9.925530E-01  7.427840E-03  1.000000E+00  0.000000E+00  1.000000E+00  0.000000E+00
  0.000154450  6.293640E-02 -3.974350E-02  9.903340E-01  7.102780E-03  1.000000E+00  0.000000E+00  1.000000E+00  0.000000E+00
  0.000156925  6.339750E-02 -4.166460E-02  9.961720E-01  6.365120E-03  1.000000E+00  0.000000E+00  1.000000E+00  0.000000E+00
  0.000159400  6.041960E-02 -4.105340E-02  9.919680E-01  6.484480E-03  1.000000E+00  0.000000E+00  1.000000E+00  0.000000E+00
  0.000161875  6.101100E-02 -4.273740E-02  9.942370E-01  7.989440E-03  1.000000E+00  0.000000E+00  1.000000E+00  0.000000E+00
  0.000164350  6.107900E-02 -4.199740E-02  9.931640E-01  7.046140E-03  1.000000E+00  0.000000E+00  1.000000E+00  0.000000E+00
  0.000166825  6.041360E-02 -4.219970E-02  9.928320E-01  3.935600E-03  1.000000E+00  0.000000E+00  1.000000E+00  0.000000E+00
  0.000169300  5.915570E-02 -4.277690E-02  9.918000E-01  6.519780E-03  1.000000E+00  0.000000E+00  1.000000E+00  0.000000E+00
  0.000171775  5.914340E-02 -4.294280E-02  9.915990E-01  6.599260E-03  1.000000E+00  0.000000E+00  1.000000E+00  0.000000E+00
  0.000174250  5.719820E-02 -4.327730E-02  9.931900E-01  6.628900E-03  1.000000E+00  0.000000E+00  1.000000E+00  0.000000E+00
  0.000176725  5.770800E-02 -4.184740E-02  9.919270E-01  9.601650E-03  1.000000E+00  0.000000E+00  1.000000E+00  0.000000E+00
  0.000179200  5.700280E-02 -4.307100E-02  9.940070E-01  7.432500E-03  1.000000E+00  0.000000E+00  1.000000E+00  0.000000E+00
  0.000181675  5.444670E-02 -4.410170E-02  9.942910E-01  7.611810E-03  1.000000E+00  0.000000E+00  1.000000E+00  0.000000E+00
  0.000184150  5.551970E-02 -4.228080E-02  9.942800E-01  5.703180E-03  1.000000E+00  0.000000E+00  1.000000E+00  0.000000E+00
  0.000186625  5.370930E-02 -4.439930E-02  9.933900E-01  1.031620E-02  1.000000E+00  0.000000E+00  1.000000E+00  0.000000E+00
  0.000189100  5.258080E-02 -4.377390E-02  9.913430E-01  6.980840E-03  1.000000E+00  0.000000E+00  1.000000E+00  0.000000E+00
  0.000191575  5.247710E-02 -4.411690E-02  9.935710E-01  6.764480E-03  1.000000E+00  0.000000E+00  1.000000E+00  0.000000E+00
  0.000194050  5.230910E-02 -4.426440E-02  9.936040E-01  7.453920E-03  1.000000E+00  0.000000E+00  1.000000E+00  0.000000E+00
  0.000196525  5.145430E-02 -4.367780E-02  9.927360E-01  6.120620E-03  1.000000E+00  0.000000E+00  1.000000E+00  0.000000E+00
  0.000199000  5.235470E-02 -4.347460E-02  9.922600E-01  8.123730E-03  1.000000E+00  0.000000E+00  1.000000E+00  0.000000E+00
  0.000201475  4.977530E-02 -4.353280E-02  9.941160E-01  7.197170E-03  1.000000E+00  0.000000E+00  1.000000E+00  0.000000E+00
  0.000203950  4.947170E-02 -4.351600E-02  9.926200E-01  6.806710E-03  1.000000E+00  0.000000E+00  1.000000E+00  0.000000E+00
  0.000206425  5.014770E-02 -4.408430E-02  9.930130E-01  7.176730E-03  1.000000E+00  0.000000E+00  1.000000E+00  0.000000E+00
  0.000208900  4.813010E-02 -4.477250E-02  9.929160E-01  6.464890E-03  1.000000E+00  0.000000E+00  1.000000E+00  0.000000E+00
  0.000211375  4.953430E-02 -4.438860E-02  9.926920E-01  7.487380E-03  1.000000E+00  0.000000E+00  1.000000E+00  0.000000E+00
  0.000213850  4.802970E-02 -4.505290E-02  9.939960E-01  6.877170E-03  1.000000E+00  0.000000E+00  1.000000E+00  0.000000E+00
  0.000216325  4.666590E-02 -4.508580E-02  9.942630E-01  4.998790E-03  1.000000E+00  0.000000E+00  1.000000E+00  0.000000E+00
  0.000218800  4.608060E-02 -4.496900E-02  9.913610E-01  7.439760E-03  1.000000E+00  0.000000E+00  1.000000E+00  0.000000E+00
  0.000221275  4.634220E-02 -4.246250E-02  9.928020E-01  8.240510E-03  1.000000E+00  0.000000E+00  1.000000E+00  0.000000E+00
  0.000223750  4.637630E-02 -4.438600E-02  9.944480E-01  8.348470E-03  1.000000E+00  0.000000E+00  1.000000E+00  0.000000E+00
  0.000226225  4.460270E-02 -4.342130E-02  9.937060E-01  7.701360E-03  1.000000E+00  0.000000E+00  1.000000E+00  0.000000E+00
  0.000228700  4.405470E-02 -4.511740E-02  9.932140E-01  7.631790E-03  1.000000E+00  0.000000E+00  1.000000E+00  0.000000E+00
  0.000231175  4.398580E-02 -4.501200E-02  9.923630E-01  8.102200E-03  1.000000E+00  0.000000E+00  1.000000E+00  0.000000E+00
  0.000233650  4.152320E-02 -4.381830E-02  9.920030E-01  7.921140E-03  1.000000E+00  0.000000E+00  1.000000E+00  0.000000E+00
  0.000236125  4.181330E-02 -4.433260E-02  9.922170E-01  7.249820E-03  1.000000E+00  0.000000E+00  1.000000E+00  0.000000E+00
  0.000238600  4.208330E-02 -4.451970E-02  9.921230E-01  8.513670E-03  1.000000E+00  0.000000E+00  1.000000E+00  0.000000E+00
  0.000241075  4.205480E-02 -4.364590E-02  9.931840E-01  9.063370E-03  1.000000E+00  0.000000E+00  1.000000E+00  0.000000E+00
  0.000243550  4.096690E-02 -4.467660E-02  9.912020E-01  6.942820E-03  1.000000E+00  0.000000E+00  1.000000E+00  0.000000E+00
  0.000246025  4.101360E-02 -4.354910E-02  9.923700E-01  8.461500E-03  1.000000E+00  0.000000E+00  1.000000E+00  0.000000E+00
  0.000248500  3.995420E-02 -4.304430E-02  9.941890E-01  7.898720E-03  1.000000E+00  0.000000E+00  1.000000E+00  0.000000E+00
  0.000250975  4.026940E-02 -4.386090E-02  9.911260E-01  6.969960E-03  1.000000E+00  0.000000E+00  1.000000E+00  0.000000E+00
  0.000253450  4.012880E-02 -4.241840E-02  9.949390E-01  9.422470E-03  1.000000E+00  0.000000E+00  1.000000E+00  0.000000E+00
  0.000255925  3.789380E-02 -4.237240E-02  9.919430E-01  9.124740E-03  1.000000E+00  0.000000E+00  1.000000E+00  0.000000E+00
  0.000258400  3.790520E-02 -4.255840E-02  9.920980E-01  7.329440E-03  1.000000E+00  0.000000E+00  1.000000E+00  0.000000E+00
  0.000260875  3.814330E-02 -4.288430E-02  9.925300E-01  7.279860E-03  1.000000E+00  0.000000E+00  1.000000E+00  0.000000E+00
  0.000263350  3.670060E-02 -4.192070E-02  9.914890E-01  8.395880E-03  1.000000E+00  0.000000E+00  1.000000E+00  0.000000E+00
  0.000265825  3.686180E-02 -4.497380E-02  9.920560E-01  5.208230E-03  1.000000E+00  0.000000E+00  1.000000E+00  0.000000E+00
  0.000268300  3.633850E-02 -4.251780E-02  9.929390E-01  6.108640E-03  1.000000E+00  0.000000E+00  1.000000E+00  0.000000E+00
  0.000270775  3.566290E-02 -4.228060E-02  9.919310E-01  9.442620E-03  1.000000E+00  0.000000E+00  1.000000E+00  0.000000E+00
  0.000273250  3.606770E-02 -4.261960E-02  9.913600E-01  6.983560E-03  1.000000E+00  0.000000E+00  1.000000E+00  0.000000E+00
  0.000275725  3.544970E-02 -4.237790E-02  9.935240E-01  8.420430E-03  1.000000E+00  0.000000E+00  1.000000E+00  0.000000E+00
  0.000278200  3.633520E-02 -4.292180E-02  9.920220E-01  7.136520E-03  1.000000E+00  0.000000E+00  1.000000E+00  0.000000E+00
  0.000280675  3.572890E-02 -4.216420E-02  9.899370E-01  7.689580E-03  1.000000E+00  0.000000E+00  1.000000E+00  0.000000E+00
  0.000283150  3.420810E-02 -4.396820E-02  9.907450E-01  7.946760E-03  1.000000E+00  0.000000E+00  1.000000E+00  0.000000E+00
  0.000285625  3.456610E-02 -4.301060E-02  9.940700E-01  8.465930E-03  1.000000E+00  0.000000E+00  1.000000E+00  0.000000E+00
  0.000288100  3.338140E-02 -4.258820E-02  9.910460E-01  7.790190E-03  1.000000E+00  0.000000E+00  1.000000E+00  0.000000E+00
  0.000290575  3.335170E-02 -4.200880E-02  9.921360E-01  8.160060E-03  1.000000E+00  0.000000E+00  1.000000E+00  0.000000E+00
  0.000293050  3.270990E-02 -4.069440E-02  9.916000E-01  8.321470E-03  1.000000E+00  0.000000E+00  1.000000E+00  0.000000E+00
  0.000295525  3.258730E-02 -4.015960E-02  9.928110E-01  7.501350E-03  1.000000E+00  0.000000E+00  1.000000E+00  0.000000E+00
  0.000298000  3.185870E-02 -4.333850E-02  9.938790E-01  7.163240E-03  1.000000E+00  0.000000E+00  1.000000E+00  0.000000E+00
  0.000300475  3.081610E-02 -4.341490E-02  9.922110E-01  7.994460E-03  1.000000E+00  0.000000E+00  1.000000E+00  0.000000E+00
  0.000302950  3.187790E-02 -4.089900E-02  9.933800E-01  7.135710E-03  1.000000E+00  0.000000E+00  1.000000E+00  0.000000E+00
  0.000305425  3.167150E-02 -3.922210E-02  9.928350E-01  8.576590E-03  1.000000E+00  0.000000E+00  1.000000E+00  0.000000E+00
  0.000307900  3.147060E-02 -4.174270E-02  9.932690E-01  8.081200E-03  1.000000E+00  0.000000E+00  1.000000E+00  0.000000E+00
  0.000310375  2.994590E-02 -4.238240E-02  9.917860E-01  1.028900E-02  1.000000E+00  0.000000E+00  1.000000E+00  0.000000E+00
  0.000312850  2.952890E-02 -3.976020E-02  9.934200E-01  8.800530E-03  1.000000E+00  0.000000E+00  1.000000E+00  0.000000E+00
  0.000315325  2.877990E-02 -4.186770E-02  9.915130E-01  7.322700E-03  1.000000E+00  0.000000E+00  1.000000E+00  0.000000E+00
  0.000317800  2.864080E-02 -3.937910E-02  9.939270E-01  6.430060E-03  1.000000E+00  0.000000E+00  1.000000E+00  0.000000E+00
  0.000320275  2.903720E-02 -3.947100E-02  9.939110E-01  8.371070E-03  1.000000E+00  0.000000E+00  1.000000E+00  0.000000E+00
  0.000322750  2.799620E-02 -4.006760E-02  9.908220E-01  7.573180E-03  1.000000E+00  0.000000E+00  1.000000E+00  0.000000E+00
  0.000325225  2.801590E-02 -4.096370E-02  9.924620E-01  1.050270E-02  1.000000E+00  0.000000E+00  1.000000E+00  0.000000E+00
  0.000327700  2.742210E-02 -4.052070E-02  9.925590E-01  7.784900E-03  1.000000E+00  0.000000E+00  1.000000E+00  0.000000E+00
  0.000330175  2.733250E-02 -4.092010E-02  9.930500E-01  7.197870E-03  1.000000E+00  0.000000E+00  1.000000E+00  0.000000E+00
  0.000332650  2.671800E-02 -3.913310E-02  9.922780E-01  7.638370E-03  1.000000E+00  0.000000E+00  1.000000E+00  0.000000E+00
  0.000335125  2.619850E-02 -3.983640E-02  9.929250E-01  7.550980E-03  1.000000E+00  0.000000E+00  1.000000E+00  0.000000E+00
  0.000337600  2.702150E-02 -3.905080E-02  9.927200E-01  9.437040E-03  1.000000E+00  0.000000E+00  1.000000E+00  0.000000E+00
  0.000340075  2.694540E-02 -4.075270E-02  9.921490E-01  8.674080E-03  1.000000E+00  0.000000E+00  1.000000E+00  0.000000E+00
  0.000342550  2.572080E-02 -3.922340E-02  9.895180E-01  7.715000E-03  1.000000E+00  0.000000E+00  1.000000E+00  0.000000E+00
  0.000345025  2.436160E-02 -4.082500E-02  9.917850E-01  9.007080E-03  1.000000E+00  0.000000E+00  1.000000E+00  0.000000E+00
  0.000347500  2.510980E-02 -3.960750E-02  9.898520E-01  8.588670E-03  1.000000E+00  0.000000E+00  1.000000E+00  0.000000E+00
  0.000349975  2.429510E-02 -3.740160E-02  9.920310E-01  7.586740E-03  1.000000E+00  0.000000E+00  1.000000E+00  0.000000E+00
  0.000352450  2.541910E-02 -3.919300E-02  9.941130E-01  1.074520E-02  1.000000E+00  0.000000E+00  1.000000E+00  0.000000E+00
  0.000354925  2.379250E-02 -3.734130E-02  9.928890E-01  1.021390E-02  1.000000E+00  0.000000E+00  1.000000E+00  0.000000E+00
  0.000357400  2.344300E-02 -3.820130E-02  9.955010E-01  7.258390E-03  1.000000E+00  0.000000E+00  1.000000E+00  0.000000E+00
  0.000359875  2.239190E-02 -3.775040E-02  9.928380E-01  8.695830E-03  1.000000E+00  0.000000E+00  1.000000E+00  0.000000E+00
  0.000362350  2.139100E-02 -3.798430E-02  9.919220E-01  6.777550E-03  1.000000E+00  0.000000E+00  1.000000E+00  0.000000E+00
  0.000364825  2.226580E-02 -3.744800E-02  9.952410E-01  7.208500E-03  1.000000E+00  0.000000E+00  1.000000E+00  0.000000E+00
  0.000367300  2.275400E-02 -3.833230E-02  9.924820E-01  8.778610E-03  1.000000E+00  0.000000E+00  1.000000E+00  0.000000E+00
  0.000369775  2.083740E-02 -3.580320E-02  9.930330E-01  8.168400E-03  1.000000E+00  0.000000E+00  1.000000E+00  0.000000E+00
  0.000372250  2.211110E-02 -3.844980E-02  9.911530E-01  7.574020E-03  1.000000E+00  0.000000E+00  1.000000E+00  0.000000E+00
  0.000374725  2.096860E-02 -3.796420E-02  9.923050E-01  8.000890E-03  1.000000E+00  0.000000E+00  1.000000E+00  0.000000E+00
  0.000377200  1.985670E-02 -3.713340E-02  9.946260E-01  9.746190E-03  1.000000E+00  0.000000E+00  1.000000E+00  0.000000E+00
  0.000379675  2.186010E-02 -3.677240E-02  9.932660E-01  7.807090E-03  1.000000E+00  0.000000E+00  1.000000E+00  0.000000E+00
  0.000382150  2.075540E-02 -3.568290E-02  9.905200E-01  7.769460E-03  1.000000E+00  0.000000E+00  1.000000E+00  0.000000E+00
  0.000384625  2.181860E-02 -3.665390E-02  9.932020E-01  8.716920E-03  1.000000E+00  0.000000E+00  1.000000E+00  0.000000E+00
  0.000387100  1.958330E-02 -3.639550E-02  9.934470E-01  9.856220E-03  1.000000E+00  0.000000E+00  1.000000E+00  0.000000E+00
  0.000389575  1.881490E-02 -3.663310E-02  9.922570E-01  7.460330E-03  1.000000E+00  0.000000E+00  1.000000E+00  0.000000E+00
  0.000392050  1.937840E-02 -3.366870E-02  9.935520E-01  8.494600E-03  1.000000E+00  0.000000E+00  1.000000E+00  0.000000E+00
  0.000394525  1.960670E-02 -3.601640E-02  9.938680E-01  7.861300E-03  1.000000E+00  0.000000E+00  1.000000E+00  0.000000E+00
  0.000397000  1.801020E-02 -3.444450E-02  9.907070E-01  8.617590E-03  1.000000E+00  0.000000E+00  1.000000E+00  0.000000E+00
  0.000399475  1.943890E-02 -3.586680E-02  9.928020E-01  9.394600E-03  1.000000E+00  0.000000E+00  1.000000E+00  0.000000E+00
  0.000401950  1.671310E-02 -3.610050E-02  9.932630E-01  8.681590E-03  1.000000E+00  0.000000E+00  1.000000E+00  0.000000E+00
  0.000404425  1.981230E-02 -3.524860E-02  9.938500E-01  6.158990E-03  1.000000E+00  0.000000E+00  1.000000E+00  0.000000E+00
  0.000406900  1.769720E-02 -3.543520E-02  9.908350E-01  8.294350E-03  1.000000E+00  0.000000E+00  1.000000E+00  0.000000E+00
  0.000409375  1.688180E-02 -3.626910E-02  9.932110E-01  8.316800E-03  1.000000E+00  0.000000E+00  1.000000E+00  0.000000E+00
  0.000411850  1.626610E-02 -3.625170E-02  9.900640E-01  8.989600E-03  1.000000E+00  0.000000E+00  1.000000E+00  0.000000E+00
  0.000414325  1.807970E-02 -3.407490E-02  9.924630E-01  7.064560E-03  1.000000E+00  0.000000E+00  1.000000E+00  0.000000E+00
  0.000416800  1.681280E-02 -3.326650E-02  9.935730E-01  9.762570E-03  1.000000E+00  0.000000E+00  1.000000E+00  0.000000E+00
  0.000419275  1.632330E-02 -3.575150E-02  9.919220E-01  7.918380E-03  1.000000E+00  0.000000E+00  1.000000E+00  0.000000E+00
  0.000421750  1.817570E-02 -3.513710E-02  9.931740E-01  8.802650E-03  1.000000E+00  0.000000E+00  1.000000E+00  0.000000E+00
  0.000424225  1.634710E-02 -3.178370E-02  9.928400E-01  7.534960E-03  1.000000E+00  0.000000E+00  1.000000E+00  0.000000E+00
  0.000426700  1.572230E-02 -3.519170E-02  9.931260E-01  7.701010E-03  1.000000E+00  0.000000E+00  1.000000E+00  0.000000E+00
  0.000429175  1.623390E-02 -3.349140E-02  9.946970E-01  8.269150E-03  1.000000E+00  0.000000E+00  1.000000E+00  0.000000E+00
  0.000431650  1.493310E-02 -3.349650E-02  9.923140E-01  1.011220E-02  1.000000E+00  0.000000E+00  1.000000E+00  0.000000E+00
  0.000434125  1.657040E-02 -3.334050E-02  9.932890E-01  7.764640E-03  1.000000E+00  0.000000E+00  1.000000E+00  0.000000E+00
  0.000436600  1.388170E-02 -3.184940E-02  9.928520E-01  9.008020E-03  1.000000E+00  0.000000E+00  1.000000E+00  0.000000E+00
  0.000439075  1.583780E-02 -3.165200E-02  9.925190E-01  9.301670E-03  1.000000E+00  0.000000E+00  1.000000E+00  0.000000E+00
  0.000441550  1.475660E-02 -3.218390E-02  9.934010E-01  7.066150E-03  1.000000E+00  0.000000E+00  1.000000E+00  0.000000E+00
  0.000444025  1.426850E-02 -3.135460E-02  9.932710E-01  6.670710E-03  1.000000E+00  0.000000E+00  1.000000E+00  0.000000E+00
  0.000446500  1.411350E-02 -3.182820E-02  9.940180E-01  8.508460E-03  1.000000E+00  0.000000E+00  1.000000E+00  0.000000E+00
  0.000448975  1.490620E-02 -3.058980E-02  9.935620E-01  9.278410E-03  1.000000E+00  0.000000E+00  1.000000E+00  0.000000E+00
  0.000451450  1.372130E-02 -3.142200E-02  9.939460E-01  8.386950E-03  1.000000E+00  0.000000E+00  1.000000E+00  0.000000E+00
  0.000453925  1.297760E-02 -3.151480E-02  9.920960E-01  9.913650E-03  1.000000E+00  0.000000E+00  1.000000E+00  0.000000E+00
