! Anritsu VNA Master:                        Model: MS2026C/19
! SN:                                  1815009
! /card0/usr/20180902_16.s2p
! Existing Calibration Information:
! TYPE:                         Current Settings,       Active Cal Settings
! TIME:             	   09/02/2018 12:51:28 PM,    09/02/2018 11:58:48 AM
! INTERNAL TEMP:    	                   53.8 C,                    48.8 C
! # POINTS:         	                     4001,                      4001
! START FREQ:       	              100.000 kHz,               100.000 kHz
! STOP FREQ:        	               10.000 MHz,                10.000 MHz
! SOURCE POWER:     	                      Low,                       Low
! IFBW:             	                   500 Hz,                    500 Hz
! AVG FACTOR:       	                       5 ,                        1 
! REF PLANE 1:      	                     0 mm,                      0 mm
! REF PLANE 2:      	                     0 mm,                      0 mm
! CAL TYPE:         	             1P2P S11,S21,              1P2P S11,S21
! CAL METHOD:       	                     SOLT,                      SOLT
! CAL LINE TYPE:    	                     Coax,                      Coax
! DUT PORT 1:       	                N-Conn(M),                 N-Conn(M)
! DUT PORT 2:       	                N-Conn(M),                 N-Conn(M)
! CAL STATUS:       	?T: Accuracy moderate (|Temp diff| > 5.0 C),                        --
# GHZ S RI R 50.0
! FREQ.GHZ      S11RE         S11IM         S21RE         S21IM         S12RE         S12IM         S22RE         S22IM
  0.000100000  4.226200E-03 -5.992970E-02  3.381280E-02  8.300580E-02  1.000000E+00  0.000000E+00  1.000000E+00  0.000000E+00
  0.000102475  6.282110E-03 -5.686380E-02  3.744860E-02  8.152930E-02  1.000000E+00  0.000000E+00  1.000000E+00  0.000000E+00
  0.000104950  6.889580E-03 -5.475270E-02  3.970500E-02  8.050410E-02  1.000000E+00  0.000000E+00  1.000000E+00  0.000000E+00
  0.000107425  8.874530E-03 -5.230470E-02  4.282750E-02  7.994090E-02  1.000000E+00  0.000000E+00  1.000000E+00  0.000000E+00
  0.000109900  9.904880E-03 -5.015230E-02  4.480940E-02  7.878530E-02  1.000000E+00  0.000000E+00  1.000000E+00  0.000000E+00
  0.000112375  1.034090E-02 -4.837180E-02  4.689760E-02  7.692790E-02  1.000000E+00  0.000000E+00  1.000000E+00  0.000000E+00
  0.000114850  1.223950E-02 -4.742550E-02  4.950550E-02  7.591290E-02  1.000000E+00  0.000000E+00  1.000000E+00  0.000000E+00
  0.000117325  1.412100E-02 -4.533310E-02  5.141360E-02  7.519090E-02  1.000000E+00  0.000000E+00  1.000000E+00  0.000000E+00
  0.000119800  1.472480E-02 -4.377020E-02  5.342630E-02  7.302380E-02  1.000000E+00  0.000000E+00  1.000000E+00  0.000000E+00
  0.000122275  1.561160E-02 -4.103660E-02  5.576690E-02  7.195530E-02  1.000000E+00  0.000000E+00  1.000000E+00  0.000000E+00
  0.000124750  1.641060E-02 -4.122430E-02  5.723720E-02  7.083270E-02  1.000000E+00  0.000000E+00  1.000000E+00  0.000000E+00
  0.000127225  1.673240E-02 -3.934510E-02  5.936900E-02  6.968670E-02  1.000000E+00  0.000000E+00  1.000000E+00  0.000000E+00
  0.000129700  1.763530E-02 -3.644780E-02  6.106410E-02  6.819720E-02  1.000000E+00  0.000000E+00  1.000000E+00  0.000000E+00
  0.000132175  1.940540E-02 -3.725030E-02  6.269960E-02  6.672350E-02  1.000000E+00  0.000000E+00  1.000000E+00  0.000000E+00
  0.000134650  1.902470E-02 -3.607670E-02  6.434760E-02  6.563290E-02  1.000000E+00  0.000000E+00  1.000000E+00  0.000000E+00
  0.000137125  2.033220E-02 -3.444530E-02  6.607920E-02  6.392680E-02  1.000000E+00  0.000000E+00  1.000000E+00  0.000000E+00
  0.000139600  2.167330E-02 -3.387090E-02  6.726810E-02  6.348100E-02  1.000000E+00  0.000000E+00  1.000000E+00  0.000000E+00
  0.000142075  2.263530E-02 -3.302860E-02  6.927690E-02  6.160930E-02  1.000000E+00  0.000000E+00  1.000000E+00  0.000000E+00
  0.000144550  2.289300E-02 -3.219310E-02  6.927810E-02  5.976130E-02  1.000000E+00  0.000000E+00  1.000000E+00  0.000000E+00
  0.000147025  2.419560E-02 -3.011500E-02  7.036080E-02  5.878810E-02  1.000000E+00  0.000000E+00  1.000000E+00  0.000000E+00
  0.000149500  2.499370E-02 -2.994710E-02  7.238330E-02  5.758430E-02  1.000000E+00  0.000000E+00  1.000000E+00  0.000000E+00
  0.000151975  2.505420E-02 -2.978390E-02  7.272860E-02  5.630700E-02  1.000000E+00  0.000000E+00  1.000000E+00  0.000000E+00
  0.000154450  2.514510E-02 -2.711600E-02  7.444720E-02  5.499190E-02  1.000000E+00  0.000000E+00  1.000000E+00  0.000000E+00
  0.000156925  2.567210E-02 -2.708220E-02  7.476030E-02  5.326650E-02  1.000000E+00  0.000000E+00  1.000000E+00  0.000000E+00
  0.000159400  2.572290E-02 -2.625790E-02  7.564790E-02  5.248130E-02  1.000000E+00  0.000000E+00  1.000000E+00  0.000000E+00
  0.000161875  2.701750E-02 -2.676780E-02  7.631040E-02  5.146260E-02  1.000000E+00  0.000000E+00  1.000000E+00  0.000000E+00
  0.000164350  2.776590E-02 -2.583460E-02  7.788290E-02  5.037050E-02  1.000000E+00  0.000000E+00  1.000000E+00  0.000000E+00
  0.000166825  2.836470E-02 -2.537750E-02  7.857520E-02  4.891860E-02  1.000000E+00  0.000000E+00  1.000000E+00  0.000000E+00
  0.000169300  2.857300E-02 -2.472950E-02  7.990370E-02  4.853450E-02  1.000000E+00  0.000000E+00  1.000000E+00  0.000000E+00
  0.000171775  2.955620E-02 -2.421520E-02  7.970640E-02  4.677710E-02  1.000000E+00  0.000000E+00  1.000000E+00  0.000000E+00
  0.000174250  2.953210E-02 -2.320410E-02  8.057330E-02  4.550690E-02  1.000000E+00  0.000000E+00  1.000000E+00  0.000000E+00
  0.000176725  3.059140E-02 -2.313950E-02  8.098240E-02  4.469720E-02  1.000000E+00  0.000000E+00  1.000000E+00  0.000000E+00
  0.000179200  3.010040E-02 -2.250820E-02  8.165210E-02  4.153310E-02  1.000000E+00  0.000000E+00  1.000000E+00  0.000000E+00
  0.000181675  2.980480E-02 -2.285250E-02  8.267280E-02  4.240340E-02  1.000000E+00  0.000000E+00  1.000000E+00  0.000000E+00
  0.000184150  3.214530E-02 -2.123330E-02  8.311900E-02  4.055300E-02  1.000000E+00  0.000000E+00  1.000000E+00  0.000000E+00
  0.000186625  3.169730E-02 -2.159500E-02  8.363110E-02  3.963140E-02  1.000000E+00  0.000000E+00  1.000000E+00  0.000000E+00
  0.000189100  3.125560E-02 -2.077040E-02  8.365350E-02  3.911410E-02  1.000000E+00  0.000000E+00  1.000000E+00  0.000000E+00
  0.000191575  3.134090E-02 -2.120010E-02  8.446010E-02  3.743950E-02  1.000000E+00  0.000000E+00  1.000000E+00  0.000000E+00
  0.000194050  3.193560E-02 -2.070390E-02  8.459840E-02  3.667950E-02  1.000000E+00  0.000000E+00  1.000000E+00  0.000000E+00
  0.000196525  3.307430E-02 -1.990330E-02  8.579460E-02  3.550730E-02  1.000000E+00  0.000000E+00  1.000000E+00  0.000000E+00
  0.000199000  3.326260E-02 -1.956290E-02  8.558690E-02  3.452910E-02  1.000000E+00  0.000000E+00  1.000000E+00  0.000000E+00
  0.000201475  3.285400E-02 -1.917820E-02  8.606050E-02  3.352670E-02  1.000000E+00  0.000000E+00  1.000000E+00  0.000000E+00
  0.000203950  3.301290E-02 -1.840070E-02  8.670260E-02  3.307290E-02  1.000000E+00  0.000000E+00  1.000000E+00  0.000000E+00
  0.000206425  3.360670E-02 -1.851160E-02  8.675000E-02  3.107940E-02  1.000000E+00  0.000000E+00  1.000000E+00  0.000000E+00
  0.000208900  3.360240E-02 -1.860830E-02  8.732990E-02  3.084780E-02  1.000000E+00  0.000000E+00  1.000000E+00  0.000000E+00
  0.000211375  3.511890E-02 -1.836710E-02  8.758010E-02  2.966730E-02  1.000000E+00  0.000000E+00  1.000000E+00  0.000000E+00
  0.000213850  3.403550E-02 -1.680200E-02  8.764280E-02  2.854670E-02  1.000000E+00  0.000000E+00  1.000000E+00  0.000000E+00
  0.000216325  3.444990E-02 -1.762840E-02  8.751990E-02  2.758820E-02  1.000000E+00  0.000000E+00  1.000000E+00  0.000000E+00
  0.000218800  3.440680E-02 -1.711230E-02  8.825070E-02  2.669590E-02  1.000000E+00  0.000000E+00  1.000000E+00  0.000000E+00
  0.000221275  3.561550E-02 -1.626120E-02  8.825360E-02  2.545220E-02  1.000000E+00  0.000000E+00  1.000000E+00  0.000000E+00
  0.000223750  3.569880E-02 -1.624100E-02  8.898900E-02  2.512220E-02  1.000000E+00  0.000000E+00  1.000000E+00  0.000000E+00
  0.000226225  3.627270E-02 -1.560160E-02  8.923810E-02  2.447980E-02  1.000000E+00  0.000000E+00  1.000000E+00  0.000000E+00
  0.000228700  3.511490E-02 -1.665650E-02  8.852330E-02  2.297640E-02  1.000000E+00  0.000000E+00  1.000000E+00  0.000000E+00
  0.000231175  3.540640E-02 -1.602590E-02  8.923590E-02  2.289550E-02  1.000000E+00  0.000000E+00  1.000000E+00  0.000000E+00
  0.000233650  3.547200E-02 -1.521530E-02  8.979920E-02  2.224060E-02  1.000000E+00  0.000000E+00  1.000000E+00  0.000000E+00
  0.000236125  3.587480E-02 -1.429660E-02  9.006420E-02  2.057340E-02  1.000000E+00  0.000000E+00  1.000000E+00  0.000000E+00
  0.000238600  3.671540E-02 -1.507730E-02  8.935520E-02  2.055880E-02  1.000000E+00  0.000000E+00  1.000000E+00  0.000000E+00
  0.000241075  3.616080E-02 -1.480580E-02  8.989420E-02  1.941470E-02  1.000000E+00  0.000000E+00  1.000000E+00  0.000000E+00
  0.000243550  3.701040E-02 -1.417830E-02  9.053500E-02  1.840380E-02  1.000000E+00  0.000000E+00  1.000000E+00  0.000000E+00
  0.000246025  3.731870E-02 -1.416710E-02  9.004560E-02  1.768250E-02  1.000000E+00  0.000000E+00  1.000000E+00  0.000000E+00
  0.000248500  3.730420E-02 -1.348180E-02  9.057970E-02  1.691530E-02  1.000000E+00  0.000000E+00  1.000000E+00  0.000000E+00
  0.000250975  3.795910E-02 -1.460320E-02  9.030460E-02  1.599370E-02  1.000000E+00  0.000000E+00  1.000000E+00  0.000000E+00
  0.000253450  3.706670E-02 -1.323390E-02  9.090410E-02  1.532530E-02  1.000000E+00  0.000000E+00  1.000000E+00  0.000000E+00
  0.000255925  3.707160E-02 -1.203430E-02  9.084860E-02  1.487500E-02  1.000000E+00  0.000000E+00  1.000000E+00  0.000000E+00
  0.000258400  3.769020E-02 -1.285080E-02  9.047610E-02  1.359760E-02  1.000000E+00  0.000000E+00  1.000000E+00  0.000000E+00
  0.000260875  3.749920E-02 -1.223350E-02  9.071790E-02  1.274030E-02  1.000000E+00  0.000000E+00  1.000000E+00  0.000000E+00
  0.000263350  3.698310E-02 -1.135450E-02  9.057130E-02  1.245800E-02  1.000000E+00  0.000000E+00  1.000000E+00  0.000000E+00
  0.000265825  3.738370E-02 -1.195450E-02  9.062790E-02  1.134650E-02  1.000000E+00  0.000000E+00  1.000000E+00  0.000000E+00
  0.000268300  3.900760E-02 -1.165580E-02  9.075340E-02  1.033280E-02  1.000000E+00  0.000000E+00  1.000000E+00  0.000000E+00
  0.000270775  3.819600E-02 -1.101450E-02  9.067540E-02  9.836120E-03  1.000000E+00  0.000000E+00  1.000000E+00  0.000000E+00
  0.000273250  3.867450E-02 -1.157710E-02  9.051710E-02  9.609460E-03  1.000000E+00  0.000000E+00  1.000000E+00  0.000000E+00
  0.000275725  3.907760E-02 -1.097590E-02  9.145540E-02  8.549610E-03  1.000000E+00  0.000000E+00  1.000000E+00  0.000000E+00
  0.000278200  3.910430E-02 -1.020830E-02  9.083400E-02  8.019700E-03  1.000000E+00  0.000000E+00  1.000000E+00  0.000000E+00
  0.000280675  3.922900E-02 -1.036110E-02  8.995920E-02  6.988300E-03  1.000000E+00  0.000000E+00  1.000000E+00  0.000000E+00
  0.000283150  3.953440E-02 -1.082380E-02  9.084340E-02  5.672730E-03  1.000000E+00  0.000000E+00  1.000000E+00  0.000000E+00
  0.000285625  3.875250E-02 -1.067930E-02  9.060110E-02  5.010480E-03  1.000000E+00  0.000000E+00  1.000000E+00  0.000000E+00
  0.000288100  3.954990E-02 -1.032340E-02  9.019880E-02  4.522780E-03  1.000000E+00  0.000000E+00  1.000000E+00  0.000000E+00
  0.000290575  3.881500E-02 -8.808560E-03  8.993230E-02  3.960530E-03  1.000000E+00  0.000000E+00  1.000000E+00  0.000000E+00
  0.000293050  3.969180E-02 -9.055280E-03  9.046830E-02  4.052270E-03  1.000000E+00  0.000000E+00  1.000000E+00  0.000000E+00
  0.000295525  3.999920E-02 -8.254500E-03  9.095600E-02  2.748960E-03  1.000000E+00  0.000000E+00  1.000000E+00  0.000000E+00
  0.000298000  3.991580E-02 -9.549520E-03  9.039970E-02  2.845830E-03  1.000000E+00  0.000000E+00  1.000000E+00  0.000000E+00
  0.000300475  4.080290E-02 -9.073180E-03  8.980090E-02  1.761940E-03  1.000000E+00  0.000000E+00  1.000000E+00  0.000000E+00
  0.000302950  3.994310E-02 -7.906550E-03  9.044880E-02  1.124420E-03  1.000000E+00  0.000000E+00  1.000000E+00  0.000000E+00
  0.000305425  4.083460E-02 -7.627570E-03  9.026650E-02  8.868930E-04  1.000000E+00  0.000000E+00  1.000000E+00  0.000000E+00
  0.000307900  4.113080E-02 -8.695650E-03  8.990150E-02  1.031270E-04  1.000000E+00  0.000000E+00  1.000000E+00  0.000000E+00
  0.000310375  4.137800E-02 -9.212280E-03  8.856440E-02 -4.657710E-04  1.000000E+00  0.000000E+00  1.000000E+00  0.000000E+00
  0.000312850  4.179660E-02 -7.494440E-03  8.928940E-02 -9.143490E-04  1.000000E+00  0.000000E+00  1.000000E+00  0.000000E+00
  0.000315325  4.013010E-02 -8.461140E-03  8.966200E-02 -2.066110E-03  1.000000E+00  0.000000E+00  1.000000E+00  0.000000E+00
  0.000317800  4.152930E-02 -7.213930E-03  8.937900E-02 -2.390220E-03  1.000000E+00  0.000000E+00  1.000000E+00  0.000000E+00
  0.000320275  4.143520E-02 -6.374840E-03  8.916130E-02 -2.626650E-03  1.000000E+00  0.000000E+00  1.000000E+00  0.000000E+00
  0.000322750  4.107560E-02 -7.577260E-03  8.863540E-02 -2.697460E-03  1.000000E+00  0.000000E+00  1.000000E+00  0.000000E+00
  0.000325225  4.199350E-02 -8.060560E-03  8.867870E-02 -3.420310E-03  1.000000E+00  0.000000E+00  1.000000E+00  0.000000E+00
  0.000327700  4.221600E-02 -6.361750E-03  8.856880E-02 -4.359140E-03  1.000000E+00  0.000000E+00  1.000000E+00  0.000000E+00
  0.000330175  4.239170E-02 -7.478890E-03  8.847440E-02 -4.544180E-03  1.000000E+00  0.000000E+00  1.000000E+00  0.000000E+00
  0.000332650  4.190420E-02 -6.439150E-03  8.841530E-02 -3.758730E-03  1.000000E+00  0.000000E+00  1.000000E+00  0.000000E+00
  0.000335125  4.282480E-02 -6.876600E-03  8.849440E-02 -4.979750E-03  1.000000E+00  0.000000E+00  1.000000E+00  0.000000E+00
  0.000337600  4.208460E-02 -6.884500E-03  8.852270E-02 -5.427900E-03  1.000000E+00  0.000000E+00  1.000000E+00  0.000000E+00
  0.000340075  4.312270E-02 -6.942570E-03  8.952850E-02 -6.288200E-03  1.000000E+00  0.000000E+00  1.000000E+00  0.000000E+00
  0.000342550  4.318710E-02 -7.129890E-03  8.931120E-02 -5.887070E-03  1.000000E+00  0.000000E+00  1.000000E+00  0.000000E+00
  0.000345025  4.352470E-02 -7.014960E-03  8.876720E-02 -6.757200E-03  1.000000E+00  0.000000E+00  1.000000E+00  0.000000E+00
  0.000347500  4.405650E-02 -7.814690E-03  8.872140E-02 -7.427710E-03  1.000000E+00  0.000000E+00  1.000000E+00  0.000000E+00
  0.000349975  4.327050E-02 -5.456610E-03  8.944330E-02 -7.806810E-03  1.000000E+00  0.000000E+00  1.000000E+00  0.000000E+00
  0.000352450  4.452140E-02 -6.570380E-03  8.943790E-02 -8.156610E-03  1.000000E+00  0.000000E+00  1.000000E+00  0.000000E+00
  0.000354925  4.480400E-02 -5.697290E-03  8.929010E-02 -8.549330E-03  1.000000E+00  0.000000E+00  1.000000E+00  0.000000E+00
  0.000357400  4.413270E-02 -6.334350E-03  8.919320E-02 -9.481870E-03  1.000000E+00  0.000000E+00  1.000000E+00  0.000000E+00
  0.000359875  4.485720E-02 -6.698760E-03  8.888120E-02 -1.033410E-02  1.000000E+00  0.000000E+00  1.000000E+00  0.000000E+00
  0.000362350  4.461680E-02 -7.237560E-03  8.846940E-02 -1.019710E-02  1.000000E+00  0.000000E+00  1.000000E+00  0.000000E+00
  0.000364825  4.513240E-02 -5.663790E-03  8.953280E-02 -1.037070E-02  1.000000E+00  0.000000E+00  1.000000E+00  0.000000E+00
  0.000367300  4.498580E-02 -7.166590E-03  8.870170E-02 -1.144200E-02  1.000000E+00  0.000000E+00  1.000000E+00  0.000000E+00
  0.000369775  4.465600E-02 -5.961720E-03  8.875640E-02 -1.180390E-02  1.000000E+00  0.000000E+00  1.000000E+00  0.000000E+00
  0.000372250  4.492570E-02 -6.843240E-03  8.887660E-02 -1.174700E-02  1.000000E+00  0.000000E+00  1.000000E+00  0.000000E+00
  0.000374725  4.526980E-02 -6.487910E-03  8.819470E-02 -1.266810E-02  1.000000E+00  0.000000E+00  1.000000E+00  0.000000E+00
  0.000377200  4.462150E-02 -6.110630E-03  8.857030E-02 -1.349160E-02  1.000000E+00  0.000000E+00  1.000000E+00  0.000000E+00
  0.000379675  4.573660E-02 -6.686450E-03  8.888940E-02 -1.377850E-02  1.000000E+00  0.000000E+00  1.000000E+00  0.000000E+00
  0.000382150  4.538630E-02 -6.943160E-03  8.900440E-02 -1.332050E-02  1.000000E+00  0.000000E+00  1.000000E+00  0.000000E+00
  0.000384625  4.658430E-02 -7.210430E-03  8.918630E-02 -1.437980E-02  1.000000E+00  0.000000E+00  1.000000E+00  0.000000E+00
  0.000387100  4.470020E-02 -7.092300E-03  8.923030E-02 -1.536720E-02  1.000000E+00  0.000000E+00  1.000000E+00  0.000000E+00
  0.000389575  4.622900E-02 -7.202540E-03  8.846960E-02 -1.610460E-02  1.000000E+00  0.000000E+00  1.000000E+00  0.000000E+00
  0.000392050  4.608750E-02 -6.282230E-03  8.922990E-02 -1.586570E-02  1.000000E+00  0.000000E+00  1.000000E+00  0.000000E+00
  0.000394525  4.588330E-02 -7.036360E-03  8.915410E-02 -1.658920E-02  1.000000E+00  0.000000E+00  1.000000E+00  0.000000E+00
  0.000397000  4.556650E-02 -6.432950E-03  8.899210E-02 -1.726750E-02  1.000000E+00  0.000000E+00  1.000000E+00  0.000000E+00
  0.000399475  4.671710E-02 -7.295090E-03  8.908680E-02 -1.734550E-02  1.000000E+00  0.000000E+00  1.000000E+00  0.000000E+00
  0.000401950  4.573920E-02 -7.482080E-03  8.877560E-02 -1.897680E-02  1.000000E+00  0.000000E+00  1.000000E+00  0.000000E+00
  0.000404425  4.681970E-02 -6.680310E-03  8.795630E-02 -1.895510E-02  1.000000E+00  0.000000E+00  1.000000E+00  0.000000E+00
  0.000406900  4.653550E-02 -7.808990E-03  8.829570E-02 -1.965780E-02  1.000000E+00  0.000000E+00  1.000000E+00  0.000000E+00
  0.000409375  4.645940E-02 -7.624880E-03  8.832690E-02 -1.981770E-02  1.000000E+00  0.000000E+00  1.000000E+00  0.000000E+00
  0.000411850  4.535350E-02 -8.697320E-03  8.799510E-02 -2.018450E-02  1.000000E+00  0.000000E+00  1.000000E+00  0.000000E+00
  0.000414325  4.698300E-02 -7.414560E-03  8.735530E-02 -2.079150E-02  1.000000E+00  0.000000E+00  1.000000E+00  0.000000E+00
  0.000416800  4.576670E-02 -6.934000E-03  8.751020E-02 -2.164540E-02  1.000000E+00  0.000000E+00  1.000000E+00  0.000000E+00
  0.000419275  4.622950E-02 -7.409170E-03  8.761580E-02 -2.256330E-02  1.000000E+00  0.000000E+00  1.000000E+00  0.000000E+00
  0.000421750  4.750800E-02 -7.322310E-03  8.764940E-02 -2.244560E-02  1.000000E+00  0.000000E+00  1.000000E+00  0.000000E+00
  0.000424225  4.692210E-02 -6.977380E-03  8.665650E-02 -2.385030E-02  1.000000E+00  0.000000E+00  1.000000E+00  0.000000E+00
  0.000426700  4.671860E-02 -8.013120E-03  8.743750E-02 -2.368490E-02  1.000000E+00  0.000000E+00  1.000000E+00  0.000000E+00
  0.000429175  4.654960E-02 -7.214880E-03  8.650470E-02 -2.396010E-02  1.000000E+00  0.000000E+00  1.000000E+00  0.000000E+00
  0.000431650  4.671220E-02 -7.316990E-03  8.599590E-02 -2.426000E-02  1.000000E+00  0.000000E+00  1.000000E+00  0.000000E+00
  0.000434125  4.712410E-02 -7.735400E-03  8.582630E-02 -2.502890E-02  1.000000E+00  0.000000E+00  1.000000E+00  0.000000E+00
  0.000436600  4.591430E-02 -7.102300E-03  8.458350E-02 -2.452550E-02  1.000000E+00  0.000000E+00  1.000000E+00  0.000000E+00
  0.000439075  4.627430E-02 -7.218140E-03  8.451690E-02 -2.553530E-02  1.000000E+00  0.000000E+00  1.000000E+00  0.000000E+00
  0.000441550  4.610940E-02 -7.307980E-03  8.457790E-02 -2.579540E-02  1.000000E+00  0.000000E+00  1.000000E+00  0.000000E+00
  0.000444025  4.605830E-02 -6.634150E-03  8.526560E-02 -2.718300E-02  1.000000E+00  0.000000E+00  1.000000E+00  0.000000E+00
  0.000446500  4.658820E-02 -7.932300E-03  8.465870E-02 -2.639760E-02  1.000000E+00  0.000000E+00  1.000000E+00  0.000000E+00
  0.000448975  4.668180E-02 -7.183150E-03  8.425890E-02 -2.692240E-02  1.000000E+00  0.000000E+00  1.000000E+00  0.000000E+00
  0.000451450  4.630890E-02 -7.528420E-03  8.391810E-02 -2.671870E-02  1.000000E+00  0.000000E+00  1.000000E+00  0.000000E+00
  0.000453925  4.640850E-02 -7.664120E-03  8.406410E-02 -2.745110E-02  1.000000E+00  0.000000E+00  1.000000E+00  0.000000E+00
