! Anritsu VNA Master:                        Model: MS2026C/19
! SN:                                  1815009
! /card0/usr/20180902_5.s2p
! Existing Calibration Information:
! TYPE:                         Current Settings,       Active Cal Settings
! TIME:             	   09/02/2018 12:32:31 PM,    09/02/2018 11:58:48 AM
! INTERNAL TEMP:    	                   52.5 C,                    48.8 C
! # POINTS:         	                     4001,                      4001
! START FREQ:       	              100.000 kHz,               100.000 kHz
! STOP FREQ:        	               10.000 MHz,                10.000 MHz
! SOURCE POWER:     	                      Low,                       Low
! IFBW:             	                   500 Hz,                    500 Hz
! AVG FACTOR:       	                       1 ,                        1 
! REF PLANE 1:      	                     0 mm,                      0 mm
! REF PLANE 2:      	                     0 mm,                      0 mm
! CAL TYPE:         	             1P2P S11,S21,              1P2P S11,S21
! CAL METHOD:       	                     SOLT,                      SOLT
! CAL LINE TYPE:    	                     Coax,                      Coax
! DUT PORT 1:       	                N-Conn(M),                 N-Conn(M)
! DUT PORT 2:       	                N-Conn(M),                 N-Conn(M)
! CAL STATUS:       	        OK: Accuracy High,                        --
# GHZ S RI R 50.0
! FREQ.GHZ      S11RE         S11IM         S21RE         S21IM         S12RE         S12IM         S22RE         S22IM
  0.000100000  1.264560E-04 -6.028620E-02  2.385330E-04 -2.153410E-03  1.000000E+00  0.000000E+00  1.000000E+00  0.000000E+00
  0.000102475  2.746680E-03 -5.672240E-02  5.618740E-04 -1.658850E-03  1.000000E+00  0.000000E+00  1.000000E+00  0.000000E+00
  0.000104950  3.480780E-03 -5.614210E-02 -1.084950E-03 -2.519800E-03  1.000000E+00  0.000000E+00  1.000000E+00  0.000000E+00
  0.000107425  5.412620E-03 -5.318920E-02 -7.296960E-04 -2.519240E-03  1.000000E+00  0.000000E+00  1.000000E+00  0.000000E+00
  0.000109900  6.533360E-03 -5.146050E-02 -6.529410E-04 -2.652110E-03  1.000000E+00  0.000000E+00  1.000000E+00  0.000000E+00
  0.000112375  7.808410E-03 -4.896780E-02 -5.761400E-04 -3.415220E-03  1.000000E+00  0.000000E+00  1.000000E+00  0.000000E+00
  0.000114850  8.962570E-03 -4.719180E-02 -5.967440E-04 -1.856940E-03  1.000000E+00  0.000000E+00  1.000000E+00  0.000000E+00
  0.000117325  1.002720E-02 -4.539410E-02 -1.362660E-03 -1.478220E-03  1.000000E+00  0.000000E+00  1.000000E+00  0.000000E+00
  0.000119800  1.117340E-02 -4.300210E-02 -1.599760E-03 -1.702100E-03  1.000000E+00  0.000000E+00  1.000000E+00  0.000000E+00
  0.000122275  1.189010E-02 -4.153030E-02 -1.320700E-03 -1.891010E-03  1.000000E+00  0.000000E+00  1.000000E+00  0.000000E+00
  0.000124750  1.417900E-02 -4.106970E-02 -7.184600E-04 -1.034160E-03  1.000000E+00  0.000000E+00  1.000000E+00  0.000000E+00
  0.000127225  1.268110E-02 -3.895110E-02 -1.757520E-03 -1.999950E-03  1.000000E+00  0.000000E+00  1.000000E+00  0.000000E+00
  0.000129700  1.465980E-02 -3.657910E-02 -6.875920E-04 -7.786920E-04  1.000000E+00  0.000000E+00  1.000000E+00  0.000000E+00
  0.000132175  1.663490E-02 -3.745030E-02 -1.039470E-03 -2.479360E-03  1.000000E+00  0.000000E+00  1.000000E+00  0.000000E+00
  0.000134650  1.545410E-02 -3.676790E-02 -1.082180E-03 -2.438570E-04  1.000000E+00  0.000000E+00  1.000000E+00  0.000000E+00
  0.000137125  1.686200E-02 -3.549180E-02  2.797150E-04 -2.543700E-04  1.000000E+00  0.000000E+00  1.000000E+00  0.000000E+00
  0.000139600  1.728770E-02 -3.404700E-02 -1.474090E-03 -1.323580E-03  1.000000E+00  0.000000E+00  1.000000E+00  0.000000E+00
  0.000142075  1.972470E-02 -3.320050E-02 -1.587620E-03 -5.455540E-04  1.000000E+00  0.000000E+00  1.000000E+00  0.000000E+00
  0.000144550  1.866460E-02 -3.170180E-02 -9.489970E-04 -1.895650E-03  1.000000E+00  0.000000E+00  1.000000E+00  0.000000E+00
  0.000147025  2.134230E-02 -3.100910E-02 -6.507210E-04 -5.680590E-04  1.000000E+00  0.000000E+00  1.000000E+00  0.000000E+00
  0.000149500  2.138660E-02 -2.986480E-02 -9.268640E-04  5.211240E-04  1.000000E+00  0.000000E+00  1.000000E+00  0.000000E+00
  0.000151975  2.026380E-02 -3.027160E-02 -8.875970E-04 -1.553460E-03  1.000000E+00  0.000000E+00  1.000000E+00  0.000000E+00
  0.000154450  2.114340E-02 -2.776200E-02 -1.871720E-03 -1.125400E-03  1.000000E+00  0.000000E+00  1.000000E+00  0.000000E+00
  0.000156925  2.186850E-02 -2.704610E-02 -7.279290E-04  5.206010E-04  1.000000E+00  0.000000E+00  1.000000E+00  0.000000E+00
  0.000159400  2.164470E-02 -2.696470E-02 -8.088430E-04 -5.813780E-05  1.000000E+00  0.000000E+00  1.000000E+00  0.000000E+00
  0.000161875  2.239070E-02 -2.712600E-02 -1.480810E-03 -1.068740E-03  1.000000E+00  0.000000E+00  1.000000E+00  0.000000E+00
  0.000164350  2.440110E-02 -2.666500E-02 -1.498130E-03 -1.456010E-03  1.000000E+00  0.000000E+00  1.000000E+00  0.000000E+00
  0.000166825  2.445950E-02 -2.636080E-02 -1.042350E-03 -2.600620E-04  1.000000E+00  0.000000E+00  1.000000E+00  0.000000E+00
  0.000169300  2.275580E-02 -2.456120E-02 -1.708110E-03  6.961710E-04  1.000000E+00  0.000000E+00  1.000000E+00  0.000000E+00
  0.000171775  2.468160E-02 -2.467990E-02 -3.655070E-04 -1.002030E-03  1.000000E+00  0.000000E+00  1.000000E+00  0.000000E+00
  0.000174250  2.443850E-02 -2.294760E-02 -7.780150E-04 -1.441950E-03  1.000000E+00  0.000000E+00  1.000000E+00  0.000000E+00
  0.000176725  2.508460E-02 -2.292420E-02  3.557400E-05 -1.741140E-03  1.000000E+00  0.000000E+00  1.000000E+00  0.000000E+00
  0.000179200  2.551500E-02 -2.218680E-02 -1.623010E-03 -1.077580E-03  1.000000E+00  0.000000E+00  1.000000E+00  0.000000E+00
  0.000181675  2.566860E-02 -2.327040E-02 -1.222150E-03 -2.575570E-04  1.000000E+00  0.000000E+00  1.000000E+00  0.000000E+00
  0.000184150  2.639780E-02 -2.083540E-02 -1.115690E-03 -1.101420E-03  1.000000E+00  0.000000E+00  1.000000E+00  0.000000E+00
  0.000186625  2.643460E-02 -1.993760E-02 -2.017490E-03 -1.925900E-04  1.000000E+00  0.000000E+00  1.000000E+00  0.000000E+00
  0.000189100  2.679250E-02 -2.019720E-02 -1.882960E-03 -1.023020E-04  1.000000E+00  0.000000E+00  1.000000E+00  0.000000E+00
  0.000191575  2.627000E-02 -2.105600E-02 -1.156890E-03 -4.655130E-04  1.000000E+00  0.000000E+00  1.000000E+00  0.000000E+00
  0.000194050  2.629490E-02 -1.972010E-02 -1.352510E-03 -4.835080E-04  1.000000E+00  0.000000E+00  1.000000E+00  0.000000E+00
  0.000196525  2.808400E-02 -1.867060E-02 -1.358810E-03 -8.009540E-04  1.000000E+00  0.000000E+00  1.000000E+00  0.000000E+00
  0.000199000  2.941650E-02 -1.856710E-02 -3.495800E-04 -4.787820E-05  1.000000E+00  0.000000E+00  1.000000E+00  0.000000E+00
  0.000201475  2.736800E-02 -1.876870E-02  2.274760E-04 -1.049370E-03  1.000000E+00  0.000000E+00  1.000000E+00  0.000000E+00
  0.000203950  2.686820E-02 -1.718210E-02 -1.309070E-03 -1.907050E-03  1.000000E+00  0.000000E+00  1.000000E+00  0.000000E+00
  0.000206425  2.808300E-02 -1.864720E-02 -1.614680E-03 -1.093460E-03  1.000000E+00  0.000000E+00  1.000000E+00  0.000000E+00
  0.000208900  2.989640E-02 -1.671650E-02 -1.844350E-03 -7.732680E-04  1.000000E+00  0.000000E+00  1.000000E+00  0.000000E+00
  0.000211375  2.911370E-02 -1.713660E-02  6.239660E-04  5.431720E-05  1.000000E+00  0.000000E+00  1.000000E+00  0.000000E+00
  0.000213850  2.955870E-02 -1.734080E-02 -1.780920E-03 -1.301290E-03  1.000000E+00  0.000000E+00  1.000000E+00  0.000000E+00
  0.000216325  2.881600E-02 -1.677880E-02 -2.473990E-03 -1.455400E-03  1.000000E+00  0.000000E+00  1.000000E+00  0.000000E+00
  0.000218800  2.981580E-02 -1.588890E-02 -1.442670E-03 -5.348040E-04  1.000000E+00  0.000000E+00  1.000000E+00  0.000000E+00
  0.000221275  3.007650E-02 -1.555040E-02 -6.895070E-04 -6.276250E-04  1.000000E+00  0.000000E+00  1.000000E+00  0.000000E+00
  0.000223750  3.081170E-02 -1.604010E-02 -1.004670E-03 -1.431530E-03  1.000000E+00  0.000000E+00  1.000000E+00  0.000000E+00
  0.000226225  3.123840E-02 -1.450080E-02 -2.472270E-03 -1.541700E-03  1.000000E+00  0.000000E+00  1.000000E+00  0.000000E+00
  0.000228700  3.041620E-02 -1.447400E-02 -1.695300E-03 -6.249910E-04  1.000000E+00  0.000000E+00  1.000000E+00  0.000000E+00
  0.000231175  2.920800E-02 -1.429030E-02 -4.505610E-04 -2.516230E-04  1.000000E+00  0.000000E+00  1.000000E+00  0.000000E+00
  0.000233650  3.073000E-02 -1.518900E-02 -2.351110E-04 -1.814840E-03  1.000000E+00  0.000000E+00  1.000000E+00  0.000000E+00
  0.000236125  3.172740E-02 -1.336900E-02 -7.106780E-04 -3.316300E-04  1.000000E+00  0.000000E+00  1.000000E+00  0.000000E+00
  0.000238600  3.016830E-02 -1.302640E-02 -2.013810E-03 -2.399030E-03  1.000000E+00  0.000000E+00  1.000000E+00  0.000000E+00
  0.000241075  3.241750E-02 -1.348480E-02 -4.689360E-04 -2.353890E-05  1.000000E+00  0.000000E+00  1.000000E+00  0.000000E+00
  0.000243550  3.155190E-02 -1.214290E-02 -7.976800E-04  3.211320E-04  1.000000E+00  0.000000E+00  1.000000E+00  0.000000E+00
  0.000246025  3.163210E-02 -1.234520E-02 -1.180690E-03 -5.086980E-04  1.000000E+00  0.000000E+00  1.000000E+00  0.000000E+00
  0.000248500  3.212560E-02 -1.200720E-02 -3.382250E-03 -6.723600E-04  1.000000E+00  0.000000E+00  1.000000E+00  0.000000E+00
  0.000250975  3.218860E-02 -1.287530E-02 -1.019900E-03 -9.768460E-04  1.000000E+00  0.000000E+00  1.000000E+00  0.000000E+00
  0.000253450  3.142510E-02 -1.110530E-02 -2.522470E-03 -9.293120E-04  1.000000E+00  0.000000E+00  1.000000E+00  0.000000E+00
  0.000255925  3.070520E-02 -9.823600E-03 -1.605930E-03 -1.339850E-03  1.000000E+00  0.000000E+00  1.000000E+00  0.000000E+00
  0.000258400  3.209810E-02 -9.905370E-03 -2.387260E-03 -1.412270E-03  1.000000E+00  0.000000E+00  1.000000E+00  0.000000E+00
  0.000260875  3.354480E-02 -9.665310E-03 -2.075970E-03 -1.105130E-03  1.000000E+00  0.000000E+00  1.000000E+00  0.000000E+00
  0.000263350  3.182260E-02 -9.392580E-03 -3.158920E-03 -1.030280E-03  1.000000E+00  0.000000E+00  1.000000E+00  0.000000E+00
  0.000265825  3.318910E-02 -1.049790E-02 -9.073150E-04 -6.828620E-04  1.000000E+00  0.000000E+00  1.000000E+00  0.000000E+00
  0.000268300  3.242220E-02 -9.406370E-03 -2.061490E-03 -9.053390E-04  1.000000E+00  0.000000E+00  1.000000E+00  0.000000E+00
  0.000270775  3.249300E-02 -9.099970E-03 -2.499390E-03 -2.034620E-03  1.000000E+00  0.000000E+00  1.000000E+00  0.000000E+00
  0.000273250  3.227860E-02 -8.071070E-03 -1.761850E-03 -7.280850E-04  1.000000E+00  0.000000E+00  1.000000E+00  0.000000E+00
  0.000275725  3.355040E-02 -9.101790E-03 -1.984460E-03 -1.572220E-03  1.000000E+00  0.000000E+00  1.000000E+00  0.000000E+00
  0.000278200  3.401640E-02 -8.848710E-03 -2.987270E-03 -1.129910E-04  1.000000E+00  0.000000E+00  1.000000E+00  0.000000E+00
  0.000280675  3.262340E-02 -6.781850E-03 -4.184560E-03 -9.324340E-04  1.000000E+00  0.000000E+00  1.000000E+00  0.000000E+00
  0.000283150  3.348950E-02 -7.352060E-03 -9.181260E-04 -1.189640E-03  1.000000E+00  0.000000E+00  1.000000E+00  0.000000E+00
  0.000285625  3.403730E-02 -9.286970E-03 -2.049060E-03 -1.898770E-03  1.000000E+00  0.000000E+00  1.000000E+00  0.000000E+00
  0.000288100  3.337490E-02 -7.630390E-03 -2.198680E-03 -1.053610E-03  1.000000E+00  0.000000E+00  1.000000E+00  0.000000E+00
  0.000290575  3.396850E-02 -6.033560E-03 -4.582410E-03 -2.248240E-03  1.000000E+00  0.000000E+00  1.000000E+00  0.000000E+00
  0.000293050  3.406830E-02 -5.230920E-03 -2.678160E-03 -1.879360E-03  1.000000E+00  0.000000E+00  1.000000E+00  0.000000E+00
  0.000295525  3.449190E-02 -5.011600E-03 -1.917500E-03 -1.090770E-03  1.000000E+00  0.000000E+00  1.000000E+00  0.000000E+00
  0.000298000  3.383930E-02 -5.210920E-03 -2.615020E-03 -1.183930E-03  1.000000E+00  0.000000E+00  1.000000E+00  0.000000E+00
  0.000300475  3.570910E-02 -5.819520E-03 -4.275770E-03 -1.595010E-03  1.000000E+00  0.000000E+00  1.000000E+00  0.000000E+00
  0.000302950  3.335630E-02 -3.734730E-03 -5.433320E-03 -1.728630E-03  1.000000E+00  0.000000E+00  1.000000E+00  0.000000E+00
  0.000305425  3.571560E-02 -3.303270E-03 -5.987460E-04 -6.768750E-04  1.000000E+00  0.000000E+00  1.000000E+00  0.000000E+00
  0.000307900  3.597300E-02 -5.691100E-03 -2.197130E-03 -2.958910E-04  1.000000E+00  0.000000E+00  1.000000E+00  0.000000E+00
  0.000310375  3.745520E-02 -4.161920E-03 -4.795060E-03 -2.998550E-04  1.000000E+00  0.000000E+00  1.000000E+00  0.000000E+00
  0.000312850  3.894960E-02 -4.124320E-03 -8.934210E-03 -1.335740E-03  1.000000E+00  0.000000E+00  1.000000E+00  0.000000E+00
  0.000315325  3.556610E-02 -4.801810E-03 -3.329270E-03 -2.042750E-03  1.000000E+00  0.000000E+00  1.000000E+00  0.000000E+00
  0.000317800  3.660300E-02 -3.033120E-03 -3.470750E-03 -1.541830E-03  1.000000E+00  0.000000E+00  1.000000E+00  0.000000E+00
  0.000320275  3.651270E-02 -2.292160E-03 -2.290290E-03 -5.611490E-04  1.000000E+00  0.000000E+00  1.000000E+00  0.000000E+00
  0.000322750  3.710620E-02 -1.405220E-03 -1.180460E-02  2.226640E-04  1.000000E+00  0.000000E+00  1.000000E+00  0.000000E+00
  0.000325225  3.692430E-02 -2.897560E-03 -6.073970E-03  1.293030E-04  1.000000E+00  0.000000E+00  1.000000E+00  0.000000E+00
  0.000327700  3.729330E-02 -2.113650E-03 -2.649440E-03 -1.514730E-03  1.000000E+00  0.000000E+00  1.000000E+00  0.000000E+00
  0.000330175  3.811100E-02 -2.416430E-03 -4.148440E-03 -1.557190E-03  1.000000E+00  0.000000E+00  1.000000E+00  0.000000E+00
  0.000332650  3.794670E-02 -1.939280E-03 -1.000400E-02  4.793490E-03  1.000000E+00  0.000000E+00  1.000000E+00  0.000000E+00
  0.000335125  3.896060E-02 -1.935490E-03 -8.690770E-03  6.432310E-03  1.000000E+00  0.000000E+00  1.000000E+00  0.000000E+00
  0.000337600  3.828930E-02 -8.941300E-04 -3.000080E-03 -3.282740E-04  1.000000E+00  0.000000E+00  1.000000E+00  0.000000E+00
  0.000340075  3.867580E-02 -2.639880E-03 -3.642750E-03  1.026450E-03  1.000000E+00  0.000000E+00  1.000000E+00  0.000000E+00
  0.000342550  3.929320E-02 -1.010700E-03 -7.092310E-03  5.206190E-03  1.000000E+00  0.000000E+00  1.000000E+00  0.000000E+00
  0.000345025  4.037460E-02 -3.421040E-03 -5.205360E-03  1.215050E-02  1.000000E+00  0.000000E+00  1.000000E+00  0.000000E+00
  0.000347500  3.861080E-02 -1.983290E-03 -4.528290E-03 -5.624410E-04  1.000000E+00  0.000000E+00  1.000000E+00  0.000000E+00
  0.000349975  3.989210E-02  1.100570E-04 -4.655430E-03  5.698290E-04  1.000000E+00  0.000000E+00  1.000000E+00  0.000000E+00
  0.000352450  4.034340E-02  8.133580E-05 -6.418010E-03  4.811480E-03  1.000000E+00  0.000000E+00  1.000000E+00  0.000000E+00
  0.000354925  4.091170E-02 -6.764890E-04  1.382600E-03  1.045060E-02  1.000000E+00  0.000000E+00  1.000000E+00  0.000000E+00
  0.000357400  3.981770E-02  9.006620E-05 -5.000200E-03  3.073020E-03  1.000000E+00  0.000000E+00  1.000000E+00  0.000000E+00
  0.000359875  4.262800E-02 -8.969590E-04 -5.617630E-03  1.985900E-03  1.000000E+00  0.000000E+00  1.000000E+00  0.000000E+00
  0.000362350  4.331540E-02 -3.415640E-04 -6.293870E-03  4.341330E-03  1.000000E+00  0.000000E+00  1.000000E+00  0.000000E+00
  0.000364825  4.241400E-02 -7.160880E-04  1.084740E-03  7.973230E-03  1.000000E+00  0.000000E+00  1.000000E+00  0.000000E+00
  0.000367300  4.216260E-02 -6.716990E-04 -2.694630E-03  4.782600E-03  1.000000E+00  0.000000E+00  1.000000E+00  0.000000E+00
  0.000369775  4.265370E-02 -4.041760E-04 -5.449670E-03  3.232730E-03  1.000000E+00  0.000000E+00  1.000000E+00  0.000000E+00
  0.000372250  4.250270E-02  1.418090E-04 -4.898780E-03  4.393490E-03  1.000000E+00  0.000000E+00  1.000000E+00  0.000000E+00
  0.000374725  4.224440E-02 -1.912260E-03 -6.444100E-05  6.418740E-03  1.000000E+00  0.000000E+00  1.000000E+00  0.000000E+00
  0.000377200  4.398400E-02 -2.325790E-03 -3.930230E-04  6.300180E-03  1.000000E+00  0.000000E+00  1.000000E+00  0.000000E+00
  0.000379675  4.396860E-02 -1.557820E-03 -5.012260E-03  5.472820E-03  1.000000E+00  0.000000E+00  1.000000E+00  0.000000E+00
  0.000382150  4.311320E-02 -6.507160E-04 -5.120790E-03  7.421350E-03  1.000000E+00  0.000000E+00  1.000000E+00  0.000000E+00
  0.000384625  4.363580E-02 -1.863970E-03  5.289360E-04  7.307840E-03  1.000000E+00  0.000000E+00  1.000000E+00  0.000000E+00
  0.000387100  4.263030E-02 -1.977590E-03  2.482980E-03  4.786820E-03  1.000000E+00  0.000000E+00  1.000000E+00  0.000000E+00
  0.000389575  4.382080E-02 -4.133440E-04 -4.368580E-03  8.240520E-03  1.000000E+00  0.000000E+00  1.000000E+00  0.000000E+00
  0.000392050  4.452090E-02  3.596750E-04 -1.924020E-03  1.013410E-02  1.000000E+00  0.000000E+00  1.000000E+00  0.000000E+00
  0.000394525  4.434540E-02 -1.228540E-03  2.086320E-03  7.511740E-03  1.000000E+00  0.000000E+00  1.000000E+00  0.000000E+00
  0.000397000  4.220740E-02  1.314090E-06  2.518240E-03  4.263950E-03  1.000000E+00  0.000000E+00  1.000000E+00  0.000000E+00
  0.000399475  4.600490E-02 -2.386980E-03  2.809330E-03  7.616470E-03  1.000000E+00  0.000000E+00  1.000000E+00  0.000000E+00
  0.000401950  4.601330E-02 -1.389550E-03  1.372490E-03  8.265220E-03  1.000000E+00  0.000000E+00  1.000000E+00  0.000000E+00
  0.000404425  4.506440E-02 -1.616870E-03  3.859590E-03  5.931200E-03  1.000000E+00  0.000000E+00  1.000000E+00  0.000000E+00
  0.000406900  4.538950E-02 -1.139050E-03  2.832170E-03  2.080160E-03  1.000000E+00  0.000000E+00  1.000000E+00  0.000000E+00
  0.000409375  4.506850E-02 -2.941830E-03  3.233220E-03  4.294310E-03  1.000000E+00  0.000000E+00  1.000000E+00  0.000000E+00
  0.000411850  4.353910E-02 -3.113310E-03  4.512730E-03  6.641600E-03  1.000000E+00  0.000000E+00  1.000000E+00  0.000000E+00
  0.000414325  4.550310E-02 -1.149010E-03  4.476840E-03  5.267260E-03  1.000000E+00  0.000000E+00  1.000000E+00  0.000000E+00
  0.000416800  4.534990E-02 -2.915100E-03  4.707740E-03  3.327710E-03  1.000000E+00  0.000000E+00  1.000000E+00  0.000000E+00
  0.000419275  4.688130E-02 -1.907640E-03  3.685570E-03  3.033710E-03  1.000000E+00  0.000000E+00  1.000000E+00  0.000000E+00
  0.000421750  4.597300E-02 -2.225460E-03  5.031440E-03  2.909180E-03  1.000000E+00  0.000000E+00  1.000000E+00  0.000000E+00
  0.000424225  4.859550E-02 -1.467650E-03  4.623140E-03  3.042480E-03  1.000000E+00  0.000000E+00  1.000000E+00  0.000000E+00
  0.000426700  4.555870E-02 -1.556150E-03  5.944140E-03  1.510760E-03  1.000000E+00  0.000000E+00  1.000000E+00  0.000000E+00
  0.000429175  4.528580E-02 -3.363140E-03  2.735470E-03  1.227150E-03  1.000000E+00  0.000000E+00  1.000000E+00  0.000000E+00
  0.000431650  4.489830E-02 -3.454450E-03  3.717780E-03  7.580230E-04  1.000000E+00  0.000000E+00  1.000000E+00  0.000000E+00
  0.000434125  4.714040E-02 -2.645620E-03  5.951650E-03 -2.178890E-05  1.000000E+00  0.000000E+00  1.000000E+00  0.000000E+00
  0.000436600  4.559830E-02 -2.433120E-03  4.675000E-03 -5.873510E-04  1.000000E+00  0.000000E+00  1.000000E+00  0.000000E+00
  0.000439075  4.634210E-02 -3.262130E-03  3.693350E-03 -2.267280E-04  1.000000E+00  0.000000E+00  1.000000E+00  0.000000E+00
  0.000441550  4.524790E-02 -1.271040E-03  2.459250E-03 -1.574620E-05  1.000000E+00  0.000000E+00  1.000000E+00  0.000000E+00
  0.000444025  4.701550E-02 -2.903620E-03  4.805250E-03 -7.165870E-05  1.000000E+00  0.000000E+00  1.000000E+00  0.000000E+00
  0.000446500  4.789350E-02 -2.861890E-03  3.821810E-03 -3.796420E-03  1.000000E+00  0.000000E+00  1.000000E+00  0.000000E+00
  0.000448975  4.586340E-02 -1.479700E-03  1.880510E-03 -1.351710E-03  1.000000E+00  0.000000E+00  1.000000E+00  0.000000E+00
  0.000451450  4.609730E-02 -3.000530E-03  2.820730E-03  3.191040E-04  1.000000E+00  0.000000E+00  1.000000E+00  0.000000E+00
  0.000453925  4.638290E-02 -2.771110E-03  1.016450E-03 -3.235100E-03  1.000000E+00  0.000000E+00  1.000000E+00  0.000000E+00
