! Anritsu VNA Master:                        Model: MS2026C/19
! SN:                                  1815009
! /card0/usr/20180902_3.s2p
! Existing Calibration Information:
! TYPE:                         Current Settings,       Active Cal Settings
! TIME:             	   09/02/2018 12:29:08 PM,    09/02/2018 11:58:48 AM
! INTERNAL TEMP:    	                   52.3 C,                    48.8 C
! # POINTS:         	                     4001,                      4001
! START FREQ:       	              100.000 kHz,               100.000 kHz
! STOP FREQ:        	               10.000 MHz,                10.000 MHz
! SOURCE POWER:     	                      Low,                       Low
! IFBW:             	                   500 Hz,                    500 Hz
! AVG FACTOR:       	                       1 ,                        1 
! REF PLANE 1:      	                     0 mm,                      0 mm
! REF PLANE 2:      	                     0 mm,                      0 mm
! CAL TYPE:         	             1P2P S11,S21,              1P2P S11,S21
! CAL METHOD:       	                     SOLT,                      SOLT
! CAL LINE TYPE:    	                     Coax,                      Coax
! DUT PORT 1:       	                N-Conn(M),                 N-Conn(M)
! DUT PORT 2:       	                N-Conn(M),                 N-Conn(M)
! CAL STATUS:       	        OK: Accuracy High,                        --
# GHZ S RI R 50.0
! FREQ.GHZ      S11RE         S11IM         S21RE         S21IM         S12RE         S12IM         S22RE         S22IM
  0.000100000  2.724440E-04 -6.011970E-02 -1.067220E-03 -1.772010E-03  1.000000E+00  0.000000E+00  1.000000E+00  0.000000E+00
  0.000102475  1.882240E-03 -5.663660E-02 -1.458640E-04 -3.333450E-03  1.000000E+00  0.000000E+00  1.000000E+00  0.000000E+00
  0.000104950  4.331460E-03 -5.501700E-02 -6.735060E-04 -2.638930E-03  1.000000E+00  0.000000E+00  1.000000E+00  0.000000E+00
  0.000107425  5.100110E-03 -5.337990E-02 -1.213590E-03 -2.519290E-03  1.000000E+00  0.000000E+00  1.000000E+00  0.000000E+00
  0.000109900  5.620250E-03 -5.042270E-02 -6.513810E-04 -2.263670E-03  1.000000E+00  0.000000E+00  1.000000E+00  0.000000E+00
  0.000112375  8.275450E-03 -4.848740E-02 -7.488480E-04 -3.663420E-03  1.000000E+00  0.000000E+00  1.000000E+00  0.000000E+00
  0.000114850  7.601460E-03 -4.677680E-02 -1.557790E-03 -2.376510E-03  1.000000E+00  0.000000E+00  1.000000E+00  0.000000E+00
  0.000117325  1.022510E-02 -4.563220E-02  3.172110E-04 -4.854860E-04  1.000000E+00  0.000000E+00  1.000000E+00  0.000000E+00
  0.000119800  1.149830E-02 -4.306370E-02 -6.634530E-04 -1.576760E-03  1.000000E+00  0.000000E+00  1.000000E+00  0.000000E+00
  0.000122275  1.183220E-02 -4.143550E-02 -2.748020E-03 -2.437500E-03  1.000000E+00  0.000000E+00  1.000000E+00  0.000000E+00
  0.000124750  1.247120E-02 -4.010030E-02 -1.929340E-03 -1.701990E-03  1.000000E+00  0.000000E+00  1.000000E+00  0.000000E+00
  0.000127225  1.295340E-02 -3.845580E-02 -1.775060E-05 -3.565340E-04  1.000000E+00  0.000000E+00  1.000000E+00  0.000000E+00
  0.000129700  1.389740E-02 -3.672430E-02 -7.197250E-04 -1.354920E-03  1.000000E+00  0.000000E+00  1.000000E+00  0.000000E+00
  0.000132175  1.561830E-02 -3.654240E-02 -1.218940E-03 -1.169720E-03  1.000000E+00  0.000000E+00  1.000000E+00  0.000000E+00
  0.000134650  1.510190E-02 -3.499790E-02 -1.560830E-03 -2.267110E-03  1.000000E+00  0.000000E+00  1.000000E+00  0.000000E+00
  0.000137125  1.597090E-02 -3.563890E-02 -1.925240E-03 -1.312390E-03  1.000000E+00  0.000000E+00  1.000000E+00  0.000000E+00
  0.000139600  1.849890E-02 -3.398790E-02 -8.385400E-04 -1.323030E-03  1.000000E+00  0.000000E+00  1.000000E+00  0.000000E+00
  0.000142075  1.945910E-02 -3.200860E-02 -1.176860E-03 -1.235630E-03  1.000000E+00  0.000000E+00  1.000000E+00  0.000000E+00
  0.000144550  1.906940E-02 -3.206410E-02 -7.345760E-04 -8.673840E-04  1.000000E+00  0.000000E+00  1.000000E+00  0.000000E+00
  0.000147025  1.862480E-02 -3.115320E-02 -1.229200E-03 -1.754430E-03  1.000000E+00  0.000000E+00  1.000000E+00  0.000000E+00
  0.000149500  2.119600E-02 -3.008190E-02 -8.001690E-04 -9.628590E-05  1.000000E+00  0.000000E+00  1.000000E+00  0.000000E+00
  0.000151975  2.046050E-02 -2.909300E-02 -1.052240E-04 -9.886380E-04  1.000000E+00  0.000000E+00  1.000000E+00  0.000000E+00
  0.000154450  2.096550E-02 -2.767240E-02 -2.580870E-03 -2.143850E-03  1.000000E+00  0.000000E+00  1.000000E+00  0.000000E+00
  0.000156925  2.330690E-02 -2.669490E-02 -9.400390E-04 -5.500890E-04  1.000000E+00  0.000000E+00  1.000000E+00  0.000000E+00
  0.000159400  2.143950E-02 -2.620450E-02 -9.121780E-04 -1.220710E-03  1.000000E+00  0.000000E+00  1.000000E+00  0.000000E+00
  0.000161875  2.244940E-02 -2.609260E-02 -4.536340E-04 -3.265960E-04  1.000000E+00  0.000000E+00  1.000000E+00  0.000000E+00
  0.000164350  2.372570E-02 -2.587430E-02 -1.952190E-03 -1.840220E-03  1.000000E+00  0.000000E+00  1.000000E+00  0.000000E+00
  0.000166825  2.273290E-02 -2.549110E-02  2.167090E-04 -1.189320E-03  1.000000E+00  0.000000E+00  1.000000E+00  0.000000E+00
  0.000169300  2.420820E-02 -2.457580E-02 -1.047350E-03  4.785770E-05  1.000000E+00  0.000000E+00  1.000000E+00  0.000000E+00
  0.000171775  2.554980E-02 -2.410000E-02 -1.013090E-03  4.952870E-04  1.000000E+00  0.000000E+00  1.000000E+00  0.000000E+00
  0.000174250  2.654340E-02 -2.221760E-02 -2.173410E-03 -8.136820E-04  1.000000E+00  0.000000E+00  1.000000E+00  0.000000E+00
  0.000176725  2.539050E-02 -2.216060E-02 -1.820470E-03 -8.132770E-04  1.000000E+00  0.000000E+00  1.000000E+00  0.000000E+00
  0.000179200  2.579700E-02 -2.150030E-02  3.433800E-04  1.306650E-06  1.000000E+00  0.000000E+00  1.000000E+00  0.000000E+00
  0.000181675  2.517630E-02 -2.201470E-02 -1.226040E-04 -1.139160E-03  1.000000E+00  0.000000E+00  1.000000E+00  0.000000E+00
  0.000184150  2.614920E-02 -1.917900E-02 -8.401650E-04 -2.955170E-04  1.000000E+00  0.000000E+00  1.000000E+00  0.000000E+00
  0.000186625  2.728720E-02 -2.144230E-02 -2.288830E-03 -1.955520E-03  1.000000E+00  0.000000E+00  1.000000E+00  0.000000E+00
  0.000189100  2.732800E-02 -2.047390E-02 -1.153470E-03 -1.404990E-03  1.000000E+00  0.000000E+00  1.000000E+00  0.000000E+00
  0.000191575  2.773820E-02 -2.031710E-02 -1.830040E-05 -2.362650E-04  1.000000E+00  0.000000E+00  1.000000E+00  0.000000E+00
  0.000194050  2.623470E-02 -1.906920E-02 -4.992530E-04 -2.969410E-04  1.000000E+00  0.000000E+00  1.000000E+00  0.000000E+00
  0.000196525  2.790340E-02 -1.915570E-02 -9.070670E-04 -3.378400E-03  1.000000E+00  0.000000E+00  1.000000E+00  0.000000E+00
  0.000199000  2.837020E-02 -1.770810E-02 -1.044060E-03 -1.999510E-03  1.000000E+00  0.000000E+00  1.000000E+00  0.000000E+00
  0.000201475  2.875830E-02 -1.771160E-02 -4.280390E-04 -7.060560E-04  1.000000E+00  0.000000E+00  1.000000E+00  0.000000E+00
  0.000203950  2.753690E-02 -1.679840E-02 -1.782120E-03 -2.344590E-03  1.000000E+00  0.000000E+00  1.000000E+00  0.000000E+00
  0.000206425  2.941830E-02 -1.835170E-02  3.185050E-04 -4.998100E-04  1.000000E+00  0.000000E+00  1.000000E+00  0.000000E+00
  0.000208900  2.815550E-02 -1.766070E-02 -1.021380E-03 -1.435460E-03  1.000000E+00  0.000000E+00  1.000000E+00  0.000000E+00
  0.000211375  2.971160E-02 -1.708790E-02 -1.759100E-03 -5.667430E-04  1.000000E+00  0.000000E+00  1.000000E+00  0.000000E+00
  0.000213850  2.876550E-02 -1.670300E-02 -1.286170E-03 -1.153840E-03  1.000000E+00  0.000000E+00  1.000000E+00  0.000000E+00
  0.000216325  3.033740E-02 -1.738270E-02 -8.323400E-04 -1.442370E-03  1.000000E+00  0.000000E+00  1.000000E+00  0.000000E+00
  0.000218800  2.967680E-02 -1.659660E-02 -1.061000E-03 -1.890760E-03  1.000000E+00  0.000000E+00  1.000000E+00  0.000000E+00
  0.000221275  3.142910E-02 -1.550800E-02 -9.363220E-04 -1.722830E-03  1.000000E+00  0.000000E+00  1.000000E+00  0.000000E+00
  0.000223750  2.960210E-02 -1.620090E-02 -1.613400E-03 -5.294460E-04  1.000000E+00  0.000000E+00  1.000000E+00  0.000000E+00
  0.000226225  3.109670E-02 -1.391780E-02 -1.287900E-04 -2.272100E-03  1.000000E+00  0.000000E+00  1.000000E+00  0.000000E+00
  0.000228700  3.046270E-02 -1.401200E-02 -2.268800E-03 -2.341200E-03  1.000000E+00  0.000000E+00  1.000000E+00  0.000000E+00
  0.000231175  2.984120E-02 -1.360560E-02 -1.269840E-03 -2.104370E-03  1.000000E+00  0.000000E+00  1.000000E+00  0.000000E+00
  0.000233650  3.069200E-02 -1.297750E-02 -7.159350E-04 -1.727400E-03  1.000000E+00  0.000000E+00  1.000000E+00  0.000000E+00
  0.000236125  3.043540E-02 -1.268200E-02 -1.387690E-03 -1.503210E-03  1.000000E+00  0.000000E+00  1.000000E+00  0.000000E+00
  0.000238600  3.115400E-02 -1.337050E-02 -1.922230E-03 -2.813380E-03  1.000000E+00  0.000000E+00  1.000000E+00  0.000000E+00
  0.000241075  3.158090E-02 -1.358380E-02 -1.441060E-03 -2.774970E-03  1.000000E+00  0.000000E+00  1.000000E+00  0.000000E+00
  0.000243550  3.089440E-02 -1.284230E-02 -1.243930E-03 -1.306840E-03  1.000000E+00  0.000000E+00  1.000000E+00  0.000000E+00
  0.000246025  3.204700E-02 -1.294860E-02 -1.449100E-03 -1.815920E-03  1.000000E+00  0.000000E+00  1.000000E+00  0.000000E+00
  0.000248500  3.184820E-02 -1.078990E-02 -6.375680E-04 -2.546630E-03  1.000000E+00  0.000000E+00  1.000000E+00  0.000000E+00
  0.000250975  3.247430E-02 -1.179400E-02 -1.925860E-03 -2.748630E-03  1.000000E+00  0.000000E+00  1.000000E+00  0.000000E+00
  0.000253450  3.343960E-02 -1.045720E-02 -2.058390E-03 -1.627390E-03  1.000000E+00  0.000000E+00  1.000000E+00  0.000000E+00
  0.000255925  3.086580E-02 -1.037360E-02 -8.642670E-04 -2.531380E-03  1.000000E+00  0.000000E+00  1.000000E+00  0.000000E+00
  0.000258400  3.251430E-02 -1.035800E-02 -9.394960E-04 -2.379870E-03  1.000000E+00  0.000000E+00  1.000000E+00  0.000000E+00
  0.000260875  3.286850E-02 -1.018710E-02 -1.624820E-03 -4.136780E-03  1.000000E+00  0.000000E+00  1.000000E+00  0.000000E+00
  0.000263350  3.188690E-02 -9.239740E-03 -1.557030E-03 -3.055410E-03  1.000000E+00  0.000000E+00  1.000000E+00  0.000000E+00
  0.000265825  3.191920E-02 -9.186620E-03 -1.243370E-03 -1.737940E-03  1.000000E+00  0.000000E+00  1.000000E+00  0.000000E+00
  0.000268300  3.367070E-02 -1.028230E-02 -1.440170E-03 -1.655150E-03  1.000000E+00  0.000000E+00  1.000000E+00  0.000000E+00
  0.000270775  3.278860E-02 -8.577050E-03 -3.768760E-03 -3.914270E-03  1.000000E+00  0.000000E+00  1.000000E+00  0.000000E+00
  0.000273250  3.335570E-02 -8.063130E-03 -1.245440E-03 -2.505120E-03  1.000000E+00  0.000000E+00  1.000000E+00  0.000000E+00
  0.000275725  3.432770E-02 -7.925410E-03 -2.691630E-03 -2.026120E-03  1.000000E+00  0.000000E+00  1.000000E+00  0.000000E+00
  0.000278200  3.358470E-02 -6.819780E-03 -1.824340E-03 -2.447140E-03  1.000000E+00  0.000000E+00  1.000000E+00  0.000000E+00
  0.000280675  3.471490E-02 -7.971410E-03 -2.543130E-03 -2.449680E-03  1.000000E+00  0.000000E+00  1.000000E+00  0.000000E+00
  0.000283150  3.374690E-02 -7.055540E-03 -3.016520E-03 -3.621830E-03  1.000000E+00  0.000000E+00  1.000000E+00  0.000000E+00
  0.000285625  3.283020E-02 -6.784220E-03 -1.521690E-03 -3.059530E-03  1.000000E+00  0.000000E+00  1.000000E+00  0.000000E+00
  0.000288100  3.375500E-02 -6.338870E-03 -1.969060E-03 -1.563120E-03  1.000000E+00  0.000000E+00  1.000000E+00  0.000000E+00
  0.000290575  3.416180E-02 -4.995280E-03 -2.846240E-03 -2.766940E-03  1.000000E+00  0.000000E+00  1.000000E+00  0.000000E+00
  0.000293050  3.462330E-02 -4.920450E-03 -3.850880E-03 -5.052970E-03  1.000000E+00  0.000000E+00  1.000000E+00  0.000000E+00
  0.000295525  3.436280E-02 -4.405740E-03 -1.965440E-03 -2.907630E-03  1.000000E+00  0.000000E+00  1.000000E+00  0.000000E+00
  0.000298000  3.457230E-02 -5.965420E-03 -1.333430E-03 -1.435320E-03  1.000000E+00  0.000000E+00  1.000000E+00  0.000000E+00
  0.000300475  3.580210E-02 -5.643930E-03 -3.650800E-03 -1.585590E-03  1.000000E+00  0.000000E+00  1.000000E+00  0.000000E+00
  0.000302950  3.492130E-02 -4.899310E-03 -6.701860E-03 -4.368650E-03  1.000000E+00  0.000000E+00  1.000000E+00  0.000000E+00
  0.000305425  3.529330E-02 -5.258540E-03 -3.827330E-03 -2.742690E-03  1.000000E+00  0.000000E+00  1.000000E+00  0.000000E+00
  0.000307900  3.547190E-02 -5.867700E-03 -1.787610E-03 -2.724570E-03  1.000000E+00  0.000000E+00  1.000000E+00  0.000000E+00
  0.000310375  3.725580E-02 -4.385980E-03 -3.039920E-03 -2.149300E-03  1.000000E+00  0.000000E+00  1.000000E+00  0.000000E+00
  0.000312850  3.666980E-02 -4.291980E-03 -7.795770E-03 -4.871350E-03  1.000000E+00  0.000000E+00  1.000000E+00  0.000000E+00
  0.000315325  3.578330E-02 -2.908640E-03 -8.573920E-03 -6.248320E-03  1.000000E+00  0.000000E+00  1.000000E+00  0.000000E+00
  0.000317800  3.734640E-02 -2.354970E-03 -2.082490E-03 -2.214840E-03  1.000000E+00  0.000000E+00  1.000000E+00  0.000000E+00
  0.000320275  3.574580E-02 -2.066050E-03 -2.208960E-03 -2.743840E-03  1.000000E+00  0.000000E+00  1.000000E+00  0.000000E+00
  0.000322750  3.711220E-02 -2.653890E-03 -6.659080E-03 -1.641820E-03  1.000000E+00  0.000000E+00  1.000000E+00  0.000000E+00
  0.000325225  3.976340E-02 -2.272100E-03 -1.639940E-02 -5.289840E-03  1.000000E+00  0.000000E+00  1.000000E+00  0.000000E+00
  0.000327700  3.854090E-02 -3.226280E-03 -2.884910E-03 -2.338980E-03  1.000000E+00  0.000000E+00  1.000000E+00  0.000000E+00
  0.000330175  3.659720E-02 -1.585760E-03 -3.594970E-03 -2.961510E-03  1.000000E+00  0.000000E+00  1.000000E+00  0.000000E+00
  0.000332650  3.673810E-02 -2.774550E-03 -6.030820E-03 -1.157330E-03  1.000000E+00  0.000000E+00  1.000000E+00  0.000000E+00
  0.000335125  4.106040E-02 -1.652410E-03 -2.134710E-02  5.438570E-03  1.000000E+00  0.000000E+00  1.000000E+00  0.000000E+00
  0.000337600  3.852430E-02  2.535830E-04 -6.492560E-03 -2.575910E-03  1.000000E+00  0.000000E+00  1.000000E+00  0.000000E+00
  0.000340075  3.873140E-02 -2.174160E-03 -4.270760E-03 -3.260500E-03  1.000000E+00  0.000000E+00  1.000000E+00  0.000000E+00
  0.000342550  3.920710E-02 -1.139500E-04 -4.629340E-03 -1.586970E-03  1.000000E+00  0.000000E+00  1.000000E+00  0.000000E+00
  0.000345025  4.086690E-02 -2.304920E-03 -1.164830E-02  1.135860E-02  1.000000E+00  0.000000E+00  1.000000E+00  0.000000E+00
  0.000347500  3.834020E-02 -1.612450E-03 -7.436110E-03  6.019370E-03  1.000000E+00  0.000000E+00  1.000000E+00  0.000000E+00
  0.000349975  3.899230E-02 -5.531860E-04 -5.060040E-03 -2.117670E-03  1.000000E+00  0.000000E+00  1.000000E+00  0.000000E+00
  0.000352450  4.079190E-02  2.618280E-04 -7.009850E-03 -1.797500E-03  1.000000E+00  0.000000E+00  1.000000E+00  0.000000E+00
  0.000354925  4.067480E-02  5.218260E-04 -8.161520E-03  6.355420E-03  1.000000E+00  0.000000E+00  1.000000E+00  0.000000E+00
  0.000357400  3.955060E-02 -1.146790E-03 -5.265990E-03  1.104950E-02  1.000000E+00  0.000000E+00  1.000000E+00  0.000000E+00
  0.000359875  4.231980E-02  2.225260E-04 -6.250040E-03 -1.753200E-03  1.000000E+00  0.000000E+00  1.000000E+00  0.000000E+00
  0.000362350  4.200290E-02 -1.340990E-03 -7.647220E-03  2.045050E-04  1.000000E+00  0.000000E+00  1.000000E+00  0.000000E+00
  0.000364825  4.334010E-02  6.489060E-04 -6.508780E-03  3.778180E-03  1.000000E+00  0.000000E+00  1.000000E+00  0.000000E+00
  0.000367300  4.150130E-02 -1.917000E-03 -7.204260E-04  9.809190E-03  1.000000E+00  0.000000E+00  1.000000E+00  0.000000E+00
  0.000369775  4.128530E-02  1.140550E-03 -8.656970E-03  5.358090E-04  1.000000E+00  0.000000E+00  1.000000E+00  0.000000E+00
  0.000372250  4.309030E-02 -1.376910E-03 -8.356180E-03  1.107210E-03  1.000000E+00  0.000000E+00  1.000000E+00  0.000000E+00
  0.000374725  4.213310E-02 -1.431870E-03 -6.013110E-03  3.876460E-03  1.000000E+00  0.000000E+00  1.000000E+00  0.000000E+00
  0.000377200  4.206800E-02 -6.285400E-04 -3.522210E-04  9.232140E-03  1.000000E+00  0.000000E+00  1.000000E+00  0.000000E+00
  0.000379675  4.386550E-02 -1.282900E-03 -5.913440E-03  3.768840E-03  1.000000E+00  0.000000E+00  1.000000E+00  0.000000E+00
  0.000382150  4.385150E-02 -1.502570E-03 -9.624060E-03  3.788040E-03  1.000000E+00  0.000000E+00  1.000000E+00  0.000000E+00
  0.000384625  4.687280E-02 -1.509990E-03 -7.064760E-03  4.969450E-03  1.000000E+00  0.000000E+00  1.000000E+00  0.000000E+00
  0.000387100  4.269250E-02 -2.227570E-03 -2.909540E-04  4.950220E-03  1.000000E+00  0.000000E+00  1.000000E+00  0.000000E+00
  0.000389575  4.480080E-02 -2.109220E-03 -1.420780E-03  7.849460E-03  1.000000E+00  0.000000E+00  1.000000E+00  0.000000E+00
  0.000392050  4.488430E-02  5.822840E-04 -5.752990E-03  8.062350E-03  1.000000E+00  0.000000E+00  1.000000E+00  0.000000E+00
  0.000394525  4.484700E-02 -1.803240E-04 -4.084140E-03  7.988300E-03  1.000000E+00  0.000000E+00  1.000000E+00  0.000000E+00
  0.000397000  4.280420E-02 -4.122620E-04  2.460820E-03  6.503950E-03  1.000000E+00  0.000000E+00  1.000000E+00  0.000000E+00
  0.000399475  4.582930E-02 -1.743160E-03  2.819210E-04  4.470370E-03  1.000000E+00  0.000000E+00  1.000000E+00  0.000000E+00
  0.000401950  4.585400E-02 -2.221510E-03 -2.083860E-03  7.867470E-03  1.000000E+00  0.000000E+00  1.000000E+00  0.000000E+00
  0.000404425  4.639650E-02 -4.703580E-04 -1.460360E-03  8.107830E-03  1.000000E+00  0.000000E+00  1.000000E+00  0.000000E+00
  0.000406900  4.521060E-02 -7.353320E-04  6.033950E-04  5.801770E-03  1.000000E+00  0.000000E+00  1.000000E+00  0.000000E+00
  0.000409375  4.607580E-02 -1.711580E-03  6.715600E-04  3.295720E-03  1.000000E+00  0.000000E+00  1.000000E+00  0.000000E+00
  0.000411850  4.563730E-02 -3.026150E-03 -6.423090E-05  7.347990E-03  1.000000E+00  0.000000E+00  1.000000E+00  0.000000E+00
  0.000414325  4.631110E-02 -1.351010E-03  2.680200E-03  5.948590E-03  1.000000E+00  0.000000E+00  1.000000E+00  0.000000E+00
  0.000416800  4.576600E-02 -2.904290E-04  3.367200E-03  5.415650E-03  1.000000E+00  0.000000E+00  1.000000E+00  0.000000E+00
  0.000419275  4.608840E-02 -1.394180E-03  3.943950E-03  2.209150E-03  1.000000E+00  0.000000E+00  1.000000E+00  0.000000E+00
  0.000421750  4.644060E-02 -2.697220E-03  2.548660E-03  5.445300E-03  1.000000E+00  0.000000E+00  1.000000E+00  0.000000E+00
  0.000424225  4.703840E-02 -8.090080E-04  3.778700E-03  4.810990E-03  1.000000E+00  0.000000E+00  1.000000E+00  0.000000E+00
  0.000426700  4.628550E-02 -4.652110E-03  4.893710E-03  3.440650E-03  1.000000E+00  0.000000E+00  1.000000E+00  0.000000E+00
  0.000429175  4.571760E-02 -2.733520E-03  2.915920E-03  2.290040E-03  1.000000E+00  0.000000E+00  1.000000E+00  0.000000E+00
  0.000431650  4.611100E-02 -2.974000E-03  3.599590E-03  3.133720E-03  1.000000E+00  0.000000E+00  1.000000E+00  0.000000E+00
  0.000434125  4.719590E-02 -3.319620E-03  3.462320E-03  2.446000E-03  1.000000E+00  0.000000E+00  1.000000E+00  0.000000E+00
  0.000436600  4.589090E-02 -2.226660E-03  3.430410E-03  1.557000E-03  1.000000E+00  0.000000E+00  1.000000E+00  0.000000E+00
  0.000439075  4.863790E-02 -3.012880E-03  4.012450E-03  1.445380E-03  1.000000E+00  0.000000E+00  1.000000E+00  0.000000E+00
  0.000441550  4.616290E-02 -2.467170E-03  2.632000E-03  1.944610E-03  1.000000E+00  0.000000E+00  1.000000E+00  0.000000E+00
  0.000444025  4.563140E-02 -3.061920E-03  3.608720E-03  2.412930E-04  1.000000E+00  0.000000E+00  1.000000E+00  0.000000E+00
  0.000446500  4.584940E-02 -3.288870E-03  3.076880E-03 -2.245030E-03  1.000000E+00  0.000000E+00  1.000000E+00  0.000000E+00
  0.000448975  4.712830E-02 -3.293920E-03  3.929770E-03 -2.081870E-03  1.000000E+00  0.000000E+00  1.000000E+00  0.000000E+00
  0.000451450  4.681220E-02 -3.311240E-03  2.059580E-03  1.320540E-03  1.000000E+00  0.000000E+00  1.000000E+00  0.000000E+00
  0.000453925  4.632700E-02 -2.988580E-03  1.265260E-03 -1.065790E-03  1.000000E+00  0.000000E+00  1.000000E+00  0.000000E+00
