! Anritsu VNA Master:                        Model: MS2026C/19
! SN:                                  1815009
! /card0/usr/20180902_22.s2p
! Existing Calibration Information:
! TYPE:                         Current Settings,       Active Cal Settings
! TIME:             	   09/02/2018 02:28:20 PM,    09/02/2018 11:58:48 AM
! INTERNAL TEMP:    	                   47.8 C,                    48.8 C
! # POINTS:         	                     4001,                      4001
! START FREQ:       	              100.000 kHz,               100.000 kHz
! STOP FREQ:        	               10.000 MHz,                10.000 MHz
! SOURCE POWER:     	                      Low,                       Low
! IFBW:             	                   500 Hz,                    500 Hz
! AVG FACTOR:       	                       5 ,                        1 
! REF PLANE 1:      	                     0 mm,                      0 mm
! REF PLANE 2:      	                     0 mm,                      0 mm
! CAL TYPE:         	             1P2P S11,S21,              1P2P S11,S21
! CAL METHOD:       	                     SOLT,                      SOLT
! CAL LINE TYPE:    	                     Coax,                      Coax
! DUT PORT 1:       	                N-Conn(M),                 N-Conn(M)
! DUT PORT 2:       	                N-Conn(M),                 N-Conn(M)
! CAL STATUS:       	        OK: Accuracy High,                        --
# GHZ S RI R 50.0
! FREQ.GHZ      S11RE         S11IM         S21RE         S21IM         S12RE         S12IM         S22RE         S22IM
  0.000100000  5.638490E-03 -6.282040E-02  1.735060E+00  4.674960E+00  1.000000E+00  0.000000E+00  1.000000E+00  0.000000E+00
  0.000102475  7.161410E-03 -5.982750E-02  1.887230E+00  4.631850E+00  1.000000E+00  0.000000E+00  1.000000E+00  0.000000E+00
  0.000104950  7.372320E-03 -5.769720E-02  2.048790E+00  4.587520E+00  1.000000E+00  0.000000E+00  1.000000E+00  0.000000E+00
  0.000107425  9.547790E-03 -5.534160E-02  2.193950E+00  4.529520E+00  1.000000E+00  0.000000E+00  1.000000E+00  0.000000E+00
  0.000109900  1.026530E-02 -5.370180E-02  2.336280E+00  4.480490E+00  1.000000E+00  0.000000E+00  1.000000E+00  0.000000E+00
  0.000112375  1.130670E-02 -5.256030E-02  2.480990E+00  4.417990E+00  1.000000E+00  0.000000E+00  1.000000E+00  0.000000E+00
  0.000114850  1.199850E-02 -5.042370E-02  2.606210E+00  4.356950E+00  1.000000E+00  0.000000E+00  1.000000E+00  0.000000E+00
  0.000117325  1.369190E-02 -4.904500E-02  2.720780E+00  4.278130E+00  1.000000E+00  0.000000E+00  1.000000E+00  0.000000E+00
  0.000119800  1.390270E-02 -4.752320E-02  2.838140E+00  4.212990E+00  1.000000E+00  0.000000E+00  1.000000E+00  0.000000E+00
  0.000122275  1.517270E-02 -4.507410E-02  2.952010E+00  4.150260E+00  1.000000E+00  0.000000E+00  1.000000E+00  0.000000E+00
  0.000124750  1.613200E-02 -4.509670E-02  3.058520E+00  4.076210E+00  1.000000E+00  0.000000E+00  1.000000E+00  0.000000E+00
  0.000127225  1.580030E-02 -4.278530E-02  3.160340E+00  4.016160E+00  1.000000E+00  0.000000E+00  1.000000E+00  0.000000E+00
  0.000129700  1.748570E-02 -4.064090E-02  3.259570E+00  3.940220E+00  1.000000E+00  0.000000E+00  1.000000E+00  0.000000E+00
  0.000132175  1.745740E-02 -4.060910E-02  3.348850E+00  3.884990E+00  1.000000E+00  0.000000E+00  1.000000E+00  0.000000E+00
  0.000134650  1.890130E-02 -4.024820E-02  3.429770E+00  3.807720E+00  1.000000E+00  0.000000E+00  1.000000E+00  0.000000E+00
  0.000137125  1.873870E-02 -3.833590E-02  3.510560E+00  3.745130E+00  1.000000E+00  0.000000E+00  1.000000E+00  0.000000E+00
  0.000139600  1.986000E-02 -3.841590E-02  3.591920E+00  3.672980E+00  1.000000E+00  0.000000E+00  1.000000E+00  0.000000E+00
  0.000142075  2.086660E-02 -3.716900E-02  3.663430E+00  3.602810E+00  1.000000E+00  0.000000E+00  1.000000E+00  0.000000E+00
  0.000144550  2.019140E-02 -3.590160E-02  3.720860E+00  3.522210E+00  1.000000E+00  0.000000E+00  1.000000E+00  0.000000E+00
  0.000147025  2.159040E-02 -3.388160E-02  3.788140E+00  3.460000E+00  1.000000E+00  0.000000E+00  1.000000E+00  0.000000E+00
  0.000149500  2.264760E-02 -3.380810E-02  3.848510E+00  3.382840E+00  1.000000E+00  0.000000E+00  1.000000E+00  0.000000E+00
  0.000151975  2.211510E-02 -3.337490E-02  3.895310E+00  3.324130E+00  1.000000E+00  0.000000E+00  1.000000E+00  0.000000E+00
  0.000154450  2.259140E-02 -3.104140E-02  3.949130E+00  3.255090E+00  1.000000E+00  0.000000E+00  1.000000E+00  0.000000E+00
  0.000156925  2.353860E-02 -3.064150E-02  4.022670E+00  3.203320E+00  1.000000E+00  0.000000E+00  1.000000E+00  0.000000E+00
  0.000159400  2.261900E-02 -3.046690E-02  4.057610E+00  3.129770E+00  1.000000E+00  0.000000E+00  1.000000E+00  0.000000E+00
  0.000161875  2.413450E-02 -3.031830E-02  4.108020E+00  3.074980E+00  1.000000E+00  0.000000E+00  1.000000E+00  0.000000E+00
  0.000164350  2.481010E-02 -2.953950E-02  4.159180E+00  3.009790E+00  1.000000E+00  0.000000E+00  1.000000E+00  0.000000E+00
  0.000166825  2.407170E-02 -2.872520E-02  4.205910E+00  2.938110E+00  1.000000E+00  0.000000E+00  1.000000E+00  0.000000E+00
  0.000169300  2.561230E-02 -2.797810E-02  4.241390E+00  2.896940E+00  1.000000E+00  0.000000E+00  1.000000E+00  0.000000E+00
  0.000171775  2.574410E-02 -2.729330E-02  4.286120E+00  2.827860E+00  1.000000E+00  0.000000E+00  1.000000E+00  0.000000E+00
  0.000174250  2.566220E-02 -2.641860E-02  4.320880E+00  2.781400E+00  1.000000E+00  0.000000E+00  1.000000E+00  0.000000E+00
  0.000176725  2.605920E-02 -2.562970E-02  4.350910E+00  2.723920E+00  1.000000E+00  0.000000E+00  1.000000E+00  0.000000E+00
  0.000179200  2.621960E-02 -2.536040E-02  4.391160E+00  2.661720E+00  1.000000E+00  0.000000E+00  1.000000E+00  0.000000E+00
  0.000181675  2.628880E-02 -2.576730E-02  4.432130E+00  2.612140E+00  1.000000E+00  0.000000E+00  1.000000E+00  0.000000E+00
  0.000184150  2.712730E-02 -2.378800E-02  4.467330E+00  2.544900E+00  1.000000E+00  0.000000E+00  1.000000E+00  0.000000E+00
  0.000186625  2.804130E-02 -2.346050E-02  4.486690E+00  2.512910E+00  1.000000E+00  0.000000E+00  1.000000E+00  0.000000E+00
  0.000189100  2.686840E-02 -2.352760E-02  4.523940E+00  2.442420E+00  1.000000E+00  0.000000E+00  1.000000E+00  0.000000E+00
  0.000191575  2.638650E-02 -2.425570E-02  4.538870E+00  2.389070E+00  1.000000E+00  0.000000E+00  1.000000E+00  0.000000E+00
  0.000194050  2.766910E-02 -2.247100E-02  4.574880E+00  2.342790E+00  1.000000E+00  0.000000E+00  1.000000E+00  0.000000E+00
  0.000196525  2.794830E-02 -2.177840E-02  4.600000E+00  2.293390E+00  1.000000E+00  0.000000E+00  1.000000E+00  0.000000E+00
  0.000199000  2.899820E-02 -2.139510E-02  4.622440E+00  2.240470E+00  1.000000E+00  0.000000E+00  1.000000E+00  0.000000E+00
  0.000201475  2.900560E-02 -2.034970E-02  4.651020E+00  2.185520E+00  1.000000E+00  0.000000E+00  1.000000E+00  0.000000E+00
  0.000203950  2.851550E-02 -2.015600E-02  4.666770E+00  2.143580E+00  1.000000E+00  0.000000E+00  1.000000E+00  0.000000E+00
  0.000206425  2.993180E-02 -2.047530E-02  4.694650E+00  2.103640E+00  1.000000E+00  0.000000E+00  1.000000E+00  0.000000E+00
  0.000208900  2.909030E-02 -2.011570E-02  4.707020E+00  2.045020E+00  1.000000E+00  0.000000E+00  1.000000E+00  0.000000E+00
  0.000211375  3.041660E-02 -1.922710E-02  4.724100E+00  2.008230E+00  1.000000E+00  0.000000E+00  1.000000E+00  0.000000E+00
  0.000213850  2.960810E-02 -1.880240E-02  4.745820E+00  1.948120E+00  1.000000E+00  0.000000E+00  1.000000E+00  0.000000E+00
  0.000216325  2.994070E-02 -1.934410E-02  4.755070E+00  1.914220E+00  1.000000E+00  0.000000E+00  1.000000E+00  0.000000E+00
  0.000218800  3.001250E-02 -1.849550E-02  4.782180E+00  1.862210E+00  1.000000E+00  0.000000E+00  1.000000E+00  0.000000E+00
  0.000221275  3.169780E-02 -1.731790E-02  4.795900E+00  1.814960E+00  1.000000E+00  0.000000E+00  1.000000E+00  0.000000E+00
  0.000223750  3.143020E-02 -1.724840E-02  4.814100E+00  1.777600E+00  1.000000E+00  0.000000E+00  1.000000E+00  0.000000E+00
  0.000226225  3.157510E-02 -1.653120E-02  4.835390E+00  1.735290E+00  1.000000E+00  0.000000E+00  1.000000E+00  0.000000E+00
  0.000228700  3.090390E-02 -1.694060E-02  4.839620E+00  1.692220E+00  1.000000E+00  0.000000E+00  1.000000E+00  0.000000E+00
  0.000231175  3.132830E-02 -1.677250E-02  4.854240E+00  1.647550E+00  1.000000E+00  0.000000E+00  1.000000E+00  0.000000E+00
  0.000233650  3.104780E-02 -1.655600E-02  4.872930E+00  1.606020E+00  1.000000E+00  0.000000E+00  1.000000E+00  0.000000E+00
  0.000236125  3.101000E-02 -1.564710E-02  4.874710E+00  1.567280E+00  1.000000E+00  0.000000E+00  1.000000E+00  0.000000E+00
  0.000238600  3.186950E-02 -1.531420E-02  4.884550E+00  1.520230E+00  1.000000E+00  0.000000E+00  1.000000E+00  0.000000E+00
  0.000241075  3.158950E-02 -1.530420E-02  4.907780E+00  1.484780E+00  1.000000E+00  0.000000E+00  1.000000E+00  0.000000E+00
  0.000243550  3.217730E-02 -1.490730E-02  4.909620E+00  1.432610E+00  1.000000E+00  0.000000E+00  1.000000E+00  0.000000E+00
  0.000246025  3.270370E-02 -1.525530E-02  4.905090E+00  1.400080E+00  1.000000E+00  0.000000E+00  1.000000E+00  0.000000E+00
  0.000248500  3.255800E-02 -1.424550E-02  4.938420E+00  1.358290E+00  1.000000E+00  0.000000E+00  1.000000E+00  0.000000E+00
  0.000250975  3.305630E-02 -1.509850E-02  4.932460E+00  1.320860E+00  1.000000E+00  0.000000E+00  1.000000E+00  0.000000E+00
  0.000253450  3.284910E-02 -1.351420E-02  4.945590E+00  1.280130E+00  1.000000E+00  0.000000E+00  1.000000E+00  0.000000E+00
  0.000255925  3.279130E-02 -1.286460E-02  4.943370E+00  1.247550E+00  1.000000E+00  0.000000E+00  1.000000E+00  0.000000E+00
  0.000258400  3.335100E-02 -1.284290E-02  4.958990E+00  1.200290E+00  1.000000E+00  0.000000E+00  1.000000E+00  0.000000E+00
  0.000260875  3.361120E-02 -1.306750E-02  4.965400E+00  1.170440E+00  1.000000E+00  0.000000E+00  1.000000E+00  0.000000E+00
  0.000263350  3.266970E-02 -1.246610E-02  4.981450E+00  1.122650E+00  1.000000E+00  0.000000E+00  1.000000E+00  0.000000E+00
  0.000265825  3.313110E-02 -1.251490E-02  4.979880E+00  1.106230E+00  1.000000E+00  0.000000E+00  1.000000E+00  0.000000E+00
  0.000268300  3.337940E-02 -1.213350E-02  4.976660E+00  1.066910E+00  1.000000E+00  0.000000E+00  1.000000E+00  0.000000E+00
  0.000270775  3.345480E-02 -1.115930E-02  4.986280E+00  1.024050E+00  1.000000E+00  0.000000E+00  1.000000E+00  0.000000E+00
  0.000273250  3.441970E-02 -1.087720E-02  4.989630E+00  9.895830E-01  1.000000E+00  0.000000E+00  1.000000E+00  0.000000E+00
  0.000275725  3.440070E-02 -1.144050E-02  4.996220E+00  9.517410E-01  1.000000E+00  0.000000E+00  1.000000E+00  0.000000E+00
  0.000278200  3.450990E-02 -1.087150E-02  4.998100E+00  9.153980E-01  1.000000E+00  0.000000E+00  1.000000E+00  0.000000E+00
  0.000280675  3.405280E-02 -1.145990E-02  5.003050E+00  8.907750E-01  1.000000E+00  0.000000E+00  1.000000E+00  0.000000E+00
  0.000283150  3.458860E-02 -1.084820E-02  5.006410E+00  8.498220E-01  1.000000E+00  0.000000E+00  1.000000E+00  0.000000E+00
  0.000285625  3.446620E-02 -1.110620E-02  5.005690E+00  8.358370E-01  1.000000E+00  0.000000E+00  1.000000E+00  0.000000E+00
  0.000288100  3.470170E-02 -1.082140E-02  5.009590E+00  7.847990E-01  1.000000E+00  0.000000E+00  1.000000E+00  0.000000E+00
  0.000290575  3.467000E-02 -9.351250E-03  5.009160E+00  7.653610E-01  1.000000E+00  0.000000E+00  1.000000E+00  0.000000E+00
  0.000293050  3.543250E-02 -1.014140E-02  5.020040E+00  7.229940E-01  1.000000E+00  0.000000E+00  1.000000E+00  0.000000E+00
  0.000295525  3.515700E-02 -8.529480E-03  5.020960E+00  7.006330E-01  1.000000E+00  0.000000E+00  1.000000E+00  0.000000E+00
  0.000298000  3.492410E-02 -1.031230E-02  5.023860E+00  6.703420E-01  1.000000E+00  0.000000E+00  1.000000E+00  0.000000E+00
  0.000300475  3.606410E-02 -9.911350E-03  5.024660E+00  6.393280E-01  1.000000E+00  0.000000E+00  1.000000E+00  0.000000E+00
  0.000302950  3.550800E-02 -8.246210E-03  5.023860E+00  6.035870E-01  1.000000E+00  0.000000E+00  1.000000E+00  0.000000E+00
  0.000305425  3.584430E-02 -7.911710E-03  5.020430E+00  5.683980E-01  1.000000E+00  0.000000E+00  1.000000E+00  0.000000E+00
  0.000307900  3.604680E-02 -8.666170E-03  5.016250E+00  5.429070E-01  1.000000E+00  0.000000E+00  1.000000E+00  0.000000E+00
  0.000310375  3.736240E-02 -8.690490E-03  5.029570E+00  5.111400E-01  1.000000E+00  0.000000E+00  1.000000E+00  0.000000E+00
  0.000312850  3.669750E-02 -8.610180E-03  5.024950E+00  4.870790E-01  1.000000E+00  0.000000E+00  1.000000E+00  0.000000E+00
  0.000315325  3.602870E-02 -9.089020E-03  5.025800E+00  4.605720E-01  1.000000E+00  0.000000E+00  1.000000E+00  0.000000E+00
  0.000317800  3.639480E-02 -7.171630E-03  5.032120E+00  4.213710E-01  1.000000E+00  0.000000E+00  1.000000E+00  0.000000E+00
  0.000320275  3.678640E-02 -6.596640E-03  5.031210E+00  3.970470E-01  1.000000E+00  0.000000E+00  1.000000E+00  0.000000E+00
  0.000322750  3.713560E-02 -7.409070E-03  5.020770E+00  3.747590E-01  1.000000E+00  0.000000E+00  1.000000E+00  0.000000E+00
  0.000325225  3.785170E-02 -8.194400E-03  5.017180E+00  3.531460E-01  1.000000E+00  0.000000E+00  1.000000E+00  0.000000E+00
  0.000327700  3.687500E-02 -6.961840E-03  5.021480E+00  3.044520E-01  1.000000E+00  0.000000E+00  1.000000E+00  0.000000E+00
  0.000330175  3.705570E-02 -7.388040E-03  5.019380E+00  2.828790E-01  1.000000E+00  0.000000E+00  1.000000E+00  0.000000E+00
  0.000332650  3.693160E-02 -6.593140E-03  5.017840E+00  2.532270E-01  1.000000E+00  0.000000E+00  1.000000E+00  0.000000E+00
  0.000335125  3.763870E-02 -6.940740E-03  5.019550E+00  2.360560E-01  1.000000E+00  0.000000E+00  1.000000E+00  0.000000E+00
  0.000337600  3.798840E-02 -6.942270E-03  5.015070E+00  2.122150E-01  1.000000E+00  0.000000E+00  1.000000E+00  0.000000E+00
  0.000340075  3.912120E-02 -6.181500E-03  5.030960E+00  1.813810E-01  1.000000E+00  0.000000E+00  1.000000E+00  0.000000E+00
  0.000342550  3.790000E-02 -6.747840E-03  5.018400E+00  1.507140E-01  1.000000E+00  0.000000E+00  1.000000E+00  0.000000E+00
  0.000345025  3.795950E-02 -6.870680E-03  5.021620E+00  1.349560E-01  1.000000E+00  0.000000E+00  1.000000E+00  0.000000E+00
  0.000347500  3.822440E-02 -7.025270E-03  5.019620E+00  1.036140E-01  1.000000E+00  0.000000E+00  1.000000E+00  0.000000E+00
  0.000349975  3.849030E-02 -5.509960E-03  5.022440E+00  6.169830E-02  1.000000E+00  0.000000E+00  1.000000E+00  0.000000E+00
  0.000352450  4.011910E-02 -5.745120E-03  5.020300E+00  4.315140E-02  1.000000E+00  0.000000E+00  1.000000E+00  0.000000E+00
  0.000354925  3.924650E-02 -5.906640E-03  5.011130E+00  2.640930E-02  1.000000E+00  0.000000E+00  1.000000E+00  0.000000E+00
  0.000357400  3.901950E-02 -5.695140E-03  5.013930E+00 -5.135200E-03  1.000000E+00  0.000000E+00  1.000000E+00  0.000000E+00
  0.000359875  3.969030E-02 -5.506220E-03  5.015990E+00 -2.107010E-02  1.000000E+00  0.000000E+00  1.000000E+00  0.000000E+00
  0.000362350  3.916150E-02 -5.943950E-03  4.995440E+00 -4.406800E-02  1.000000E+00  0.000000E+00  1.000000E+00  0.000000E+00
  0.000364825  4.029230E-02 -5.041180E-03  4.999730E+00 -6.247510E-02  1.000000E+00  0.000000E+00  1.000000E+00  0.000000E+00
  0.000367300  3.954990E-02 -5.961400E-03  4.991900E+00 -1.025890E-01  1.000000E+00  0.000000E+00  1.000000E+00  0.000000E+00
  0.000369775  3.980020E-02 -5.024210E-03  4.989170E+00 -1.252030E-01  1.000000E+00  0.000000E+00  1.000000E+00  0.000000E+00
  0.000372250  3.950490E-02 -5.827060E-03  4.988290E+00 -1.378120E-01  1.000000E+00  0.000000E+00  1.000000E+00  0.000000E+00
  0.000374725  3.936230E-02 -5.236930E-03  4.993520E+00 -1.662620E-01  1.000000E+00  0.000000E+00  1.000000E+00  0.000000E+00
  0.000377200  3.991450E-02 -5.477610E-03  4.985430E+00 -1.928190E-01  1.000000E+00  0.000000E+00  1.000000E+00  0.000000E+00
  0.000379675  4.074900E-02 -5.616800E-03  4.977110E+00 -2.113230E-01  1.000000E+00  0.000000E+00  1.000000E+00  0.000000E+00
  0.000382150  4.064190E-02 -5.685150E-03  4.972700E+00 -2.397270E-01  1.000000E+00  0.000000E+00  1.000000E+00  0.000000E+00
  0.000384625  4.198840E-02 -5.260810E-03  4.968060E+00 -2.646140E-01  1.000000E+00  0.000000E+00  1.000000E+00  0.000000E+00
  0.000387100  3.917250E-02 -5.356100E-03  4.963050E+00 -2.791100E-01  1.000000E+00  0.000000E+00  1.000000E+00  0.000000E+00
  0.000389575  4.091590E-02 -5.121650E-03  4.963940E+00 -2.997050E-01  1.000000E+00  0.000000E+00  1.000000E+00  0.000000E+00
  0.000392050  4.058990E-02 -4.044380E-03  4.956750E+00 -3.261030E-01  1.000000E+00  0.000000E+00  1.000000E+00  0.000000E+00
  0.000394525  4.135110E-02 -4.539690E-03  4.950140E+00 -3.475360E-01  1.000000E+00  0.000000E+00  1.000000E+00  0.000000E+00
  0.000397000  4.047330E-02 -4.454030E-03  4.944260E+00 -3.590720E-01  1.000000E+00  0.000000E+00  1.000000E+00  0.000000E+00
  0.000399475  4.191980E-02 -5.561040E-03  4.941030E+00 -3.927710E-01  1.000000E+00  0.000000E+00  1.000000E+00  0.000000E+00
  0.000401950  4.065000E-02 -5.053320E-03  4.940980E+00 -4.213530E-01  1.000000E+00  0.000000E+00  1.000000E+00  0.000000E+00
  0.000404425  4.237670E-02 -4.299450E-03  4.929420E+00 -4.431120E-01  1.000000E+00  0.000000E+00  1.000000E+00  0.000000E+00
  0.000406900  4.146370E-02 -5.776270E-03  4.918650E+00 -4.612840E-01  1.000000E+00  0.000000E+00  1.000000E+00  0.000000E+00
  0.000409375  4.147950E-02 -5.147250E-03  4.917740E+00 -4.758820E-01  1.000000E+00  0.000000E+00  1.000000E+00  0.000000E+00
  0.000411850  4.070550E-02 -6.170910E-03  4.907260E+00 -4.978430E-01  1.000000E+00  0.000000E+00  1.000000E+00  0.000000E+00
  0.000414325  4.155200E-02 -4.169040E-03  4.898610E+00 -5.255310E-01  1.000000E+00  0.000000E+00  1.000000E+00  0.000000E+00
  0.000416800  4.143490E-02 -4.682540E-03  4.900480E+00 -5.424450E-01  1.000000E+00  0.000000E+00  1.000000E+00  0.000000E+00
  0.000419275  4.153950E-02 -5.235410E-03  4.881580E+00 -5.662140E-01  1.000000E+00  0.000000E+00  1.000000E+00  0.000000E+00
  0.000421750  4.278700E-02 -4.318290E-03  4.878510E+00 -5.792190E-01  1.000000E+00  0.000000E+00  1.000000E+00  0.000000E+00
  0.000424225  4.293240E-02 -4.909360E-03  4.868210E+00 -6.104610E-01  1.000000E+00  0.000000E+00  1.000000E+00  0.000000E+00
  0.000426700  4.191600E-02 -5.479180E-03  4.855040E+00 -6.277980E-01  1.000000E+00  0.000000E+00  1.000000E+00  0.000000E+00
  0.000429175  4.149790E-02 -5.277250E-03  4.854210E+00 -6.333940E-01  1.000000E+00  0.000000E+00  1.000000E+00  0.000000E+00
  0.000431650  4.197260E-02 -5.018930E-03  4.835270E+00 -6.507520E-01  1.000000E+00  0.000000E+00  1.000000E+00  0.000000E+00
  0.000434125  4.324100E-02 -4.980510E-03  4.835640E+00 -6.770600E-01  1.000000E+00  0.000000E+00  1.000000E+00  0.000000E+00
  0.000436600  4.119990E-02 -4.822140E-03  4.807820E+00 -6.896720E-01  1.000000E+00  0.000000E+00  1.000000E+00  0.000000E+00
  0.000439075  4.261490E-02 -4.975930E-03  4.808030E+00 -7.036790E-01  1.000000E+00  0.000000E+00  1.000000E+00  0.000000E+00
  0.000441550  4.304280E-02 -3.959440E-03  4.819450E+00 -7.220980E-01  1.000000E+00  0.000000E+00  1.000000E+00  0.000000E+00
  0.000444025  4.159650E-02 -3.872530E-03  4.799880E+00 -7.389870E-01  1.000000E+00  0.000000E+00  1.000000E+00  0.000000E+00
  0.000446500  4.302480E-02 -5.207480E-03  4.799750E+00 -7.504800E-01  1.000000E+00  0.000000E+00  1.000000E+00  0.000000E+00
  0.000448975  4.257680E-02 -3.586380E-03  4.786560E+00 -7.650700E-01  1.000000E+00  0.000000E+00  1.000000E+00  0.000000E+00
  0.000451450  4.329230E-02 -4.583440E-03  4.777760E+00 -7.678380E-01  1.000000E+00  0.000000E+00  1.000000E+00  0.000000E+00
  0.000453925  4.190470E-02 -3.899830E-03  4.764920E+00 -7.783130E-01  1.000000E+00  0.000000E+00  1.000000E+00  0.000000E+00
